# Version 1.00
#
# Ref Impedances: Z01: 50, Z02: 50
# 
freq[Hz];re:ZMag1_S12;im:ZMag1_S12;re:SMag1_S11;im:SMag1_S11;re:ZPh1_S12;im:ZPh1_S12;re:SPh1_S11;im:SPh1_S11;
5.000000000000000E+07;1.113031556204709E-03;-5.323139673962781E-03;5.302934291042602E-01;7.510076871534070E-01;1.113031556204709E-03;-5.323139673962781E-03;5.302934291042602E-01;7.510076871534070E-01;
5.025025025025025E+07;4.436873377170283E-04;-5.905195440782271E-03;5.253686239455708E-01;7.414016630156182E-01;4.436873377170283E-04;-5.905195440782271E-03;5.253686239455708E-01;7.414016630156182E-01;
5.050050050050050E+07;-5.661664939248945E-04;-6.439250912848560E-03;5.157173050092143E-01;7.290300275351776E-01;-5.661664939248945E-04;-6.439250912848560E-03;5.157173050092143E-01;7.290300275351776E-01;
5.075075075075075E+07;-1.910081007884099E-03;-6.688864371636817E-03;4.985585578970793E-01;7.164334583284837E-01;-1.910081007884099E-03;-6.688864371636817E-03;4.985585578970793E-01;7.164334583284837E-01;
5.100100100100100E+07;-3.435462439711050E-03;-6.359564522480152E-03;4.723284851341659E-01;7.085227928378753E-01;-3.435462439711050E-03;-6.359564522480152E-03;4.723284851341659E-01;7.085227928378753E-01;
5.125125125125125E+07;-4.846553422263328E-03;-5.326435204625536E-03;4.406165364361997E-01;7.117199077216628E-01;-4.846553422263328E-03;-5.326435204625536E-03;4.406165364361997E-01;7.117199077216628E-01;
5.150150150150150E+07;-5.620353226146740E-03;-3.784120527588491E-03;4.116225069225541E-01;7.276137091021213E-01;-5.620353226146740E-03;-3.784120527588491E-03;4.116225069225541E-01;7.276137091021213E-01;
5.175175175175175E+07;-5.662206732812703E-03;-2.291785776217681E-03;3.919656211544337E-01;7.510282382041097E-01;-5.662206732812703E-03;-2.291785776217681E-03;3.919656211544337E-01;7.510282382041097E-01;
5.200200200200200E+07;-5.250444948368040E-03;-1.103317475541050E-03;3.823558335842362E-01;7.747046222841992E-01;-5.250444948368040E-03;-1.103317475541050E-03;3.823558335842362E-01;7.747046222841992E-01;
5.225225225225225E+07;-4.585345420239501E-03;-3.480280569346073E-04;3.793046626931852E-01;7.943373393183220E-01;-4.585345420239501E-03;-3.480280569346073E-04;3.793046626931852E-01;7.943373393183220E-01;
5.250250250250250E+07;-3.984922480596603E-03;8.539541954582743E-05;3.789747391920050E-01;8.089879446367150E-01;-3.984922480596603E-03;8.539541954582743E-05;3.789747391920050E-01;8.089879446367150E-01;
5.275275275275275E+07;-3.463119467291967E-03;3.463795930397161E-04;3.794065804670436E-01;8.200902209169658E-01;-3.463119467291967E-03;3.463795930397161E-04;3.794065804670436E-01;8.200902209169658E-01;
5.300300300300300E+07;-3.000908072133924E-03;4.707542118406272E-04;3.798266238581951E-01;8.286571588796180E-01;-3.000908072133924E-03;4.707542118406272E-04;3.798266238581951E-01;8.286571588796180E-01;
5.325325325325325E+07;-2.645180279999458E-03;5.314217517818484E-04;3.796729142192647E-01;8.352420144253596E-01;-2.645180279999458E-03;5.314217517818484E-04;3.796729142192647E-01;8.352420144253596E-01;
5.350350350350350E+07;-2.342031364946403E-03;5.589061322578643E-04;3.790247623099222E-01;8.403735996820427E-01;-2.342031364946403E-03;5.589061322578643E-04;3.790247623099222E-01;8.403735996820427E-01;
5.375375375375375E+07;-2.108190398535873E-03;5.268935978383031E-04;3.775549026354927E-01;8.447921164346400E-01;-2.108190398535873E-03;5.268935978383031E-04;3.775549026354927E-01;8.447921164346400E-01;
5.400400400400400E+07;-1.913228182890781E-03;5.056560855951790E-04;3.758098671556943E-01;8.483863571978080E-01;-1.913228182890781E-03;5.056560855951790E-04;3.758098671556943E-01;8.483863571978080E-01;
5.425425425425425E+07;-1.735203854646831E-03;4.760640036192412E-04;3.733582056202366E-01;8.516650637221935E-01;-1.735203854646831E-03;4.760640036192412E-04;3.733582056202366E-01;8.516650637221935E-01;
5.450450450450450E+07;-1.606156922148819E-03;4.456982537511937E-04;3.704585742597804E-01;8.545030586139573E-01;-1.606156922148819E-03;4.456982537511937E-04;3.704585742597804E-01;8.545030586139573E-01;
5.475475475475475E+07;-1.495733972612869E-03;4.066269313197897E-04;3.673663765740602E-01;8.571361605644298E-01;-1.495733972612869E-03;4.066269313197897E-04;3.673663765740602E-01;8.571361605644298E-01;
5.500500500500500E+07;-1.383813231789818E-03;3.838012136818324E-04;3.639865579319301E-01;8.597430996117883E-01;-1.383813231789818E-03;3.838012136818324E-04;3.639865579319301E-01;8.597430996117883E-01;
5.525525525525525E+07;-1.302749253636603E-03;3.396737678982405E-04;3.601468149563994E-01;8.618794404724222E-01;-1.302749253636603E-03;3.396737678982405E-04;3.601468149563994E-01;8.618794404724222E-01;
5.550550550550550E+07;-1.226668315714318E-03;3.061183382365036E-04;3.562639727251641E-01;8.642523983015145E-01;-1.226668315714318E-03;3.061183382365036E-04;3.562639727251641E-01;8.642523983015145E-01;
5.575575575575575E+07;-1.153270536190476E-03;2.838741094953798E-04;3.522381341384151E-01;8.664453947930288E-01;-1.153270536190476E-03;2.838741094953798E-04;3.522381341384151E-01;8.664453947930288E-01;
5.600600600600600E+07;-1.098229965980166E-03;2.546264353495259E-04;3.480551955635584E-01;8.686361766715955E-01;-1.098229965980166E-03;2.546264353495259E-04;3.480551955635584E-01;8.686361766715955E-01;
5.625625625625625E+07;-1.057087640259323E-03;2.315024301613406E-04;3.438594729810968E-01;8.706504496169977E-01;-1.057087640259323E-03;2.315024301613406E-04;3.438594729810968E-01;8.706504496169977E-01;
5.650650650650650E+07;-1.002524862128947E-03;2.151301806585945E-04;3.394423927386548E-01;8.723580893129788E-01;-1.002524862128947E-03;2.151301806585945E-04;3.394423927386548E-01;8.723580893129788E-01;
5.675675675675675E+07;-9.618267003507746E-04;1.804491842743784E-04;3.350951012851828E-01;8.742158718157543E-01;-9.618267003507746E-04;1.804491842743784E-04;3.350951012851828E-01;8.742158718157543E-01;
5.700700700700700E+07;-9.362151759828391E-04;1.669752242104306E-04;3.303075234417371E-01;8.760972048576687E-01;-9.362151759828391E-04;1.669752242104306E-04;3.303075234417371E-01;8.760972048576687E-01;
5.725725725725726E+07;-8.990517021604387E-04;1.381374098831432E-04;3.256939699751672E-01;8.778325782675517E-01;-8.990517021604387E-04;1.381374098831432E-04;3.256939699751672E-01;8.778325782675517E-01;
5.750750750750751E+07;-8.659448598059863E-04;1.214964158013550E-04;3.211108934316622E-01;8.795484071143620E-01;-8.659448598059863E-04;1.214964158013550E-04;3.211108934316622E-01;8.795484071143620E-01;
5.775775775775776E+07;-8.385400691429502E-04;1.069396693294600E-04;3.165293219422623E-01;8.813505446574812E-01;-8.385400691429502E-04;1.069396693294600E-04;3.165293219422623E-01;8.813505446574812E-01;
5.800800800800801E+07;-8.192083492456929E-04;8.178171093758647E-05;3.184952148239391E-01;8.801668941256305E-01;-8.192083492456929E-04;8.178171093758647E-05;3.184952148239391E-01;8.801668941256305E-01;
5.825825825825826E+07;-7.976803644549428E-04;7.980476239909900E-05;3.138382946889164E-01;8.815529418286842E-01;-7.976803644549428E-04;7.980476239909900E-05;3.138382946889164E-01;8.815529418286842E-01;
5.850850850850851E+07;-7.802638174149687E-04;5.621608963852606E-05;3.090667174202167E-01;8.831004973503518E-01;-7.802638174149687E-04;5.621608963852606E-05;3.090667174202167E-01;8.831004973503518E-01;
5.875875875875876E+07;-7.487374045338917E-04;2.994098304852969E-05;3.043787330063814E-01;8.842158450045824E-01;-7.487374045338917E-04;2.994098304852969E-05;3.043787330063814E-01;8.842158450045824E-01;
5.900900900900901E+07;-7.405906220899008E-04;1.817144377519635E-05;2.995515305498635E-01;8.853823743639211E-01;-7.405906220899008E-04;1.817144377519635E-05;2.995515305498635E-01;8.853823743639211E-01;
5.925925925925926E+07;-7.257659077404732E-04;1.342818972879508E-05;2.946927895306111E-01;8.865973963666725E-01;-7.257659077404732E-04;1.342818972879508E-05;2.946927895306111E-01;8.865973963666725E-01;
5.950950950950951E+07;-7.128430647321085E-04;2.198313494456180E-06;2.897237042192159E-01;8.878309908327174E-01;-7.128430647321085E-04;2.198313494456180E-06;2.897237042192159E-01;8.878309908327174E-01;
5.975975975975976E+07;-6.893680376814921E-04;-1.830844763375490E-05;2.849157320181551E-01;8.890173448903860E-01;-6.893680376814921E-04;-1.830844763375490E-05;2.849157320181551E-01;8.890173448903860E-01;
6.001001001001001E+07;-6.917330859810535E-04;-2.472787692269794E-05;2.799009879418428E-01;8.900796240707896E-01;-6.917330859810535E-04;-2.472787692269794E-05;2.799009879418428E-01;8.900796240707896E-01;
6.026026026026026E+07;-6.854821168062822E-04;-4.082499462993562E-05;2.752338536153032E-01;8.916105565749498E-01;-6.854821168062822E-04;-4.082499462993562E-05;2.752338536153032E-01;8.916105565749498E-01;
6.051051051051051E+07;-6.625277408931699E-04;-4.335692207471016E-05;2.705661874817658E-01;8.931205807605762E-01;-6.625277408931699E-04;-4.335692207471016E-05;2.705661874817658E-01;8.931205807605762E-01;
6.076076076076076E+07;-6.586820648124347E-04;-5.188431107383496E-05;2.659907382292502E-01;8.946737325705703E-01;-6.586820648124347E-04;-5.188431107383496E-05;2.659907382292502E-01;8.946737325705703E-01;
6.101101101101101E+07;-6.592226834223069E-04;-5.526744576085423E-05;2.616772396306760E-01;8.959312508878101E-01;-6.592226834223069E-04;-5.526744576085423E-05;2.616772396306760E-01;8.959312508878101E-01;
6.126126126126126E+07;-6.295789523840592E-04;-5.809416457292348E-05;2.575586727084901E-01;8.973321234873224E-01;-6.295789523840592E-04;-5.809416457292348E-05;2.575586727084901E-01;8.973321234873224E-01;
6.151151151151151E+07;-6.453539676598739E-04;-5.477793235428408E-05;2.533257470258286E-01;8.985641002572287E-01;-6.453539676598739E-04;-5.477793235428408E-05;2.533257470258286E-01;8.985641002572287E-01;
6.176176176176176E+07;-6.224945165336302E-04;-7.301082849415038E-05;2.492055706547887E-01;8.997281881754227E-01;-6.224945165336302E-04;-7.301082849415038E-05;2.492055706547887E-01;8.997281881754227E-01;
6.201201201201201E+07;-6.098774486181874E-04;-8.399163431868104E-05;2.450700825395098E-01;9.008089159796521E-01;-6.098774486181874E-04;-8.399163431868104E-05;2.450700825395098E-01;9.008089159796521E-01;
6.226226226226226E+07;-6.029659966088692E-04;-8.768152411311623E-05;2.411937339805450E-01;9.018101979652620E-01;-6.029659966088692E-04;-8.768152411311623E-05;2.411937339805450E-01;9.018101979652620E-01;
6.251251251251251E+07;-5.899234992141944E-04;-9.410823493194880E-05;2.370827069545166E-01;9.027871718590506E-01;-5.899234992141944E-04;-9.410823493194880E-05;2.370827069545166E-01;9.027871718590506E-01;
6.276276276276276E+07;-5.736864917772368E-04;-9.885996857212129E-05;2.332581860912043E-01;9.036964695824339E-01;-5.736864917772368E-04;-9.885996857212129E-05;2.332581860912043E-01;9.036964695824339E-01;
6.301301301301301E+07;-5.724658238577764E-04;-1.128520387420782E-04;2.292788902614163E-01;9.045424298009855E-01;-5.724658238577764E-04;-1.128520387420782E-04;2.292788902614163E-01;9.045424298009855E-01;
6.326326326326326E+07;-5.643888798765767E-04;-1.089887306562557E-04;2.253880028602105E-01;9.052647284341755E-01;-5.643888798765767E-04;-1.089887306562557E-04;2.253880028602105E-01;9.052647284341755E-01;
6.351351351351351E+07;-5.615637332565086E-04;-1.171027847534149E-04;2.215995443542667E-01;9.059761075561231E-01;-5.615637332565086E-04;-1.171027847534149E-04;2.215995443542667E-01;9.059761075561231E-01;
6.376376376376376E+07;-5.460693204244113E-04;-1.311072899078706E-04;2.176604777601799E-01;9.066353998927170E-01;-5.460693204244113E-04;-1.311072899078706E-04;2.176604777601799E-01;9.066353998927170E-01;
6.401401401401401E+07;-5.411844973172955E-04;-1.496936437726058E-04;2.139699686125239E-01;9.073613473653296E-01;-5.411844973172955E-04;-1.496936437726058E-04;2.139699686125239E-01;9.073613473653296E-01;
6.426426426426426E+07;-5.322013013326409E-04;-1.474886952276397E-04;2.101525604154149E-01;9.080474614582686E-01;-5.322013013326409E-04;-1.474886952276397E-04;2.101525604154149E-01;9.080474614582686E-01;
6.451451451451451E+07;-5.274148410783046E-04;-1.606809081196702E-04;2.066091013965687E-01;9.087208750187997E-01;-5.274148410783046E-04;-1.606809081196702E-04;2.066091013965687E-01;9.087208750187997E-01;
6.476476476476476E+07;-5.293337717758225E-04;-1.626231376617208E-04;2.030676805243789E-01;9.094369856975224E-01;-5.293337717758225E-04;-1.626231376617208E-04;2.030676805243789E-01;9.094369856975224E-01;
6.501501501501501E+07;-5.135083575182884E-04;-1.649128009579420E-04;1.995171754491739E-01;9.100560908214407E-01;-5.135083575182884E-04;-1.649128009579420E-04;1.995171754491739E-01;9.100560908214407E-01;
6.526526526526526E+07;-5.073562023102880E-04;-1.743054831539346E-04;1.960283070747334E-01;9.105741170269112E-01;-5.073562023102880E-04;-1.743054831539346E-04;1.960283070747334E-01;9.105741170269112E-01;
6.551551551551551E+07;-5.039087912104065E-04;-1.740822158060751E-04;1.926660292815744E-01;9.111768904221458E-01;-5.039087912104065E-04;-1.740822158060751E-04;1.926660292815744E-01;9.111768904221458E-01;
6.576576576576576E+07;-5.011795331083267E-04;-1.863275932557463E-04;1.802803498865583E-01;9.136877702040446E-01;-5.011795331083267E-04;-1.863275932557463E-04;1.802803498865583E-01;9.136877702040446E-01;
6.601601601601601E+07;-4.991550097622489E-04;-1.879843132644870E-04;1.769964475955174E-01;9.140208538960313E-01;-4.991550097622489E-04;-1.879843132644870E-04;1.769964475955174E-01;9.140208538960313E-01;
6.626626626626626E+07;-4.817027866357485E-04;-2.060942468412515E-04;1.734434613550603E-01;9.144691565525624E-01;-4.817027866357485E-04;-2.060942468412515E-04;1.734434613550603E-01;9.144691565525624E-01;
6.651651651651651E+07;-4.786266940809701E-04;-2.167472679331636E-04;1.698570013673818E-01;9.149020583012628E-01;-4.786266940809701E-04;-2.167472679331636E-04;1.698570013673818E-01;9.149020583012628E-01;
6.676676676676676E+07;-4.681048905927799E-04;-2.236535292737398E-04;1.661652780981358E-01;9.153979623698481E-01;-4.681048905927799E-04;-2.236535292737398E-04;1.661652780981358E-01;9.153979623698481E-01;
6.701701701701702E+07;-4.726572453882442E-04;-2.203630120881341E-04;1.637950389629700E-01;9.153704470098588E-01;-4.726572453882442E-04;-2.203630120881341E-04;1.637950389629700E-01;9.153704470098588E-01;
6.726726726726727E+07;-4.655729042568332E-04;-2.300495124268239E-04;1.603445945372305E-01;9.158273476960074E-01;-4.655729042568332E-04;-2.300495124268239E-04;1.603445945372305E-01;9.158273476960074E-01;
6.751751751751752E+07;-4.584668231034729E-04;-2.325547701755024E-04;1.566842807240987E-01;9.164128240340645E-01;-4.584668231034729E-04;-2.325547701755024E-04;1.566842807240987E-01;9.164128240340645E-01;
6.776776776776777E+07;-4.599935138970772E-04;-2.352400726403983E-04;1.529809292155976E-01;9.169829215921977E-01;-4.599935138970772E-04;-2.352400726403983E-04;1.529809292155976E-01;9.169829215921977E-01;
6.801801801801802E+07;-4.583195255398383E-04;-2.486507475922871E-04;1.492078684536428E-01;9.176536987236737E-01;-4.583195255398383E-04;-2.486507475922871E-04;1.492078684536428E-01;9.176536987236737E-01;
6.826826826826827E+07;-4.390543695048012E-04;-2.657345389189299E-04;1.455134170784261E-01;9.182122442534698E-01;-4.390543695048012E-04;-2.657345389189299E-04;1.455134170784261E-01;9.182122442534698E-01;
6.851851851851852E+07;-4.451279448153798E-04;-2.709783106833144E-04;1.422031000091001E-01;9.186665493912939E-01;-4.451279448153798E-04;-2.709783106833144E-04;1.422031000091001E-01;9.186665493912939E-01;
6.876876876876877E+07;-4.347737670836239E-04;-2.753332153239982E-04;1.442547568374977E-01;9.190218428847000E-01;-4.347737670836239E-04;-2.753332153239982E-04;1.442547568374977E-01;9.190218428847000E-01;
6.901901901901902E+07;-4.326978612092848E-04;-2.839410606721625E-04;1.420558215762217E-01;9.189779168548219E-01;-4.326978612092848E-04;-2.839410606721625E-04;1.420558215762217E-01;9.189779168548219E-01;
6.926926926926927E+07;-4.184569665297462E-04;-2.910020579066435E-04;1.405456501507258E-01;9.186770948702568E-01;-4.184569665297462E-04;-2.910020579066435E-04;1.405456501507258E-01;9.186770948702568E-01;
6.951951951951952E+07;-4.239529923241976E-04;-3.058573866319760E-04;1.392006201996145E-01;9.183827872235703E-01;-4.239529923241976E-04;-3.058573866319760E-04;1.392006201996145E-01;9.183827872235703E-01;
6.976976976976977E+07;-4.039272392719573E-04;-3.161851069192599E-04;1.377998568720492E-01;9.179890094547951E-01;-4.039272392719573E-04;-3.161851069192599E-04;1.377998568720492E-01;9.179890094547951E-01;
7.002002002002002E+07;-4.204724053017385E-04;-3.187991399304909E-04;1.361685496681225E-01;9.178196095552646E-01;-4.204724053017385E-04;-3.187991399304909E-04;1.361685496681225E-01;9.178196095552646E-01;
7.027027027027027E+07;-4.002485393900826E-04;-3.343360805996876E-04;1.341591594437827E-01;9.176458070212916E-01;-4.002485393900826E-04;-3.343360805996876E-04;1.341591594437827E-01;9.176458070212916E-01;
7.052052052052052E+07;-3.978054646990785E-04;-3.485703690860450E-04;1.319277818228436E-01;9.175817472135064E-01;-3.978054646990785E-04;-3.485703690860450E-04;1.319277818228436E-01;9.175817472135064E-01;
7.077077077077077E+07;-3.959073267246456E-04;-3.549604417459622E-04;1.297045387441570E-01;9.175039845110958E-01;-3.959073267246456E-04;-3.549604417459622E-04;1.297045387441570E-01;9.175039845110958E-01;
7.102102102102102E+07;-3.890044731833669E-04;-3.632925849218598E-04;1.273482741462316E-01;9.175373228975070E-01;-3.890044731833669E-04;-3.632925849218598E-04;1.273482741462316E-01;9.175373228975070E-01;
7.127127127127127E+07;-3.813626698498999E-04;-3.769796390497243E-04;1.248322066787868E-01;9.175686969391941E-01;-3.813626698498999E-04;-3.769796390497243E-04;1.248322066787868E-01;9.175686969391941E-01;
7.152152152152152E+07;-3.823106130094365E-04;-3.713834383378444E-04;1.221544613755837E-01;9.176031857567984E-01;-3.823106130094365E-04;-3.713834383378444E-04;1.221544613755837E-01;9.176031857567984E-01;
7.177177177177177E+07;-3.684191593973562E-04;-3.817771692233222E-04;1.194015134384350E-01;9.178050424792832E-01;-3.684191593973562E-04;-3.817771692233222E-04;1.194015134384350E-01;9.178050424792832E-01;
7.202202202202202E+07;-3.772941467327323E-04;-4.024678375647418E-04;1.164411834289292E-01;9.178759144682863E-01;-3.772941467327323E-04;-4.024678375647418E-04;1.164411834289292E-01;9.178759144682863E-01;
7.227227227227227E+07;-3.690162913917614E-04;-4.109343464381616E-04;1.137197210643527E-01;9.181923586602563E-01;-3.690162913917614E-04;-4.109343464381616E-04;1.137197210643527E-01;9.181923586602563E-01;
7.252252252252252E+07;-3.763874520140643E-04;-4.142209660792789E-04;1.113399273775766E-01;9.183281062608801E-01;-3.763874520140643E-04;-4.142209660792789E-04;1.113399273775766E-01;9.183281062608801E-01;
7.277277277277277E+07;-3.735095511820511E-04;-4.226942662380215E-04;1.094945967023235E-01;9.183308357447889E-01;-3.735095511820511E-04;-4.226942662380215E-04;1.094945967023235E-01;9.183308357447889E-01;
7.302302302302302E+07;-3.645499441238955E-04;-4.339566912739615E-04;1.081050670408729E-01;9.181310338095324E-01;-3.645499441238955E-04;-4.339566912739615E-04;1.081050670408729E-01;9.181310338095324E-01;
7.327327327327327E+07;-3.641586109171462E-04;-4.563413910904834E-04;1.071855142158434E-01;9.178417978877326E-01;-3.641586109171462E-04;-4.563413910904834E-04;1.071855142158434E-01;9.178417978877326E-01;
7.352352352352352E+07;-3.446509223913107E-04;-4.597105654644170E-04;1.064286913607210E-01;9.174448580907008E-01;-3.446509223913107E-04;-4.597105654644170E-04;1.064286913607210E-01;9.174448580907008E-01;
7.377377377377377E+07;-3.353275502709197E-04;-4.643448214890480E-04;1.056979926698234E-01;9.170648276562507E-01;-3.353275502709197E-04;-4.643448214890480E-04;1.056979926698234E-01;9.170648276562507E-01;
7.402402402402402E+07;-3.595250705691691E-04;-4.834984028550852E-04;1.045993769019456E-01;9.168498386768382E-01;-3.595250705691691E-04;-4.834984028550852E-04;1.045993769019456E-01;9.168498386768382E-01;
