# Version 1.00
#
# Ref Impedances: Z01: 50, Z02: 50
# 
freq[Hz];re:SMag2_S11;im:SMag2_S11;re:ZPh2_S12;im:ZPh2_S12;re:SPh2_S11;im:SPh2_S11;re:ZMag2_S12;im:ZMag2_S12;
5.000000000000000E+07;5.832458875625391E-01;5.672210296083963E-01;-2.659975105567316E-03;-7.767567925421804E-03;5.832458875625391E-01;5.672210296083963E-01;-2.659975105567316E-03;-7.767567925421804E-03;
5.025025025025025E+07;5.528703738840953E-01;5.514358887429034E-01;-3.921442154186878E-03;-7.713726709032371E-03;5.528703738840953E-01;5.514358887429034E-01;-3.921442154186878E-03;-7.713726709032371E-03;
5.050050050050050E+07;5.144095844545832E-01;5.433481783201238E-01;-5.150964287299806E-03;-7.256485654043445E-03;5.144095844545832E-01;5.433481783201238E-01;-5.150964287299806E-03;-7.256485654043445E-03;
5.075075075075075E+07;4.726868782646739E-01;5.464714930358342E-01;-6.373046690822126E-03;-6.483986625365745E-03;4.726868782646739E-01;5.464714930358342E-01;-6.373046690822126E-03;-6.483986625365745E-03;
5.100100100100100E+07;4.321719150044102E-01;5.622552021758416E-01;-7.205353554399754E-03;-5.327368760583661E-03;4.321719150044102E-01;5.622552021758416E-01;-7.205353554399754E-03;-5.327368760583661E-03;
5.125125125125125E+07;3.982322858199961E-01;5.876772991236396E-01;-7.637433988716435E-03;-3.986078322703837E-03;3.982322858199961E-01;5.876772991236396E-01;-7.637433988716435E-03;-3.986078322703837E-03;
5.150150150150150E+07;3.737500755157276E-01;6.199726042006122E-01;-7.790569072444518E-03;-2.592435839077393E-03;3.737500755157276E-01;6.199726042006122E-01;-7.790569072444518E-03;-2.592435839077393E-03;
5.175175175175175E+07;3.584750368828166E-01;6.518957006829450E-01;-7.473537711100139E-03;-1.496750601876922E-03;3.584750368828166E-01;6.518957006829450E-01;-7.473537711100139E-03;-1.496750601876922E-03;
5.200200200200200E+07;3.516900813047262E-01;6.830738425194516E-01;-7.037513523586684E-03;-6.872317120096545E-04;3.516900813047262E-01;6.830738425194516E-01;-7.037513523586684E-03;-6.872317120096545E-04;
5.225225225225225E+07;3.510191454779497E-01;7.102564320785735E-01;-6.464496755568931E-03;-1.480779968650427E-05;3.510191454779497E-01;7.102564320785735E-01;-6.464496755568931E-03;-1.480779968650427E-05;
5.250250250250250E+07;3.543149573227491E-01;7.328677140236965E-01;-5.847269472544608E-03;4.831537579861389E-04;3.543149573227491E-01;7.328677140236965E-01;-5.847269472544608E-03;4.831537579861389E-04;
5.275275275275275E+07;3.587507773697438E-01;7.509847200180371E-01;-5.290782597457715E-03;7.271536151823549E-04;3.587507773697438E-01;7.509847200180371E-01;-5.290782597457715E-03;7.271536151823549E-04;
5.300300300300300E+07;3.642423687101295E-01;7.656555036273947E-01;-4.803198456719610E-03;9.241618314953336E-04;3.642423687101295E-01;7.656555036273947E-01;-4.803198456719610E-03;9.241618314953336E-04;
5.325325325325325E+07;3.694518670522027E-01;7.772397770404017E-01;-4.354804500593996E-03;1.012984131757043E-03;3.694518670522027E-01;7.772397770404017E-01;-4.354804500593996E-03;1.012984131757043E-03;
5.350350350350350E+07;3.739848513393031E-01;7.863806567469571E-01;-4.009753245086691E-03;1.062592377068575E-03;3.739848513393031E-01;7.863806567469571E-01;-4.009753245086691E-03;1.062592377068575E-03;
5.375375375375375E+07;3.778834654041320E-01;7.936878435864246E-01;-3.732432810453626E-03;1.058706519058668E-03;3.778834654041320E-01;7.936878435864246E-01;-3.732432810453626E-03;1.058706519058668E-03;
5.400400400400400E+07;3.808721406991595E-01;7.998162813592949E-01;-3.433615417625140E-03;1.054104879915588E-03;3.808721406991595E-01;7.998162813592949E-01;-3.433615417625140E-03;1.054104879915588E-03;
5.425425425425425E+07;3.830931614910172E-01;8.050524970956631E-01;-3.246334741628471E-03;1.028807633981001E-03;3.830931614910172E-01;8.050524970956631E-01;-3.246334741628471E-03;1.028807633981001E-03;
5.450450450450450E+07;3.847379897448497E-01;8.097634709393877E-01;-3.026615417903564E-03;1.002454222567071E-03;3.847379897448497E-01;8.097634709393877E-01;-3.026615417903564E-03;1.002454222567071E-03;
5.475475475475475E+07;3.859066675907601E-01;8.138186459662047E-01;-2.823911203118342E-03;9.585584009009853E-04;3.859066675907601E-01;8.138186459662047E-01;-2.823911203118342E-03;9.585584009009853E-04;
5.500500500500500E+07;3.868389947723476E-01;8.173665343543437E-01;-2.696070749480035E-03;8.972961668025880E-04;3.868389947723476E-01;8.173665343543437E-01;-2.696070749480035E-03;8.972961668025880E-04;
5.525525525525525E+07;3.875218621558973E-01;8.207393237136303E-01;-2.563223425858119E-03;8.818319576271450E-04;3.875218621558973E-01;8.207393237136303E-01;-2.563223425858119E-03;8.818319576271450E-04;
5.550550550550550E+07;3.875841355541552E-01;8.236203162487599E-01;-2.441168275984503E-03;7.963251183665282E-04;3.875841355541552E-01;8.236203162487599E-01;-2.441168275984503E-03;7.963251183665282E-04;
5.575575575575575E+07;3.876228094952801E-01;8.258834563279552E-01;-2.343412542418048E-03;7.719499264978538E-04;3.876228094952801E-01;8.258834563279552E-01;-2.343412542418048E-03;7.719499264978538E-04;
5.600600600600600E+07;3.873235714721436E-01;8.280347759290658E-01;-2.233627162979144E-03;6.877975182500517E-04;3.873235714721436E-01;8.280347759290658E-01;-2.233627162979144E-03;6.877975182500517E-04;
5.625625625625625E+07;3.865603108588644E-01;8.299542819363475E-01;-2.175348488288487E-03;6.952527959119587E-04;3.865603108588644E-01;8.299542819363475E-01;-2.175348488288487E-03;6.952527959119587E-04;
5.650650650650650E+07;3.857401865074505E-01;8.314891334297598E-01;-2.043248679461302E-03;6.116740197128367E-04;3.857401865074505E-01;8.314891334297598E-01;-2.043248679461302E-03;6.116740197128367E-04;
5.675675675675675E+07;3.842502656133291E-01;8.328842855153628E-01;-2.032006966424143E-03;5.759685729552716E-04;3.842502656133291E-01;8.328842855153628E-01;-2.032006966424143E-03;5.759685729552716E-04;
5.700700700700700E+07;3.831202468631147E-01;8.338631476862629E-01;-1.979539134317149E-03;5.121858716856350E-04;3.831202468631147E-01;8.338631476862629E-01;-1.979539134317149E-03;5.121858716856350E-04;
5.725725725725726E+07;3.813633836344305E-01;8.349180920202472E-01;-1.910287200809390E-03;4.958105083553981E-04;3.813633836344305E-01;8.349180920202472E-01;-1.910287200809390E-03;4.958105083553981E-04;
5.750750750750751E+07;3.793856274426485E-01;8.358987776693226E-01;-1.901817640671724E-03;4.767480738358552E-04;3.793856274426485E-01;8.358987776693226E-01;-1.901817640671724E-03;4.767480738358552E-04;
5.775775775775776E+07;3.772208307404780E-01;8.367386759091618E-01;-1.791334490077534E-03;3.938988269218621E-04;3.772208307404780E-01;8.367386759091618E-01;-1.791334490077534E-03;3.938988269218621E-04;
5.800800800800801E+07;3.746768765211128E-01;8.373964144960290E-01;-1.792553532862079E-03;3.614335144605986E-04;3.746768765211128E-01;8.373964144960290E-01;-1.792553532862079E-03;3.614335144605986E-04;
5.825825825825826E+07;3.723279622171233E-01;8.380287615789466E-01;-1.730304633735410E-03;2.697027539481043E-04;3.723279622171233E-01;8.380287615789466E-01;-1.730304633735410E-03;2.697027539481043E-04;
5.850850850850851E+07;3.698859539436652E-01;8.386284847851153E-01;-1.689858776680552E-03;2.954678165739459E-04;3.698859539436652E-01;8.386284847851153E-01;-1.689858776680552E-03;2.954678165739459E-04;
5.875875875875876E+07;3.671580459142413E-01;8.389064121310624E-01;-1.714738850568107E-03;2.201279083291896E-04;3.671580459142413E-01;8.389064121310624E-01;-1.714738850568107E-03;2.201279083291896E-04;
5.900900900900901E+07;3.641369344311103E-01;8.395675320407023E-01;-1.680298128886892E-03;1.933519612684335E-04;3.641369344311103E-01;8.395675320407023E-01;-1.680298128886892E-03;1.933519612684335E-04;
5.925925925925926E+07;3.610566353493416E-01;8.398962228385966E-01;-1.701231016433304E-03;1.793914065886777E-04;3.610566353493416E-01;8.398962228385966E-01;-1.701231016433304E-03;1.793914065886777E-04;
5.950950950950951E+07;3.576701982992778E-01;8.404497175622532E-01;-1.669429589000244E-03;1.332740435090850E-04;3.576701982992778E-01;8.404497175622532E-01;-1.669429589000244E-03;1.332740435090850E-04;
5.975975975975976E+07;3.542080600501308E-01;8.412735697291175E-01;-1.569094928349560E-03;7.365925218603459E-05;3.542080600501308E-01;8.412735697291175E-01;-1.569094928349560E-03;7.365925218603459E-05;
6.001001001001001E+07;3.506752284838059E-01;8.421221086320192E-01;-1.629598469800804E-03;6.553035192705306E-05;3.506752284838059E-01;8.421221086320192E-01;-1.629598469800804E-03;6.553035192705306E-05;
6.026026026026026E+07;3.473697161145868E-01;8.432322769395187E-01;-1.613630874295674E-03;2.786505092045084E-05;3.473697161145868E-01;8.432322769395187E-01;-1.613630874295674E-03;2.786505092045084E-05;
6.051051051051051E+07;3.442251796177773E-01;8.448234929853295E-01;-1.575248192391636E-03;2.855632379993129E-05;3.442251796177773E-01;8.448234929853295E-01;-1.575248192391636E-03;2.855632379993129E-05;
6.076076076076076E+07;3.413085987743031E-01;8.463828525901526E-01;-1.586919169582628E-03;3.301162090555203E-05;3.413085987743031E-01;8.463828525901526E-01;-1.586919169582628E-03;3.301162090555203E-05;
6.101101101101101E+07;3.385721888238482E-01;8.479968599050277E-01;-1.602941938992771E-03;-4.886913727575166E-05;3.385721888238482E-01;8.479968599050277E-01;-1.602941938992771E-03;-4.886913727575166E-05;
6.126126126126126E+07;3.362519602869663E-01;8.495250595519653E-01;-1.552037442163867E-03;-1.928060608872668E-05;3.362519602869663E-01;8.495250595519653E-01;-1.552037442163867E-03;-1.928060608872668E-05;
6.151151151151151E+07;3.342119716185546E-01;8.510129028465713E-01;-1.582703936033059E-03;-9.072713238824003E-05;3.342119716185546E-01;8.510129028465713E-01;-1.582703936033059E-03;-9.072713238824003E-05;
6.176176176176176E+07;3.322317807969520E-01;8.522982048289361E-01;-1.525954431155640E-03;-5.892265503155417E-05;3.322317807969520E-01;8.522982048289361E-01;-1.525954431155640E-03;-5.892265503155417E-05;
6.201201201201201E+07;3.306057474373064E-01;8.533436539279420E-01;-1.502174291910245E-03;-6.164112915201607E-05;3.306057474373064E-01;8.533436539279420E-01;-1.502174291910245E-03;-6.164112915201607E-05;
6.226226226226226E+07;3.286779041466186E-01;8.545285728389953E-01;-1.523417815877671E-03;-1.103329507268703E-04;3.286779041466186E-01;8.545285728389953E-01;-1.523417815877671E-03;-1.103329507268703E-04;
6.251251251251251E+07;3.270477733510689E-01;8.554839330008938E-01;-1.564858610008933E-03;-4.572603655669030E-05;3.270477733510689E-01;8.554839330008938E-01;-1.564858610008933E-03;-4.572603655669030E-05;
6.276276276276276E+07;3.255478943128263E-01;8.562381856564701E-01;-1.509547469646119E-03;-1.252437847206899E-04;3.255478943128263E-01;8.562381856564701E-01;-1.509547469646119E-03;-1.252437847206899E-04;
6.301301301301301E+07;3.240239045339030E-01;8.570241996138097E-01;-1.511117897536245E-03;-1.218376665505885E-04;3.240239045339030E-01;8.570241996138097E-01;-1.511117897536245E-03;-1.218376665505885E-04;
6.326326326326326E+07;3.226362834059616E-01;8.577112507883229E-01;-1.495567333695826E-03;-1.878362965976362E-04;3.226362834059616E-01;8.577112507883229E-01;-1.495567333695826E-03;-1.878362965976362E-04;
6.351351351351351E+07;3.212639208312518E-01;8.583892294051126E-01;-1.482301637551237E-03;-1.303853916224748E-04;3.212639208312518E-01;8.583892294051126E-01;-1.482301637551237E-03;-1.303853916224748E-04;
6.376376376376376E+07;3.201474674926316E-01;8.588763294939684E-01;-1.413458794516323E-03;-2.281311571165726E-04;3.201474674926316E-01;8.588763294939684E-01;-1.413458794516323E-03;-2.281311571165726E-04;
6.401401401401401E+07;3.189207391790274E-01;8.595714368900116E-01;-1.410079318379887E-03;-1.795119536186193E-04;3.189207391790274E-01;8.595714368900116E-01;-1.410079318379887E-03;-1.795119536186193E-04;
6.426426426426426E+07;3.180798198495729E-01;8.599211100802642E-01;-1.445630827259703E-03;-2.373065036238055E-04;3.180798198495729E-01;8.599211100802642E-01;-1.445630827259703E-03;-2.373065036238055E-04;
6.451451451451451E+07;3.173156616652229E-01;8.602247190154920E-01;-1.460514447066899E-03;-2.569985974758829E-04;3.173156616652229E-01;8.602247190154920E-01;-1.460514447066899E-03;-2.569985974758829E-04;
6.476476476476476E+07;3.165650305213112E-01;8.603666172159565E-01;-1.429331932257185E-03;-2.430155276977147E-04;3.165650305213112E-01;8.603666172159565E-01;-1.429331932257185E-03;-2.430155276977147E-04;
6.501501501501501E+07;3.160308025221164E-01;8.604521725413358E-01;-1.424299927842595E-03;-2.517533008751794E-04;3.160308025221164E-01;8.604521725413358E-01;-1.424299927842595E-03;-2.517533008751794E-04;
6.526526526526526E+07;3.153645233822167E-01;8.604558310011164E-01;-1.452637214235993E-03;-2.944559137367905E-04;3.153645233822167E-01;8.604558310011164E-01;-1.452637214235993E-03;-2.944559137367905E-04;
6.551551551551551E+07;3.148230143410757E-01;8.603392848536306E-01;-1.458080687863352E-03;-3.299937959536338E-04;3.148230143410757E-01;8.603392848536306E-01;-1.458080687863352E-03;-3.299937959536338E-04;
6.576576576576576E+07;3.168694812701879E-01;8.605673863072641E-01;-1.479810998380489E-03;-3.491363835751110E-04;3.168694812701879E-01;8.605673863072641E-01;-1.479810998380489E-03;-3.491363835751110E-04;
6.601601601601601E+07;3.165021420964546E-01;8.601568277092709E-01;-1.427753100008734E-03;-3.361783084808642E-04;3.165021420964546E-01;8.601568277092709E-01;-1.427753100008734E-03;-3.361783084808642E-04;
6.626626626626626E+07;3.158171515079701E-01;8.599001364531967E-01;-1.444412771242872E-03;-4.030664535913084E-04;3.158171515079701E-01;8.599001364531967E-01;-1.444412771242872E-03;-4.030664535913084E-04;
6.651651651651651E+07;3.154057825712350E-01;8.596121244382953E-01;-1.410270213194074E-03;-3.942050057962915E-04;3.154057825712350E-01;8.596121244382953E-01;-1.410270213194074E-03;-3.942050057962915E-04;
6.676676676676676E+07;3.146454869947117E-01;8.593672402100839E-01;-1.408208268296218E-03;-4.474889439647529E-04;3.146454869947117E-01;8.593672402100839E-01;-1.408208268296218E-03;-4.474889439647529E-04;
6.701701701701702E+07;3.153301128898965E-01;8.583179194672148E-01;-1.426114265724509E-03;-4.056524258220288E-04;3.153301128898965E-01;8.583179194672148E-01;-1.426114265724509E-03;-4.056524258220288E-04;
6.726726726726727E+07;3.149963495106528E-01;8.580874780594455E-01;-1.394190625191262E-03;-4.948950979113521E-04;3.149963495106528E-01;8.580874780594455E-01;-1.394190625191262E-03;-4.948950979113521E-04;
6.751751751751752E+07;3.146252886068726E-01;8.578493709047280E-01;-1.421880399653988E-03;-4.815808315989879E-04;3.146252886068726E-01;8.578493709047280E-01;-1.421880399653988E-03;-4.815808315989879E-04;
6.776776776776777E+07;3.142086375259211E-01;8.576682382145164E-01;-1.411232328881517E-03;-4.985560714476960E-04;3.142086375259211E-01;8.576682382145164E-01;-1.411232328881517E-03;-4.985560714476960E-04;
6.801801801801802E+07;3.137056761689436E-01;8.575711048752900E-01;-1.414111251496822E-03;-5.032633998123426E-04;3.137056761689436E-01;8.575711048752900E-01;-1.414111251496822E-03;-5.032633998123426E-04;
6.826826826826827E+07;3.134450806278838E-01;8.572374138186643E-01;-1.440385068058002E-03;-5.379591728721789E-04;3.134450806278838E-01;8.572374138186643E-01;-1.440385068058002E-03;-5.379591728721789E-04;
6.851851851851852E+07;3.135731615888787E-01;8.567225119164742E-01;-1.430059946458772E-03;-5.758967921763480E-04;3.135731615888787E-01;8.567225119164742E-01;-1.430059946458772E-03;-5.758967921763480E-04;
6.876876876876877E+07;3.143960176842787E-01;8.552084970726412E-01;-1.435877963046130E-03;-5.586326951522220E-04;3.143960176842787E-01;8.552084970726412E-01;-1.435877963046130E-03;-5.586326951522220E-04;
6.901901901901902E+07;3.158015911448734E-01;8.538011744636034E-01;-1.462748821792821E-03;-6.104227955529176E-04;3.158015911448734E-01;8.538011744636034E-01;-1.462748821792821E-03;-6.104227955529176E-04;
6.926926926926927E+07;3.174568108009705E-01;8.522639218166439E-01;-1.422140345505740E-03;-6.654487655747198E-04;3.174568108009705E-01;8.522639218166439E-01;-1.422140345505740E-03;-6.654487655747198E-04;
6.951951951951952E+07;3.196286314120808E-01;8.504502623604582E-01;-1.388442912525830E-03;-7.060846572552061E-04;3.196286314120808E-01;8.504502623604582E-01;-1.388442912525830E-03;-7.060846572552061E-04;
6.976976976976977E+07;3.216722895245000E-01;8.485445206263583E-01;-1.440471297253657E-03;-6.620719872748291E-04;3.216722895245000E-01;8.485445206263583E-01;-1.440471297253657E-03;-6.620719872748291E-04;
7.002002002002002E+07;3.234349921219389E-01;8.468644496357520E-01;-1.411648765462727E-03;-7.904613785101583E-04;3.234349921219389E-01;8.468644496357520E-01;-1.411648765462727E-03;-7.904613785101583E-04;
7.027027027027027E+07;3.251893631305066E-01;8.453704014969916E-01;-1.397528093391306E-03;-7.878601532409127E-04;3.251893631305066E-01;8.453704014969916E-01;-1.397528093391306E-03;-7.878601532409127E-04;
7.052052052052052E+07;3.266078008203845E-01;8.436811987053485E-01;-1.428411945077685E-03;-8.182624675798804E-04;3.266078008203845E-01;8.436811987053485E-01;-1.428411945077685E-03;-8.182624675798804E-04;
7.077077077077077E+07;3.282793042682899E-01;8.422918711520537E-01;-1.435957197707206E-03;-8.574026607971357E-04;3.282793042682899E-01;8.422918711520537E-01;-1.435957197707206E-03;-8.574026607971357E-04;
7.102102102102102E+07;3.297793673622875E-01;8.405006899151035E-01;-1.401093059921718E-03;-8.929245635524168E-04;3.297793673622875E-01;8.405006899151035E-01;-1.401093059921718E-03;-8.929245635524168E-04;
7.127127127127127E+07;3.313897635118189E-01;8.389719782325937E-01;-1.402400154648879E-03;-8.947193066010060E-04;3.313897635118189E-01;8.389719782325937E-01;-1.402400154648879E-03;-8.947193066010060E-04;
7.152152152152152E+07;3.328884033298363E-01;8.373716929331081E-01;-1.424619318859850E-03;-9.088716521860545E-04;3.328884033298363E-01;8.373716929331081E-01;-1.424619318859850E-03;-9.088716521860545E-04;
7.177177177177177E+07;3.341982943942214E-01;8.358688052997353E-01;-1.436256105106975E-03;-9.490904922056477E-04;3.341982943942214E-01;8.358688052997353E-01;-1.436256105106975E-03;-9.490904922056477E-04;
7.202202202202202E+07;3.354910728230188E-01;8.344583388702439E-01;-1.456708821750257E-03;-9.892274870541232E-04;3.354910728230188E-01;8.344583388702439E-01;-1.456708821750257E-03;-9.892274870541232E-04;
7.227227227227227E+07;3.370678545976486E-01;8.328603642680031E-01;-1.445319074381249E-03;-1.006450252453645E-03;3.370678545976486E-01;8.328603642680031E-01;-1.445319074381249E-03;-1.006450252453645E-03;
7.252252252252252E+07;3.389590250893096E-01;8.311573383717092E-01;-1.448682290712186E-03;-1.071887365342393E-03;3.389590250893096E-01;8.311573383717092E-01;-1.448682290712186E-03;-1.071887365342393E-03;
7.277277277277277E+07;3.413021514277077E-01;8.291293624488233E-01;-1.452382993942315E-03;-1.067524651075681E-03;3.413021514277077E-01;8.291293624488233E-01;-1.452382993942315E-03;-1.067524651075681E-03;
7.302302302302302E+07;3.442804619492949E-01;8.268701265908383E-01;-1.508317373048190E-03;-1.160613694647026E-03;3.442804619492949E-01;8.268701265908383E-01;-1.508317373048190E-03;-1.160613694647026E-03;
7.327327327327327E+07;3.475434615361278E-01;8.244004510410164E-01;-1.481656734547465E-03;-1.175237884568861E-03;3.475434615361278E-01;8.244004510410164E-01;-1.481656734547465E-03;-1.175237884568861E-03;
7.352352352352352E+07;3.512276436951090E-01;8.215059273851720E-01;-1.488002771258492E-03;-1.245638531708430E-03;3.512276436951090E-01;8.215059273851720E-01;-1.488002771258492E-03;-1.245638531708430E-03;
7.377377377377377E+07;3.550925301654098E-01;8.188276424514098E-01;-1.488116999311270E-03;-1.267376090369608E-03;3.550925301654098E-01;8.188276424514098E-01;-1.488116999311270E-03;-1.267376090369608E-03;
7.402402402402402E+07;3.590420976597134E-01;8.161722135290245E-01;-1.536999637756357E-03;-1.297730634785995E-03;3.590420976597134E-01;8.161722135290245E-01;-1.536999637756357E-03;-1.297730634785995E-03;
