# Version 1.00
#
# Ref Impedances: Z01: 50, Z02: 50
# 
freq[Hz];re:SMag2_S11;im:SMag2_S11;re:ZPh2_S12;im:ZPh2_S12;re:SPh2_S11;im:SPh2_S11;re:ZMag2_S12;im:ZMag2_S12;
5.000000000000000E+07;5.315340130357531E-01;7.508441874546282E-01;1.152476850277813E-03;-5.383934683421056E-03;5.315340130357531E-01;7.508441874546282E-01;1.152476850277813E-03;-5.383934683421056E-03;
5.025025025025025E+07;5.262062675787021E-01;7.407230842330575E-01;4.289668205943468E-04;-5.962521559048150E-03;5.262062675787021E-01;7.407230842330575E-01;4.289668205943468E-04;-5.962521559048150E-03;
5.050050050050050E+07;5.162897850637977E-01;7.287070204342899E-01;-5.952078489000560E-04;-6.472543124911440E-03;5.162897850637977E-01;7.287070204342899E-01;-5.952078489000560E-04;-6.472543124911440E-03;
5.075075075075075E+07;4.985757350891178E-01;7.160211086385631E-01;-1.889996760359050E-03;-6.692126321477672E-03;4.985757350891178E-01;7.160211086385631E-01;-1.889996760359050E-03;-6.692126321477672E-03;
5.100100100100100E+07;4.718096292046264E-01;7.085747372099026E-01;-3.410833655886889E-03;-6.288136754123406E-03;4.718096292046264E-01;7.085747372099026E-01;-3.410833655886889E-03;-6.288136754123406E-03;
5.125125125125125E+07;4.403525686494041E-01;7.121763580601709E-01;-4.825633788631057E-03;-5.245025267950955E-03;4.403525686494041E-01;7.121763580601709E-01;-4.825633788631057E-03;-5.245025267950955E-03;
5.150150150150150E+07;4.116812771948607E-01;7.282612004098182E-01;-5.612984498028326E-03;-3.759899212922756E-03;4.116812771948607E-01;7.282612004098182E-01;-5.612984498028326E-03;-3.759899212922756E-03;
5.175175175175175E+07;3.929710236678542E-01;7.515974281697583E-01;-5.574937794039480E-03;-2.204056360776455E-03;3.929710236678542E-01;7.515974281697583E-01;-5.574937794039480E-03;-2.204056360776455E-03;
5.200200200200200E+07;3.840286943105025E-01;7.746732966895653E-01;-5.156189607561147E-03;-1.083691835527689E-03;3.840286943105025E-01;7.746732966895653E-01;-5.156189607561147E-03;-1.083691835527689E-03;
5.225225225225225E+07;3.810927025340048E-01;7.938164167180808E-01;-4.585500640394058E-03;-3.147986897927122E-04;3.810927025340048E-01;7.938164167180808E-01;-4.585500640394058E-03;-3.147986897927122E-04;
5.250250250250250E+07;3.810338765553635E-01;8.085455982277366E-01;-3.958150352155390E-03;6.986214914394022E-07;3.810338765553635E-01;8.085455982277366E-01;-3.958150352155390E-03;6.986214914394022E-07;
5.275275275275275E+07;3.817813280421107E-01;8.196910792706475E-01;-3.411445397476983E-03;2.770517193247789E-04;3.817813280421107E-01;8.196910792706475E-01;-3.411445397476983E-03;2.770517193247789E-04;
5.300300300300300E+07;3.823065965482373E-01;8.282699000166741E-01;-2.991672876197336E-03;4.280468338693513E-04;3.823065965482373E-01;8.282699000166741E-01;-2.991672876197336E-03;4.280468338693513E-04;
5.325325325325325E+07;3.822804469065411E-01;8.350275948946299E-01;-2.637954799403043E-03;4.878599903363030E-04;3.822804469065411E-01;8.350275948946299E-01;-2.637954799403043E-03;4.878599903363030E-04;
5.350350350350350E+07;3.817465884993987E-01;8.402436486756267E-01;-2.371147668876744E-03;4.727469116977167E-04;3.817465884993987E-01;8.402436486756267E-01;-2.371147668876744E-03;4.727469116977167E-04;
5.375375375375375E+07;3.806884916784276E-01;8.447880494414327E-01;-2.065717368554338E-03;5.070264166526352E-04;3.806884916784276E-01;8.447880494414327E-01;-2.065717368554338E-03;5.070264166526352E-04;
5.400400400400400E+07;3.790373820215913E-01;8.485080380822438E-01;-1.891967085548454E-03;4.370852829392617E-04;3.790373820215913E-01;8.485080380822438E-01;-1.891967085548454E-03;4.370852829392617E-04;
5.425425425425425E+07;3.767060978382907E-01;8.517938685608702E-01;-1.722634057146778E-03;4.249234428161931E-04;3.767060978382907E-01;8.517938685608702E-01;-1.722634057146778E-03;4.249234428161931E-04;
5.450450450450450E+07;3.740669587555889E-01;8.546595179315621E-01;-1.573408883773595E-03;4.177171901803224E-04;3.740669587555889E-01;8.546595179315621E-01;-1.573408883773595E-03;4.177171901803224E-04;
5.475475475475475E+07;3.707087036050305E-01;8.576153814459662E-01;-1.487844020995522E-03;3.440918351572945E-04;3.707087036050305E-01;8.576153814459662E-01;-1.487844020995522E-03;3.440918351572945E-04;
5.500500500500500E+07;3.677839347157523E-01;8.600754727092891E-01;-1.322553743992590E-03;3.025734551028381E-04;3.677839347157523E-01;8.600754727092891E-01;-1.322553743992590E-03;3.025734551028381E-04;
5.525525525525525E+07;3.642621547644279E-01;8.623904430031274E-01;-1.314616340656799E-03;3.503811174518962E-04;3.642621547644279E-01;8.623904430031274E-01;-1.314616340656799E-03;3.503811174518962E-04;
5.550550550550550E+07;3.602539226775454E-01;8.646427499705801E-01;-1.199588449432452E-03;2.873148410537999E-04;3.602539226775454E-01;8.646427499705801E-01;-1.199588449432452E-03;2.873148410537999E-04;
5.575575575575575E+07;3.561826521007682E-01;8.669788654653700E-01;-1.209620791210234E-03;2.937322099797427E-04;3.561826521007682E-01;8.669788654653700E-01;-1.209620791210234E-03;2.937322099797427E-04;
5.600600600600600E+07;3.522019202415462E-01;8.691071958734743E-01;-1.146115752431943E-03;2.289062064314566E-04;3.522019202415462E-01;8.691071958734743E-01;-1.146115752431943E-03;2.289062064314566E-04;
5.625625625625625E+07;3.480584855569955E-01;8.711512973427247E-01;-1.079357969833550E-03;1.693984921955549E-04;3.480584855569955E-01;8.711512973427247E-01;-1.079357969833550E-03;1.693984921955549E-04;
5.650650650650650E+07;3.436329291498406E-01;8.732133039131746E-01;-1.008663957401352E-03;1.865644722254226E-04;3.436329291498406E-01;8.732133039131746E-01;-1.008663957401352E-03;1.865644722254226E-04;
5.675675675675675E+07;3.391286659952882E-01;8.752833280201507E-01;-9.771989691840298E-04;1.665809555356914E-04;3.391286659952882E-01;8.752833280201507E-01;-9.771989691840298E-04;1.665809555356914E-04;
5.700700700700700E+07;3.349910026898544E-01;8.770808429512639E-01;-9.202997579604459E-04;1.873964155723893E-04;3.349910026898544E-01;8.770808429512639E-01;-9.202997579604459E-04;1.873964155723893E-04;
5.725725725725726E+07;3.303651678801526E-01;8.787973211528880E-01;-8.842155244283018E-04;1.346561848377790E-04;3.303651678801526E-01;8.787973211528880E-01;-8.842155244283018E-04;1.346561848377790E-04;
5.750750750750751E+07;3.256026575831896E-01;8.806537667149568E-01;-8.435528055331319E-04;1.399002172423263E-04;3.256026575831896E-01;8.806537667149568E-01;-8.435528055331319E-04;1.399002172423263E-04;
5.775775775775776E+07;3.210573580243359E-01;8.825299778337720E-01;-8.222500426086427E-04;1.125008510712076E-04;3.210573580243359E-01;8.825299778337720E-01;-8.222500426086427E-04;1.125008510712076E-04;
5.800800800800801E+07;3.166122353712520E-01;8.839869285383276E-01;-8.046500612833595E-04;8.366391761805212E-05;3.166122353712520E-01;8.839869285383276E-01;-8.046500612833595E-04;8.366391761805212E-05;
5.825825825825826E+07;3.120271082017003E-01;8.854790149665592E-01;-7.681803629121495E-04;8.905257330057406E-05;3.120271082017003E-01;8.854790149665592E-01;-7.681803629121495E-04;8.905257330057406E-05;
5.850850850850851E+07;3.073089166000568E-01;8.868602010831669E-01;-7.679536183032975E-04;7.733174593167290E-05;3.073089166000568E-01;8.868602010831669E-01;-7.679536183032975E-04;7.733174593167290E-05;
5.875875875875876E+07;3.026160621808155E-01;8.882126243527347E-01;-7.609798374213828E-04;-1.244915460491444E-05;3.026160621808155E-01;8.882126243527347E-01;-7.609798374213828E-04;-1.244915460491444E-05;
5.900900900900901E+07;2.979128474637681E-01;8.893841847082454E-01;-7.248110560865209E-04;-7.093426466243836E-06;2.979128474637681E-01;8.893841847082454E-01;-7.248110560865209E-04;-7.093426466243836E-06;
5.925925925925926E+07;2.929147778737738E-01;8.904999096609428E-01;-6.884098916943813E-04;-2.480072243804285E-06;2.929147778737738E-01;8.904999096609428E-01;-6.884098916943813E-04;-2.480072243804285E-06;
5.950950950950951E+07;2.882262008547188E-01;8.917636431258428E-01;-7.136183072407940E-04;-9.119391726638120E-06;2.882262008547188E-01;8.917636431258428E-01;-7.136183072407940E-04;-9.119391726638120E-06;
5.975975975975976E+07;2.831273962360534E-01;8.930075986195958E-01;-6.894961137936521E-04;-2.247041926415973E-05;2.831273962360534E-01;8.930075986195958E-01;-6.894961137936521E-04;-2.247041926415973E-05;
6.001001001001001E+07;2.782778418267536E-01;8.942201667951695E-01;-7.125616508729803E-04;-2.839041194137351E-05;2.782778418267536E-01;8.942201667951695E-01;-7.125616508729803E-04;-2.839041194137351E-05;
6.026026026026026E+07;2.737041729232165E-01;8.956268114028005E-01;-6.906550635808320E-04;-6.039791288857805E-05;2.737041729232165E-01;8.956268114028005E-01;-6.906550635808320E-04;-6.039791288857805E-05;
6.051051051051051E+07;2.691002443569548E-01;8.970239946136528E-01;-6.898156582293765E-04;-7.158891084308830E-05;2.691002443569548E-01;8.970239946136528E-01;-6.898156582293765E-04;-7.158891084308830E-05;
6.076076076076076E+07;2.645471978391398E-01;8.986146209093031E-01;-6.768270496793036E-04;-6.722444133876549E-05;2.645471978391398E-01;8.986146209093031E-01;-6.768270496793036E-04;-6.722444133876549E-05;
6.101101101101101E+07;2.601377155835833E-01;8.998319487183103E-01;-6.467393945680677E-04;-6.430329710148863E-05;2.601377155835833E-01;8.998319487183103E-01;-6.467393945680677E-04;-6.430329710148863E-05;
6.126126126126126E+07;2.559368192566005E-01;9.012761850848776E-01;-6.164125356755256E-04;-9.627495925031996E-05;2.559368192566005E-01;9.012761850848776E-01;-6.164125356755256E-04;-9.627495925031996E-05;
6.151151151151151E+07;2.518358285620120E-01;9.025473040343274E-01;-6.088628664388957E-04;-7.640471043202372E-05;2.518358285620120E-01;9.025473040343274E-01;-6.088628664388957E-04;-7.640471043202372E-05;
6.176176176176176E+07;2.476829341601858E-01;9.035094896844481E-01;-6.565446664684863E-04;-7.608655342974522E-05;2.476829341601858E-01;9.035094896844481E-01;-6.565446664684863E-04;-7.608655342974522E-05;
6.201201201201201E+07;2.434065241284451E-01;9.046835430109503E-01;-6.299209727320471E-04;-7.143664518370274E-05;2.434065241284451E-01;9.046835430109503E-01;-6.299209727320471E-04;-7.143664518370274E-05;
6.226226226226226E+07;2.393772842851285E-01;9.056097738770015E-01;-6.051812451069046E-04;-7.740735178135223E-05;2.393772842851285E-01;9.056097738770015E-01;-6.051812451069046E-04;-7.740735178135223E-05;
6.251251251251251E+07;2.352831108242185E-01;9.065702238552497E-01;-5.709298169474185E-04;-8.194549963492687E-05;2.352831108242185E-01;9.065702238552497E-01;-5.709298169474185E-04;-8.194549963492687E-05;
6.276276276276276E+07;2.313435259237752E-01;9.074292244355315E-01;-5.421626433124585E-04;-1.418969178470856E-04;2.313435259237752E-01;9.074292244355315E-01;-5.421626433124585E-04;-1.418969178470856E-04;
6.301301301301301E+07;2.273569387525211E-01;9.081707669832505E-01;-5.612088616936988E-04;-1.175726178289400E-04;2.273569387525211E-01;9.081707669832505E-01;-5.612088616936988E-04;-1.175726178289400E-04;
6.326326326326326E+07;2.235863563919483E-01;9.089769318463946E-01;-5.599770215376815E-04;-1.131689587242700E-04;2.235863563919483E-01;9.089769318463946E-01;-5.599770215376815E-04;-1.131689587242700E-04;
6.351351351351351E+07;2.196154197995802E-01;9.097805457422394E-01;-5.115395896178791E-04;-1.631782332113734E-04;2.196154197995802E-01;9.097805457422394E-01;-5.115395896178791E-04;-1.631782332113734E-04;
6.376376376376376E+07;2.156574838015863E-01;9.104224499064961E-01;-5.363735880146996E-04;-1.327374563733539E-04;2.156574838015863E-01;9.104224499064961E-01;-5.363735880146996E-04;-1.327374563733539E-04;
6.401401401401401E+07;2.119792556980959E-01;9.110068165012430E-01;-5.102950745594046E-04;-1.258194440651273E-04;2.119792556980959E-01;9.110068165012430E-01;-5.102950745594046E-04;-1.258194440651273E-04;
6.426426426426426E+07;2.082536830324088E-01;9.116917664644201E-01;-5.457068738597659E-04;-1.365909733079573E-04;2.082536830324088E-01;9.116917664644201E-01;-5.457068738597659E-04;-1.365909733079573E-04;
6.451451451451451E+07;2.043652204840570E-01;9.124704697670579E-01;-5.373428037494648E-04;-1.579042427751092E-04;2.043652204840570E-01;9.124704697670579E-01;-5.373428037494648E-04;-1.579042427751092E-04;
6.476476476476476E+07;2.008523638864758E-01;9.131810970498269E-01;-5.387525006436812E-04;-1.363243241518497E-04;2.008523638864758E-01;9.131810970498269E-01;-5.387525006436812E-04;-1.363243241518497E-04;
6.501501501501501E+07;1.974659439716363E-01;9.137884497448214E-01;-4.844326521295667E-04;-1.449397267747346E-04;1.974659439716363E-01;9.137884497448214E-01;-4.844326521295667E-04;-1.449397267747346E-04;
6.526526526526526E+07;1.939357885434235E-01;9.143466507158925E-01;-4.941234332586196E-04;-1.992484168271477E-04;1.939357885434235E-01;9.143466507158925E-01;-4.941234332586196E-04;-1.992484168271477E-04;
6.551551551551551E+07;1.906020903218787E-01;9.148271963446839E-01;-4.815869275673379E-04;-1.938284086229606E-04;1.906020903218787E-01;9.148271963446839E-01;-4.815869275673379E-04;-1.938284086229606E-04;
6.576576576576576E+07;1.891908854717657E-01;9.160382757810780E-01;-5.164903374584663E-04;-2.032108274620242E-04;1.891908854717657E-01;9.160382757810780E-01;-5.164903374584663E-04;-2.032108274620242E-04;
6.601601601601601E+07;1.859017375502549E-01;9.163959015280575E-01;-4.686546567999130E-04;-1.830243577617846E-04;1.859017375502549E-01;9.163959015280575E-01;-4.686546567999130E-04;-1.830243577617846E-04;
6.626626626626626E+07;1.823823749450007E-01;9.168019691637854E-01;-4.797170599555295E-04;-2.367966981710784E-04;1.823823749450007E-01;9.168019691637854E-01;-4.797170599555295E-04;-2.367966981710784E-04;
6.651651651651651E+07;1.787844807808190E-01;9.172999240119151E-01;-4.477952532148193E-04;-2.606277490083401E-04;1.787844807808190E-01;9.172999240119151E-01;-4.477952532148193E-04;-2.606277490083401E-04;
6.676676676676676E+07;1.751453460739471E-01;9.177293294861334E-01;-4.490151666075455E-04;-2.248919520201457E-04;1.751453460739471E-01;9.177293294861334E-01;-4.490151666075455E-04;-2.248919520201457E-04;
6.701701701701702E+07;1.727658284581828E-01;9.176516052016471E-01;-4.747214915926039E-04;-2.387933124071676E-04;1.727658284581828E-01;9.176516052016471E-01;-4.747214915926039E-04;-2.387933124071676E-04;
6.726726726726727E+07;1.693637210531577E-01;9.183591901619477E-01;-4.469383362430720E-04;-2.424563033815578E-04;1.693637210531577E-01;9.183591901619477E-01;-4.469383362430720E-04;-2.424563033815578E-04;
6.751751751751752E+07;1.658221360561674E-01;9.188336612498511E-01;-4.372376042151539E-04;-2.492478247221168E-04;1.658221360561674E-01;9.188336612498511E-01;-4.372376042151539E-04;-2.492478247221168E-04;
6.776776776776777E+07;1.622940751002542E-01;9.193973973124515E-01;-4.281851238494668E-04;-2.264878562962883E-04;1.622940751002542E-01;9.193973973124515E-01;-4.281851238494668E-04;-2.264878562962883E-04;
6.801801801801802E+07;1.584748315958703E-01;9.200662022559961E-01;-4.173656293923520E-04;-2.599768728808146E-04;1.584748315958703E-01;9.200662022559961E-01;-4.173656293923520E-04;-2.599768728808146E-04;
6.826826826826827E+07;1.548063459630068E-01;9.207449618701367E-01;-4.418955011645702E-04;-2.498457445799064E-04;1.548063459630068E-01;9.207449618701367E-01;-4.418955011645702E-04;-2.498457445799064E-04;
6.851851851851852E+07;1.516063317176814E-01;9.209866906931844E-01;-4.600014712087110E-04;-2.704423966964945E-04;1.516063317176814E-01;9.209866906931844E-01;-4.600014712087110E-04;-2.704423966964945E-04;
6.876876876876877E+07;1.495312441896690E-01;9.205670092418992E-01;-4.348071458211571E-04;-2.758996682684587E-04;1.495312441896690E-01;9.205670092418992E-01;-4.348071458211571E-04;-2.758996682684587E-04;
6.901901901901902E+07;1.475518348789789E-01;9.205213368408124E-01;-4.238768906575968E-04;-2.865951964734156E-04;1.475518348789789E-01;9.205213368408124E-01;-4.238768906575968E-04;-2.865951964734156E-04;
6.926926926926927E+07;1.460876011879070E-01;9.201325445350402E-01;-4.294176535198936E-04;-2.979371727478826E-04;1.460876011879070E-01;9.201325445350402E-01;-4.294176535198936E-04;-2.979371727478826E-04;
6.951951951951952E+07;1.447864806605174E-01;9.196704336816834E-01;-4.173702936926520E-04;-2.840769364988182E-04;1.447864806605174E-01;9.196704336816834E-01;-4.173702936926520E-04;-2.840769364988182E-04;
6.976976976976977E+07;1.435051920390156E-01;9.193014572276060E-01;-4.028611827843410E-04;-2.913808630901938E-04;1.435051920390156E-01;9.193014572276060E-01;-4.028611827843410E-04;-2.913808630901938E-04;
7.002002002002002E+07;1.420340240554423E-01;9.190029030288421E-01;-4.039118836264049E-04;-3.503222909707539E-04;1.420340240554423E-01;9.190029030288421E-01;-4.039118836264049E-04;-3.503222909707539E-04;
7.027027027027027E+07;1.401766041575672E-01;9.187314368939193E-01;-4.056397187841087E-04;-3.264883455831376E-04;1.401766041575672E-01;9.187314368939193E-01;-4.056397187841087E-04;-3.264883455831376E-04;
7.052052052052052E+07;1.380457650670791E-01;9.185897570927830E-01;-3.793036873108287E-04;-3.299153330033967E-04;1.380457650670791E-01;9.185897570927830E-01;-3.793036873108287E-04;-3.299153330033967E-04;
7.077077077077077E+07;1.358658537556535E-01;9.184264268359859E-01;-4.054324702448781E-04;-3.448974360690937E-04;1.358658537556535E-01;9.184264268359859E-01;-4.054324702448781E-04;-3.448974360690937E-04;
7.102102102102102E+07;1.335251077700056E-01;9.182361540369827E-01;-3.439239115143788E-04;-3.708095271900616E-04;1.335251077700056E-01;9.182361540369827E-01;-3.439239115143788E-04;-3.708095271900616E-04;
7.127127127127127E+07;1.311714984483767E-01;9.181210631069286E-01;-4.028121276905134E-04;-3.557780076704953E-04;1.311714984483767E-01;9.181210631069286E-01;-4.028121276905134E-04;-3.557780076704953E-04;
7.152152152152152E+07;1.287333643820723E-01;9.182670424328400E-01;-3.186826505761228E-04;-3.459708433492350E-04;1.287333643820723E-01;9.182670424328400E-01;-3.186826505761228E-04;-3.459708433492350E-04;
7.177177177177177E+07;1.259321352358594E-01;9.182669754444437E-01;-3.742040419978700E-04;-4.067252955471970E-04;1.259321352358594E-01;9.182669754444437E-01;-3.742040419978700E-04;-4.067252955471970E-04;
7.202202202202202E+07;1.230321536383946E-01;9.184154431591554E-01;-3.763105709248228E-04;-4.042694234452799E-04;1.230321536383946E-01;9.184154431591554E-01;-3.763105709248228E-04;-4.042694234452799E-04;
7.227227227227227E+07;1.207009519109203E-01;9.184451824466775E-01;-3.569822218189314E-04;-4.040912379331523E-04;1.207009519109203E-01;9.184451824466775E-01;-3.569822218189314E-04;-4.040912379331523E-04;
7.252252252252252E+07;1.182254407254371E-01;9.187524968739579E-01;-3.557303736297349E-04;-4.148213045678047E-04;1.182254407254371E-01;9.187524968739579E-01;-3.557303736297349E-04;-4.148213045678047E-04;
7.277277277277277E+07;1.164434480656088E-01;9.185614575347621E-01;-3.661460275315606E-04;-4.428297264186931E-04;1.164434480656088E-01;9.185614575347621E-01;-3.661460275315606E-04;-4.428297264186931E-04;
7.302302302302302E+07;1.152874261302457E-01;9.181567316214736E-01;-3.421626528135221E-04;-4.294355879966516E-04;1.152874261302457E-01;9.181567316214736E-01;-3.421626528135221E-04;-4.294355879966516E-04;
7.327327327327327E+07;1.144969666975759E-01;9.178557915547944E-01;-3.480456231693652E-04;-4.005591635509812E-04;1.144969666975759E-01;9.178557915547944E-01;-3.480456231693652E-04;-4.005591635509812E-04;
7.352352352352352E+07;1.137958439450941E-01;9.173268965083371E-01;-3.530220335438533E-04;-4.461372116219224E-04;1.137958439450941E-01;9.173268965083371E-01;-3.530220335438533E-04;-4.461372116219224E-04;
7.377377377377377E+07;1.132110058115602E-01;9.169757525008987E-01;-3.482552163826729E-04;-4.996074524348327E-04;1.132110058115602E-01;9.169757525008987E-01;-3.482552163826729E-04;-4.996074524348327E-04;
7.402402402402402E+07;1.123019765781143E-01;9.165949468613256E-01;-3.217723877411999E-04;-4.803601092470836E-04;1.123019765781143E-01;9.165949468613256E-01;-3.217723877411999E-04;-4.803601092470836E-04;
