# Version 1.00
#
# Ref Impedances: Z01: 50, Z02: 50
# 
freq[Hz];re:SMag2_S11;im:SMag2_S11;re:ZPh2_S12;im:ZPh2_S12;re:SPh2_S11;im:SPh2_S11;re:ZMag2_S12;im:ZMag2_S12;
5.000000000000000E+07;4.593467761511293E-01;5.978023175441994E-01;-8.803371729127752E-03;-3.031447428178939E-03;4.593467761511293E-01;5.978023175441994E-01;-8.803371729127752E-03;-3.031447428178939E-03;
5.025025025025025E+07;4.538871293063862E-01;6.277652379914898E-01;-7.850801843303395E-03;-1.469880523401707E-03;4.538871293063862E-01;6.277652379914898E-01;-7.850801843303395E-03;-1.469880523401707E-03;
5.050050050050050E+07;4.566754523384881E-01;6.477566492556541E-01;-6.868953684490882E-03;-6.213572830812904E-04;4.566754523384881E-01;6.477566492556541E-01;-6.868953684490882E-03;-6.213572830812904E-04;
5.075075075075075E+07;4.597786543462108E-01;6.588562846792717E-01;-6.102490036666996E-03;-3.296530038260150E-04;4.597786543462108E-01;6.588562846792717E-01;-6.102490036666996E-03;-3.296530038260150E-04;
5.100100100100100E+07;4.594873070666534E-01;6.643900204754341E-01;-5.481026908158749E-03;-2.754456503493264E-04;4.594873070666534E-01;6.643900204754341E-01;-5.481026908158749E-03;-2.754456503493264E-04;
5.125125125125125E+07;4.557943998905141E-01;6.671212301203528E-01;-5.193162300828666E-03;-1.977535838603196E-04;4.557943998905141E-01;6.671212301203528E-01;-5.193162300828666E-03;-1.977535838603196E-04;
5.150150150150150E+07;4.483013635319257E-01;6.699514802382346E-01;-4.887213866712733E-03;-2.239285135456900E-04;4.483013635319257E-01;6.699514802382346E-01;-4.887213866712733E-03;-2.239285135456900E-04;
5.175175175175175E+07;4.377214999147845E-01;6.744926382230305E-01;-4.751360997762452E-03;-1.434284646134985E-04;4.377214999147845E-01;6.744926382230305E-01;-4.751360997762452E-03;-1.434284646134985E-04;
5.200200200200200E+07;4.262318234468088E-01;6.814558343344278E-01;-4.735065231304210E-03;2.538220044075195E-05;4.262318234468088E-01;6.814558343344278E-01;-4.735065231304210E-03;2.538220044075195E-05;
5.225225225225225E+07;4.155137414054172E-01;6.909134529021309E-01;-4.527716362233434E-03;7.287626356119519E-05;4.155137414054172E-01;6.909134529021309E-01;-4.527716362233434E-03;7.287626356119519E-05;
5.250250250250250E+07;4.057447641607621E-01;7.025143002659108E-01;-4.430828646684125E-03;1.844370062442668E-04;4.057447641607621E-01;7.025143002659108E-01;-4.430828646684125E-03;1.844370062442668E-04;
5.275275275275275E+07;3.982377859854240E-01;7.151261230342966E-01;-4.298529356981029E-03;3.601578446281361E-04;3.982377859854240E-01;7.151261230342966E-01;-4.298529356981029E-03;3.601578446281361E-04;
5.300300300300300E+07;3.925421907240202E-01;7.279811020230720E-01;-4.122563495999124E-03;5.159305185733882E-04;3.925421907240202E-01;7.279811020230720E-01;-4.122563495999124E-03;5.159305185733882E-04;
5.325325325325325E+07;3.889855422887063E-01;7.407367543427636E-01;-3.989641412350252E-03;6.284142987052040E-04;3.889855422887063E-01;7.407367543427636E-01;-3.989641412350252E-03;6.284142987052040E-04;
5.350350350350350E+07;3.868193055062845E-01;7.524428334230924E-01;-3.770150364563075E-03;7.404652957786690E-04;3.868193055062845E-01;7.524428334230924E-01;-3.770150364563075E-03;7.404652957786690E-04;
5.375375375375375E+07;3.859093886375298E-01;7.634722791078588E-01;-3.635052612552230E-03;8.118513903378078E-04;3.859093886375298E-01;7.634722791078588E-01;-3.635052612552230E-03;8.118513903378078E-04;
5.400400400400400E+07;3.861359287769528E-01;7.729857622843712E-01;-3.490433043010644E-03;8.826879882099469E-04;3.861359287769528E-01;7.729857622843712E-01;-3.490433043010644E-03;8.826879882099469E-04;
5.425425425425425E+07;3.861887952115610E-01;7.815239294161888E-01;-3.312072744822807E-03;8.930402802569545E-04;3.861887952115610E-01;7.815239294161888E-01;-3.312072744822807E-03;8.930402802569545E-04;
5.450450450450450E+07;3.870868359429856E-01;7.891805493569132E-01;-3.085845267225458E-03;8.983737464211001E-04;3.870868359429856E-01;7.891805493569132E-01;-3.085845267225458E-03;8.983737464211001E-04;
5.475475475475475E+07;3.878633940944026E-01;7.958557779455914E-01;-2.933331880336425E-03;8.815294095379013E-04;3.878633940944026E-01;7.958557779455914E-01;-2.933331880336425E-03;8.815294095379013E-04;
5.500500500500500E+07;3.887504647028968E-01;8.013629455058694E-01;-2.820384207813577E-03;8.962380470486053E-04;3.887504647028968E-01;8.013629455058694E-01;-2.820384207813577E-03;8.962380470486053E-04;
5.525525525525525E+07;3.897935280050174E-01;8.063318902309756E-01;-2.692800791303078E-03;9.041194778435970E-04;3.897935280050174E-01;8.063318902309756E-01;-2.692800791303078E-03;9.041194778435970E-04;
5.550550550550550E+07;3.909295872166220E-01;8.107132198184578E-01;-2.584503591248724E-03;8.490901838494290E-04;3.909295872166220E-01;8.107132198184578E-01;-2.584503591248724E-03;8.490901838494290E-04;
5.575575575575575E+07;3.915335467809524E-01;8.143947756404656E-01;-2.469704752226499E-03;7.885796140076748E-04;3.915335467809524E-01;8.143947756404656E-01;-2.469704752226499E-03;7.885796140076748E-04;
5.600600600600600E+07;3.924288168436113E-01;8.173920995406488E-01;-2.379199183745615E-03;8.045342205753246E-04;3.924288168436113E-01;8.173920995406488E-01;-2.379199183745615E-03;8.045342205753246E-04;
5.625625625625625E+07;3.926201905140183E-01;8.200483556803004E-01;-2.335958604903411E-03;7.524678814512386E-04;3.926201905140183E-01;8.200483556803004E-01;-2.335958604903411E-03;7.524678814512386E-04;
5.650650650650650E+07;3.927834068379755E-01;8.220986666369126E-01;-2.263047428827526E-03;7.197112671652164E-04;3.927834068379755E-01;8.220986666369126E-01;-2.263047428827526E-03;7.197112671652164E-04;
5.675675675675675E+07;3.925542567381214E-01;8.236414094765903E-01;-2.201192802309807E-03;6.629915350527580E-04;3.925542567381214E-01;8.236414094765903E-01;-2.201192802309807E-03;6.629915350527580E-04;
5.700700700700700E+07;3.924336786730212E-01;8.251199649516698E-01;-2.122563644562822E-03;5.995283286772102E-04;3.924336786730212E-01;8.251199649516698E-01;-2.122563644562822E-03;5.995283286772102E-04;
5.725725725725726E+07;3.916326044323994E-01;8.259903621511646E-01;-2.068433810775939E-03;6.109899480255017E-04;3.916326044323994E-01;8.259903621511646E-01;-2.068433810775939E-03;6.109899480255017E-04;
5.750750750750751E+07;3.908524007612232E-01;8.272110760091849E-01;-2.010928642583874E-03;5.068290838460542E-04;3.908524007612232E-01;8.272110760091849E-01;-2.010928642583874E-03;5.068290838460542E-04;
5.775775775775776E+07;3.897155727166666E-01;8.280292534640368E-01;-1.996868370317786E-03;5.342973284144987E-04;3.897155727166666E-01;8.280292534640368E-01;-1.996868370317786E-03;5.342973284144987E-04;
5.800800800800801E+07;3.886561728973644E-01;8.284933697673156E-01;-1.936341618670598E-03;4.509059831548378E-04;3.886561728973644E-01;8.284933697673156E-01;-1.936341618670598E-03;4.509059831548378E-04;
5.825825825825826E+07;3.875587216554899E-01;8.291837454187553E-01;-1.879112297576212E-03;4.636767335717691E-04;3.875587216554899E-01;8.291837454187553E-01;-1.879112297576212E-03;4.636767335717691E-04;
5.850850850850851E+07;3.865075323255064E-01;8.290535096402641E-01;-1.891764067342513E-03;3.782437319650410E-04;3.865075323255064E-01;8.290535096402641E-01;-1.891764067342513E-03;3.782437319650410E-04;
5.875875875875876E+07;3.852557028710847E-01;8.287468438643902E-01;-1.827724921058630E-03;3.570100175549445E-04;3.852557028710847E-01;8.287468438643902E-01;-1.827724921058630E-03;3.570100175549445E-04;
5.900900900900901E+07;3.838905839208115E-01;8.277787747200895E-01;-1.794149974618047E-03;3.364024974498179E-04;3.838905839208115E-01;8.277787747200895E-01;-1.794149974618047E-03;3.364024974498179E-04;
5.925925925925926E+07;3.821634995654584E-01;8.268684553825719E-01;-1.738133996135369E-03;2.315455561479079E-04;3.821634995654584E-01;8.268684553825719E-01;-1.738133996135369E-03;2.315455561479079E-04;
5.950950950950951E+07;3.799825659656340E-01;8.250688782375997E-01;-1.782090723120426E-03;2.132889692434521E-04;3.799825659656340E-01;8.250688782375997E-01;-1.782090723120426E-03;2.132889692434521E-04;
5.975975975975976E+07;3.772100986927859E-01;8.233698266849684E-01;-1.781411496022712E-03;1.164399524612748E-04;3.772100986927859E-01;8.233698266849684E-01;-1.781411496022712E-03;1.164399524612748E-04;
6.001001001001001E+07;3.736829095205350E-01;8.214357690385409E-01;-1.717300094492874E-03;9.805808639107394E-05;3.736829095205350E-01;8.214357690385409E-01;-1.717300094492874E-03;9.805808639107394E-05;
6.026026026026026E+07;3.690647462091521E-01;8.199682953863189E-01;-1.738343974897987E-03;8.768758459239409E-05;3.690647462091521E-01;8.199682953863189E-01;-1.738343974897987E-03;8.768758459239409E-05;
6.051051051051051E+07;3.640281154502505E-01;8.189513445257972E-01;-1.701532526045399E-03;1.636523899624980E-05;3.640281154502505E-01;8.189513445257972E-01;-1.701532526045399E-03;1.636523899624980E-05;
6.076076076076076E+07;3.583948482115626E-01;8.190341065974789E-01;-1.742239830921476E-03;-2.423707486132753E-05;3.583948482115626E-01;8.190341065974789E-01;-1.742239830921476E-03;-2.423707486132753E-05;
6.101101101101101E+07;3.526221815535233E-01;8.203179153575082E-01;-1.696544602173010E-03;-7.849541546541592E-05;3.526221815535233E-01;8.203179153575082E-01;-1.696544602173010E-03;-7.849541546541592E-05;
6.126126126126126E+07;3.474286036891070E-01;8.228539917288169E-01;-1.783499726094086E-03;-5.286913532777961E-05;3.474286036891070E-01;8.228539917288169E-01;-1.783499726094086E-03;-5.286913532777961E-05;
6.151151151151151E+07;3.434683724946830E-01;8.260903445382571E-01;-1.792583634692227E-03;-1.293390868770301E-04;3.434683724946830E-01;8.260903445382571E-01;-1.792583634692227E-03;-1.293390868770301E-04;
6.176176176176176E+07;3.401856855334965E-01;8.293302868469135E-01;-1.819871498338962E-03;-8.691983448295150E-05;3.401856855334965E-01;8.293302868469135E-01;-1.819871498338962E-03;-8.691983448295150E-05;
6.201201201201201E+07;3.380524382681369E-01;8.325338464369961E-01;-1.773315144913442E-03;-6.720734538208782E-05;3.380524382681369E-01;8.325338464369961E-01;-1.773315144913442E-03;-6.720734538208782E-05;
6.226226226226226E+07;3.362575209405828E-01;8.357492766675211E-01;-1.794817678507930E-03;-1.119771269805968E-04;3.362575209405828E-01;8.357492766675211E-01;-1.794817678507930E-03;-1.119771269805968E-04;
6.251251251251251E+07;3.352514051401939E-01;8.384542210045953E-01;-1.801668652127031E-03;-1.068357759324264E-04;3.352514051401939E-01;8.384542210045953E-01;-1.801668652127031E-03;-1.068357759324264E-04;
6.276276276276276E+07;3.347860196462223E-01;8.408418814567261E-01;-1.798504402629476E-03;-1.861254827699871E-04;3.347860196462223E-01;8.408418814567261E-01;-1.798504402629476E-03;-1.861254827699871E-04;
6.301301301301301E+07;3.346360054595104E-01;8.426112926813217E-01;-1.816479168016801E-03;-1.359390110725405E-04;3.346360054595104E-01;8.426112926813217E-01;-1.816479168016801E-03;-1.359390110725405E-04;
6.326326326326326E+07;3.344899502147747E-01;8.439895659772144E-01;-1.731853538416077E-03;-1.850616558145423E-04;3.344899502147747E-01;8.439895659772144E-01;-1.731853538416077E-03;-1.850616558145423E-04;
6.351351351351351E+07;3.345365425685418E-01;8.452302115085594E-01;-1.762282242725137E-03;-1.976278094852175E-04;3.345365425685418E-01;8.452302115085594E-01;-1.762282242725137E-03;-1.976278094852175E-04;
6.376376376376376E+07;3.347597599807159E-01;8.460615972487290E-01;-1.798538678099372E-03;-2.132141660794297E-04;3.347597599807159E-01;8.460615972487290E-01;-1.798538678099372E-03;-2.132141660794297E-04;
6.401401401401401E+07;3.349054936164470E-01;8.466363215057769E-01;-1.804631681402702E-03;-2.102248590333756E-04;3.349054936164470E-01;8.466363215057769E-01;-1.804631681402702E-03;-2.102248590333756E-04;
6.426426426426426E+07;3.350855778221549E-01;8.471992791114824E-01;-1.769280400924158E-03;-2.133557684380965E-04;3.350855778221549E-01;8.471992791114824E-01;-1.769280400924158E-03;-2.133557684380965E-04;
6.451451451451451E+07;3.354896121281585E-01;8.474941194391922E-01;-1.729218482460764E-03;-2.333232071228163E-04;3.354896121281585E-01;8.474941194391922E-01;-1.729218482460764E-03;-2.333232071228163E-04;
6.476476476476476E+07;3.358011009427052E-01;8.476531480228062E-01;-1.793924336002694E-03;-2.777923702485466E-04;3.358011009427052E-01;8.476531480228062E-01;-1.793924336002694E-03;-2.777923702485466E-04;
6.501501501501501E+07;3.362123583729059E-01;8.475665284057678E-01;-1.705855704304425E-03;-3.207198591858700E-04;3.362123583729059E-01;8.475665284057678E-01;-1.705855704304425E-03;-3.207198591858700E-04;
6.526526526526526E+07;3.368625096517516E-01;8.473386534148228E-01;-1.747064232216645E-03;-3.464740482761197E-04;3.368625096517516E-01;8.473386534148228E-01;-1.747064232216645E-03;-3.464740482761197E-04;
6.551551551551551E+07;3.373896168361115E-01;8.469918886136513E-01;-1.717917624224585E-03;-3.622412563156656E-04;3.373896168361115E-01;8.469918886136513E-01;-1.717917624224585E-03;-3.622412563156656E-04;
6.576576576576576E+07;3.400397778661102E-01;8.469999531495888E-01;-1.755058481343444E-03;-3.521684796986545E-04;3.400397778661102E-01;8.469999531495888E-01;-1.755058481343444E-03;-3.521684796986545E-04;
6.601601601601601E+07;3.407145323256714E-01;8.463644258976194E-01;-1.722514314870774E-03;-3.515795425412037E-04;3.407145323256714E-01;8.463644258976194E-01;-1.722514314870774E-03;-3.515795425412037E-04;
6.626626626626626E+07;3.411331488320861E-01;8.458663604677199E-01;-1.738901932149517E-03;-4.340813496225471E-04;3.411331488320861E-01;8.458663604677199E-01;-1.738901932149517E-03;-4.340813496225471E-04;
6.651651651651651E+07;3.416794918761197E-01;8.451387787276287E-01;-1.754234169147375E-03;-3.948580448114907E-04;3.416794918761197E-01;8.451387787276287E-01;-1.754234169147375E-03;-3.948580448114907E-04;
6.676676676676676E+07;3.421667372593459E-01;8.446535370888465E-01;-1.746333751564147E-03;-4.602623328539628E-04;3.421667372593459E-01;8.446535370888465E-01;-1.746333751564147E-03;-4.602623328539628E-04;
6.701701701701702E+07;3.437690250155795E-01;8.432629486997980E-01;-1.737810943786421E-03;-4.490179271236009E-04;3.437690250155795E-01;8.432629486997980E-01;-1.737810943786421E-03;-4.490179271236009E-04;
6.726726726726727E+07;3.444105774309823E-01;8.425671263186872E-01;-1.726842701428575E-03;-4.951160133166798E-04;3.444105774309823E-01;8.425671263186872E-01;-1.726842701428575E-03;-4.951160133166798E-04;
6.751751751751752E+07;3.450914412047049E-01;8.418925350985015E-01;-1.729415808873634E-03;-5.340750374085883E-04;3.450914412047049E-01;8.418925350985015E-01;-1.729415808873634E-03;-5.340750374085883E-04;
6.776776776776777E+07;3.455948815931831E-01;8.412462461894413E-01;-1.752837675434120E-03;-5.553953744399940E-04;3.455948815931831E-01;8.412462461894413E-01;-1.752837675434120E-03;-5.553953744399940E-04;
6.801801801801802E+07;3.461142925805125E-01;8.407455462075062E-01;-1.780821987364939E-03;-5.808753004701004E-04;3.461142925805125E-01;8.407455462075062E-01;-1.780821987364939E-03;-5.808753004701004E-04;
6.826826826826827E+07;3.470190768844167E-01;8.400237782833152E-01;-1.755583802223351E-03;-5.871451822896385E-04;3.470190768844167E-01;8.400237782833152E-01;-1.755583802223351E-03;-5.871451822896385E-04;
6.851851851851852E+07;3.483926799200765E-01;8.390198686599671E-01;-1.781827504720658E-03;-6.167469285798678E-04;3.483926799200765E-01;8.390198686599671E-01;-1.781827504720658E-03;-6.167469285798678E-04;
6.876876876876877E+07;3.506547949961716E-01;8.371920731586127E-01;-1.773473959758673E-03;-6.615736172198638E-04;3.506547949961716E-01;8.371920731586127E-01;-1.773473959758673E-03;-6.615736172198638E-04;
6.901901901901902E+07;3.533155190388144E-01;8.352817865053298E-01;-1.760764849786586E-03;-7.074474990610155E-04;3.533155190388144E-01;8.352817865053298E-01;-1.760764849786586E-03;-7.074474990610155E-04;
6.926926926926927E+07;3.566152575000709E-01;8.329123813941156E-01;-1.753283918634987E-03;-7.869024743334639E-04;3.566152575000709E-01;8.329123813941156E-01;-1.753283918634987E-03;-7.869024743334639E-04;
6.951951951951952E+07;3.599115712469743E-01;8.304589429883678E-01;-1.783062437215127E-03;-8.023440537928498E-04;3.599115712469743E-01;8.304589429883678E-01;-1.783062437215127E-03;-8.023440537928498E-04;
6.976976976976977E+07;3.631948188796443E-01;8.275461437535084E-01;-1.752502284849045E-03;-8.240610084623477E-04;3.631948188796443E-01;8.275461437535084E-01;-1.752502284849045E-03;-8.240610084623477E-04;
7.002002002002002E+07;3.662009415135918E-01;8.250179103019986E-01;-1.754998701795863E-03;-8.440350594323688E-04;3.662009415135918E-01;8.250179103019986E-01;-1.754998701795863E-03;-8.440350594323688E-04;
7.027027027027027E+07;3.690346713933541E-01;8.223470989784818E-01;-1.796617108804180E-03;-9.175437098272735E-04;3.690346713933541E-01;8.223470989784818E-01;-1.796617108804180E-03;-9.175437098272735E-04;
7.052052052052052E+07;3.718452776909767E-01;8.199667073011794E-01;-1.752067956708329E-03;-9.401782606150857E-04;3.718452776909767E-01;8.199667073011794E-01;-1.752067956708329E-03;-9.401782606150857E-04;
7.077077077077077E+07;3.744626979232454E-01;8.174425654004432E-01;-1.799978119414568E-03;-9.656343897511997E-04;3.744626979232454E-01;8.174425654004432E-01;-1.799978119414568E-03;-9.656343897511997E-04;
7.102102102102102E+07;3.771487081042703E-01;8.149786549137520E-01;-1.811458208569708E-03;-1.010889037467777E-03;3.771487081042703E-01;8.149786549137520E-01;-1.811458208569708E-03;-1.010889037467777E-03;
7.127127127127127E+07;3.799664972770189E-01;8.123893289228136E-01;-1.814119688352875E-03;-1.021140729185054E-03;3.799664972770189E-01;8.123893289228136E-01;-1.814119688352875E-03;-1.021140729185054E-03;
7.152152152152152E+07;3.827721971013858E-01;8.099700435822891E-01;-1.824909163761001E-03;-1.056668810276528E-03;3.827721971013858E-01;8.099700435822891E-01;-1.824909163761001E-03;-1.056668810276528E-03;
7.177177177177177E+07;3.854109081469008E-01;8.073001909792252E-01;-1.859951247617129E-03;-1.132636097050873E-03;3.854109081469008E-01;8.073001909792252E-01;-1.859951247617129E-03;-1.132636097050873E-03;
7.202202202202202E+07;3.880538434893672E-01;8.048090395975050E-01;-1.863565660341752E-03;-1.135429048775031E-03;3.880538434893672E-01;8.048090395975050E-01;-1.863565660341752E-03;-1.135429048775031E-03;
7.227227227227227E+07;3.912349056909797E-01;8.020350784332855E-01;-1.885485824723092E-03;-1.190131436568546E-03;3.912349056909797E-01;8.020350784332855E-01;-1.885485824723092E-03;-1.190131436568546E-03;
7.252252252252252E+07;3.947864257892025E-01;7.986958491705879E-01;-1.868165072790585E-03;-1.245465172397002E-03;3.947864257892025E-01;7.986958491705879E-01;-1.868165072790585E-03;-1.245465172397002E-03;
7.277277277277277E+07;3.985157305302985E-01;7.952337473497103E-01;-1.910500039451917E-03;-1.271497862002358E-03;3.985157305302985E-01;7.952337473497103E-01;-1.910500039451917E-03;-1.271497862002358E-03;
7.302302302302302E+07;4.030231080194202E-01;7.914066719206454E-01;-1.946236300657237E-03;-1.316562304617218E-03;4.030231080194202E-01;7.914066719206454E-01;-1.946236300657237E-03;-1.316562304617218E-03;
7.327327327327327E+07;4.080090558146814E-01;7.872186011514293E-01;-1.905903720617668E-03;-1.413204037665226E-03;4.080090558146814E-01;7.872186011514293E-01;-1.905903720617668E-03;-1.413204037665226E-03;
7.352352352352352E+07;4.129372372828565E-01;7.827072235214204E-01;-1.926102039308846E-03;-1.425241108557939E-03;4.129372372828565E-01;7.827072235214204E-01;-1.926102039308846E-03;-1.425241108557939E-03;
7.377377377377377E+07;4.180479163230855E-01;7.782959638053549E-01;-1.951014289573551E-03;-1.498790619945617E-03;4.180479163230855E-01;7.782959638053549E-01;-1.951014289573551E-03;-1.498790619945617E-03;
7.402402402402402E+07;4.231683593206432E-01;7.738609931686531E-01;-1.976619863230964E-03;-1.574652812642272E-03;4.231683593206432E-01;7.738609931686531E-01;-1.976619863230964E-03;-1.574652812642272E-03;
