# Version 1.00
#
# Ref Impedances: Z01: 50, Z02: 50
# 
freq[Hz];re:SMag2_S11;im:SMag2_S11;re:ZPh2_S12;im:ZPh2_S12;re:SPh2_S11;im:SPh2_S11;re:ZMag2_S12;im:ZMag2_S12;
5.000000000000000E+07;5.918968078070677E-01;5.752517703084592E-01;-2.068457501145678E-03;-7.463394191154829E-03;5.918968078070677E-01;5.752517703084592E-01;-2.068457501145678E-03;-7.463394191154829E-03;
5.025025025025025E+07;5.662215338216883E-01;5.572531088421039E-01;-3.248465701529354E-03;-7.493832476289403E-03;5.662215338216883E-01;5.572531088421039E-01;-3.248465701529354E-03;-7.493832476289403E-03;
5.050050050050050E+07;5.320692215868933E-01;5.442632813237809E-01;-4.494757504367145E-03;-7.140978501564730E-03;5.320692215868933E-01;5.442632813237809E-01;-4.494757504367145E-03;-7.140978501564730E-03;
5.075075075075075E+07;4.916265098973933E-01;5.404761618193831E-01;-5.535872891869946E-03;-6.585787650181719E-03;4.916265098973933E-01;5.404761618193831E-01;-5.535872891869946E-03;-6.585787650181719E-03;
5.100100100100100E+07;4.493478984785770E-01;5.482799562723061E-01;-6.435456393258356E-03;-5.540190581765761E-03;4.493478984785770E-01;5.482799562723061E-01;-6.435456393258356E-03;-5.540190581765761E-03;
5.125125125125125E+07;4.102795841088364E-01;5.677729708945397E-01;-7.017557229877390E-03;-4.532116519906922E-03;4.102795841088364E-01;5.677729708945397E-01;-7.017557229877390E-03;-4.532116519906922E-03;
5.150150150150150E+07;3.782247460312809E-01;5.963371678377133E-01;-7.396233849166627E-03;-3.331597192557920E-03;3.782247460312809E-01;5.963371678377133E-01;-7.396233849166627E-03;-3.331597192557920E-03;
5.175175175175175E+07;3.569960868897096E-01;6.318621498552079E-01;-7.344579105739108E-03;-2.187284354144457E-03;3.569960868897096E-01;6.318621498552079E-01;-7.344579105739108E-03;-2.187284354144457E-03;
5.200200200200200E+07;3.444579062356342E-01;6.639118079636273E-01;-6.981820506864242E-03;-1.217490464811493E-03;3.444579062356342E-01;6.639118079636273E-01;-6.981820506864242E-03;-1.217490464811493E-03;
5.225225225225225E+07;3.404391194275136E-01;6.952339201724783E-01;-6.481689397476164E-03;-4.365909358738061E-04;3.404391194275136E-01;6.952339201724783E-01;-6.481689397476164E-03;-4.365909358738061E-04;
5.250250250250250E+07;3.422129313283429E-01;7.216585298904602E-01;-5.978244218396917E-03;1.100327496228107E-04;3.422129313283429E-01;7.216585298904602E-01;-5.978244218396917E-03;1.100327496228107E-04;
5.275275275275275E+07;3.468476201705647E-01;7.427870873547837E-01;-5.473844164363095E-03;4.487777730969810E-04;3.468476201705647E-01;7.427870873547837E-01;-5.473844164363095E-03;4.487777730969810E-04;
5.300300300300300E+07;3.527086558811620E-01;7.599311469018506E-01;-4.911903460286526E-03;7.286386957222047E-04;3.527086558811620E-01;7.599311469018506E-01;-4.911903460286526E-03;7.286386957222047E-04;
5.325325325325325E+07;3.587662897116767E-01;7.733165154830167E-01;-4.512574106739943E-03;8.766580957744915E-04;3.587662897116767E-01;7.733165154830167E-01;-4.512574106739943E-03;8.766580957744915E-04;
5.350350350350350E+07;3.644133466536066E-01;7.836517495907510E-01;-4.141873159906430E-03;9.184708239372176E-04;3.644133466536066E-01;7.836517495907510E-01;-4.141873159906430E-03;9.184708239372176E-04;
5.375375375375375E+07;3.693034259213785E-01;7.913283804904306E-01;-3.799198082633929E-03;9.447780591858714E-04;3.693034259213785E-01;7.913283804904306E-01;-3.799198082633929E-03;9.447780591858714E-04;
5.400400400400400E+07;3.731677707228176E-01;7.985778580063756E-01;-3.525001086848469E-03;9.518115869484933E-04;3.731677707228176E-01;7.985778580063756E-01;-3.525001086848469E-03;9.518115869484933E-04;
5.425425425425425E+07;3.761893207460511E-01;8.041564869010596E-01;-3.283728803396428E-03;9.299684191686474E-04;3.761893207460511E-01;8.041564869010596E-01;-3.283728803396428E-03;9.299684191686474E-04;
5.450450450450450E+07;3.784440877881244E-01;8.090159988059785E-01;-3.056976787360820E-03;9.204276597154530E-04;3.784440877881244E-01;8.090159988059785E-01;-3.056976787360820E-03;9.204276597154530E-04;
5.475475475475475E+07;3.801350928534268E-01;8.134052623399711E-01;-2.864781369247186E-03;8.043169144718336E-04;3.801350928534268E-01;8.134052623399711E-01;-2.864781369247186E-03;8.043169144718336E-04;
5.500500500500500E+07;3.813482821891359E-01;8.170924552959803E-01;-2.686911361340360E-03;8.518992818397986E-04;3.813482821891359E-01;8.170924552959803E-01;-2.686911361340360E-03;8.518992818397986E-04;
5.525525525525525E+07;3.821544820802734E-01;8.206725860291374E-01;-2.617389778960050E-03;7.957331418985942E-04;3.821544820802734E-01;8.206725860291374E-01;-2.617389778960050E-03;7.957331418985942E-04;
5.550550550550550E+07;3.828733314265866E-01;8.232954971231738E-01;-2.461901340952730E-03;7.032145492491326E-04;3.828733314265866E-01;8.232954971231738E-01;-2.461901340952730E-03;7.032145492491326E-04;
5.575575575575575E+07;3.832873071966198E-01;8.258262335193134E-01;-2.348055610960463E-03;6.559151563031787E-04;3.832873071966198E-01;8.258262335193134E-01;-2.348055610960463E-03;6.559151563031787E-04;
5.600600600600600E+07;3.834196253969349E-01;8.280499692029643E-01;-2.249452941517821E-03;6.784509483337014E-04;3.834196253969349E-01;8.280499692029643E-01;-2.249452941517821E-03;6.784509483337014E-04;
5.625625625625625E+07;3.831511445172630E-01;8.294882641972028E-01;-2.116919160585580E-03;6.564079341844935E-04;3.831511445172630E-01;8.294882641972028E-01;-2.116919160585580E-03;6.564079341844935E-04;
5.650650650650650E+07;3.824394102697968E-01;8.312755221425413E-01;-2.141420785892694E-03;6.100114330910703E-04;3.824394102697968E-01;8.312755221425413E-01;-2.141420785892694E-03;6.100114330910703E-04;
5.675675675675675E+07;3.815349831533149E-01;8.324037876166152E-01;-1.997294226537037E-03;5.322559248098670E-04;3.815349831533149E-01;8.324037876166152E-01;-1.997294226537037E-03;5.322559248098670E-04;
5.700700700700700E+07;3.802918469268080E-01;8.336301095558379E-01;-1.946296404710697E-03;4.579984539316148E-04;3.802918469268080E-01;8.336301095558379E-01;-1.946296404710697E-03;4.579984539316148E-04;
5.725725725725726E+07;3.786520332839708E-01;8.344353201581854E-01;-1.897452066322582E-03;4.625727956763795E-04;3.786520332839708E-01;8.344353201581854E-01;-1.897452066322582E-03;4.625727956763795E-04;
5.750750750750751E+07;3.768094874663442E-01;8.351838762420419E-01;-1.830821705237874E-03;3.728177527642368E-04;3.768094874663442E-01;8.351838762420419E-01;-1.830821705237874E-03;3.728177527642368E-04;
5.775775775775776E+07;3.748391501315641E-01;8.357858068790949E-01;-1.807721888406715E-03;3.350428356555898E-04;3.748391501315641E-01;8.357858068790949E-01;-1.807721888406715E-03;3.350428356555898E-04;
5.800800800800801E+07;3.724476253302163E-01;8.363873949230978E-01;-1.782625181575643E-03;3.038211529061171E-04;3.724476253302163E-01;8.363873949230978E-01;-1.782625181575643E-03;3.038211529061171E-04;
5.825825825825826E+07;3.700281811137369E-01;8.371040875875282E-01;-1.710145453824815E-03;2.705462372736594E-04;3.700281811137369E-01;8.371040875875282E-01;-1.710145453824815E-03;2.705462372736594E-04;
5.850850850850851E+07;3.676194223067009E-01;8.375275027343558E-01;-1.693902166791368E-03;2.613268095856553E-04;3.676194223067009E-01;8.375275027343558E-01;-1.693902166791368E-03;2.613268095856553E-04;
5.875875875875876E+07;3.651207941792867E-01;8.377652711959427E-01;-1.616636810552426E-03;2.546103847328350E-04;3.651207941792867E-01;8.377652711959427E-01;-1.616636810552426E-03;2.546103847328350E-04;
5.900900900900901E+07;3.622823706077592E-01;8.380380252086909E-01;-1.609915879525476E-03;1.548541827123089E-04;3.622823706077592E-01;8.380380252086909E-01;-1.609915879525476E-03;1.548541827123089E-04;
5.925925925925926E+07;3.590616240161325E-01;8.383873729218129E-01;-1.611830958200795E-03;1.270337464106778E-04;3.590616240161325E-01;8.383873729218129E-01;-1.611830958200795E-03;1.270337464106778E-04;
5.950950950950951E+07;3.556761705569454E-01;8.389093527972348E-01;-1.627010100867845E-03;8.799887255442335E-05;3.556761705569454E-01;8.389093527972348E-01;-1.627010100867845E-03;8.799887255442335E-05;
5.975975975975976E+07;3.522062308281196E-01;8.397172374179978E-01;-1.660207098083366E-03;1.117390324774740E-04;3.522062308281196E-01;8.397172374179978E-01;-1.660207098083366E-03;1.117390324774740E-04;
6.001001001001001E+07;3.489611616798088E-01;8.405140258700882E-01;-1.603215682785774E-03;4.326618296047791E-05;3.489611616798088E-01;8.405140258700882E-01;-1.603215682785774E-03;4.326618296047791E-05;
6.026026026026026E+07;3.456627744813636E-01;8.418685851745512E-01;-1.628451700038213E-03;2.868429508732322E-05;3.456627744813636E-01;8.418685851745512E-01;-1.628451700038213E-03;2.868429508732322E-05;
6.051051051051051E+07;3.425569490342299E-01;8.433991449408202E-01;-1.548168399534860E-03;3.093626724742446E-05;3.425569490342299E-01;8.433991449408202E-01;-1.548168399534860E-03;3.093626724742446E-05;
6.076076076076076E+07;3.397727499818596E-01;8.450846893203701E-01;-1.548937650664584E-03;4.435835390423874E-06;3.397727499818596E-01;8.450846893203701E-01;-1.548937650664584E-03;4.435835390423874E-06;
6.101101101101101E+07;3.373812865818908E-01;8.465850195386498E-01;-1.560077548836231E-03;-1.151671482574810E-05;3.373812865818908E-01;8.465850195386498E-01;-1.560077548836231E-03;-1.151671482574810E-05;
6.126126126126126E+07;3.352473557825571E-01;8.482991270018405E-01;-1.543966055465169E-03;-1.597636622509326E-05;3.352473557825571E-01;8.482991270018405E-01;-1.543966055465169E-03;-1.597636622509326E-05;
6.151151151151151E+07;3.331768527173025E-01;8.496959820551515E-01;-1.531122473764942E-03;-6.125525565836237E-05;3.331768527173025E-01;8.496959820551515E-01;-1.531122473764942E-03;-6.125525565836237E-05;
6.176176176176176E+07;3.314142516384639E-01;8.509809415961630E-01;-1.555539049669379E-03;-7.977260710817628E-05;3.314142516384639E-01;8.509809415961630E-01;-1.555539049669379E-03;-7.977260710817628E-05;
6.201201201201201E+07;3.297328853975809E-01;8.520853232426853E-01;-1.483314123235399E-03;-5.287209656281270E-05;3.297328853975809E-01;8.520853232426853E-01;-1.483314123235399E-03;-5.287209656281270E-05;
6.226226226226226E+07;3.281925318486251E-01;8.530441955849575E-01;-1.502066023336971E-03;-1.024488410661478E-04;3.281925318486251E-01;8.530441955849575E-01;-1.502066023336971E-03;-1.024488410661478E-04;
6.251251251251251E+07;3.265939242629117E-01;8.538786388663731E-01;-1.532568907405228E-03;-1.584400157511153E-04;3.265939242629117E-01;8.538786388663731E-01;-1.532568907405228E-03;-1.584400157511153E-04;
6.276276276276276E+07;3.254139256123831E-01;8.546159597847466E-01;-1.502036568396328E-03;-7.605756357336901E-05;3.254139256123831E-01;8.546159597847466E-01;-1.502036568396328E-03;-7.605756357336901E-05;
6.301301301301301E+07;3.240999364142151E-01;8.553462428494001E-01;-1.461555979995520E-03;-1.692391072820913E-04;3.240999364142151E-01;8.553462428494001E-01;-1.461555979995520E-03;-1.692391072820913E-04;
6.326326326326326E+07;3.227102491534973E-01;8.561625375490952E-01;-1.547546184412214E-03;-1.676755404068480E-04;3.227102491534973E-01;8.561625375490952E-01;-1.547546184412214E-03;-1.676755404068480E-04;
6.351351351351351E+07;3.215419784521295E-01;8.567531195785650E-01;-1.423555463262583E-03;-1.876751229700870E-04;3.215419784521295E-01;8.567531195785650E-01;-1.423555463262583E-03;-1.876751229700870E-04;
6.376376376376376E+07;3.205289662324425E-01;8.572352601624958E-01;-1.492230772791787E-03;-1.931629043118060E-04;3.205289662324425E-01;8.572352601624958E-01;-1.492230772791787E-03;-1.931629043118060E-04;
6.401401401401401E+07;3.195704124485699E-01;8.576579405872944E-01;-1.478169401577313E-03;-2.685685155429203E-04;3.195704124485699E-01;8.576579405872944E-01;-1.478169401577313E-03;-2.685685155429203E-04;
6.426426426426426E+07;3.187671994835534E-01;8.580832292602426E-01;-1.434116174647132E-03;-2.628702795892234E-04;3.187671994835534E-01;8.580832292602426E-01;-1.434116174647132E-03;-2.628702795892234E-04;
6.451451451451451E+07;3.181666994330400E-01;8.582685204158500E-01;-1.448868835702251E-03;-2.611283508702447E-04;3.181666994330400E-01;8.582685204158500E-01;-1.448868835702251E-03;-2.611283508702447E-04;
6.476476476476476E+07;3.177322265025218E-01;8.585545271512947E-01;-1.401705103088290E-03;-2.092277315486076E-04;3.177322265025218E-01;8.585545271512947E-01;-1.401705103088290E-03;-2.092277315486076E-04;
6.501501501501501E+07;3.173164948993695E-01;8.584480419381987E-01;-1.390178109059607E-03;-2.990705344344363E-04;3.173164948993695E-01;8.584480419381987E-01;-1.390178109059607E-03;-2.990705344344363E-04;
6.526526526526526E+07;3.170504472653969E-01;8.584720710553133E-01;-1.419357228423799E-03;-3.211810866313470E-04;3.170504472653969E-01;8.584720710553133E-01;-1.419357228423799E-03;-3.211810866313470E-04;
6.551551551551551E+07;3.168308012362584E-01;8.582088861118509E-01;-1.387394882562285E-03;-3.650644480129925E-04;3.168308012362584E-01;8.582088861118509E-01;-1.387394882562285E-03;-3.650644480129925E-04;
6.576576576576576E+07;3.187958348909535E-01;8.584118369520868E-01;-1.401542741276358E-03;-3.250755629552756E-04;3.187958348909535E-01;8.584118369520868E-01;-1.401542741276358E-03;-3.250755629552756E-04;
6.601601601601601E+07;3.186623862689196E-01;8.578920993984285E-01;-1.444273780852807E-03;-3.883528736051844E-04;3.186623862689196E-01;8.578920993984285E-01;-1.444273780852807E-03;-3.883528736051844E-04;
6.626626626626626E+07;3.183119006770137E-01;8.574890252761410E-01;-1.400890722081062E-03;-3.408916959371936E-04;3.183119006770137E-01;8.574890252761410E-01;-1.400890722081062E-03;-3.408916959371936E-04;
6.651651651651651E+07;3.180256759921363E-01;8.571394378082301E-01;-1.428461235758760E-03;-3.904638807710356E-04;3.180256759921363E-01;8.571394378082301E-01;-1.428461235758760E-03;-3.904638807710356E-04;
6.676676676676676E+07;3.177230797802278E-01;8.568242453464783E-01;-1.427315231937404E-03;-4.241022368382121E-04;3.177230797802278E-01;8.568242453464783E-01;-1.427315231937404E-03;-4.241022368382121E-04;
6.701701701701702E+07;3.185519512096399E-01;8.556490521168861E-01;-1.433637093556801E-03;-4.979500530600341E-04;3.185519512096399E-01;8.556490521168861E-01;-1.433637093556801E-03;-4.979500530600341E-04;
6.726726726726727E+07;3.183696280123665E-01;8.552390118261368E-01;-1.414130313148866E-03;-4.157776837818320E-04;3.183696280123665E-01;8.552390118261368E-01;-1.414130313148866E-03;-4.157776837818320E-04;
6.751751751751752E+07;3.182159079484653E-01;8.549108008011587E-01;-1.440603660596823E-03;-5.064097553785895E-04;3.182159079484653E-01;8.549108008011587E-01;-1.440603660596823E-03;-5.064097553785895E-04;
6.776776776776777E+07;3.180206129089999E-01;8.545684247754270E-01;-1.402976912061880E-03;-5.021631492113374E-04;3.180206129089999E-01;8.545684247754270E-01;-1.402976912061880E-03;-5.021631492113374E-04;
6.801801801801802E+07;3.178527505090245E-01;8.544236167895123E-01;-1.381691269880201E-03;-5.181023788835381E-04;3.178527505090245E-01;8.544236167895123E-01;-1.381691269880201E-03;-5.181023788835381E-04;
6.826826826826827E+07;3.177456895647714E-01;8.540153179712262E-01;-1.379671860595769E-03;-5.551919780827444E-04;3.177456895647714E-01;8.540153179712262E-01;-1.379671860595769E-03;-5.551919780827444E-04;
6.851851851851852E+07;3.181455600946367E-01;8.533202416238518E-01;-1.424407697438830E-03;-5.833986406499657E-04;3.181455600946367E-01;8.533202416238518E-01;-1.424407697438830E-03;-5.833986406499657E-04;
6.876876876876877E+07;3.194929209597026E-01;8.516957458023376E-01;-1.434341886443806E-03;-6.056201996645519E-04;3.194929209597026E-01;8.516957458023376E-01;-1.434341886443806E-03;-6.056201996645519E-04;
6.901901901901902E+07;3.209076525495568E-01;8.502507901804929E-01;-1.423487242179770E-03;-6.053087046661800E-04;3.209076525495568E-01;8.502507901804929E-01;-1.423487242179770E-03;-6.053087046661800E-04;
6.926926926926927E+07;3.230525469594707E-01;8.485357524196520E-01;-1.391079026649562E-03;-6.763290611482854E-04;3.230525469594707E-01;8.485357524196520E-01;-1.391079026649562E-03;-6.763290611482854E-04;
6.951951951951952E+07;3.253705497038847E-01;8.464866326961585E-01;-1.386683254966681E-03;-7.209030648042390E-04;3.253705497038847E-01;8.464866326961585E-01;-1.386683254966681E-03;-7.209030648042390E-04;
6.976976976976977E+07;3.276395622370267E-01;8.444611435277092E-01;-1.391510479822513E-03;-7.191986757890268E-04;3.276395622370267E-01;8.444611435277092E-01;-1.391510479822513E-03;-7.191986757890268E-04;
7.002002002002002E+07;3.297157512678645E-01;8.424406296841496E-01;-1.396148896371602E-03;-7.406696110165646E-04;3.297157512678645E-01;8.424406296841496E-01;-1.396148896371602E-03;-7.406696110165646E-04;
7.027027027027027E+07;3.316673167746965E-01;8.407003266203749E-01;-1.432354968850762E-03;-8.037019476521691E-04;3.316673167746965E-01;8.407003266203749E-01;-1.432354968850762E-03;-8.037019476521691E-04;
7.052052052052052E+07;3.335082068614187E-01;8.390337972139172E-01;-1.401232846112823E-03;-8.243737560443288E-04;3.335082068614187E-01;8.390337972139172E-01;-1.401232846112823E-03;-8.243737560443288E-04;
7.077077077077077E+07;3.354302628740304E-01;8.372930510881894E-01;-1.401918404898276E-03;-7.986360854915369E-04;3.354302628740304E-01;8.372930510881894E-01;-1.401918404898276E-03;-7.986360854915369E-04;
7.102102102102102E+07;3.372244019078412E-01;8.354548200754787E-01;-1.433327693443106E-03;-8.896400084042660E-04;3.372244019078412E-01;8.354548200754787E-01;-1.433327693443106E-03;-8.896400084042660E-04;
7.127127127127127E+07;3.390861879484120E-01;8.337190240543680E-01;-1.445427878164779E-03;-8.785628282651196E-04;3.390861879484120E-01;8.337190240543680E-01;-1.445427878164779E-03;-8.785628282651196E-04;
7.152152152152152E+07;3.408860569249323E-01;8.320248072436126E-01;-1.401859431416579E-03;-9.325999196121353E-04;3.408860569249323E-01;8.320248072436126E-01;-1.401859431416579E-03;-9.325999196121353E-04;
7.177177177177177E+07;3.425504813009313E-01;8.301253899330456E-01;-1.421370796753157E-03;-9.667261033332425E-04;3.425504813009313E-01;8.301253899330456E-01;-1.421370796753157E-03;-9.667261033332425E-04;
7.202202202202202E+07;3.441648830466787E-01;8.286235997229662E-01;-1.445503261668344E-03;-9.586998738354128E-04;3.441648830466787E-01;8.286235997229662E-01;-1.445503261668344E-03;-9.586998738354128E-04;
7.227227227227227E+07;3.462125961869051E-01;8.266684206239437E-01;-1.444013536249377E-03;-1.016113850858242E-03;3.462125961869051E-01;8.266684206239437E-01;-1.444013536249377E-03;-1.016113850858242E-03;
7.252252252252252E+07;3.482281136610316E-01;8.249264628024433E-01;-1.449974062520376E-03;-1.035446491183188E-03;3.482281136610316E-01;8.249264628024433E-01;-1.449974062520376E-03;-1.035446491183188E-03;
7.277277277277277E+07;3.508871832039453E-01;8.225026220591639E-01;-1.472674089508979E-03;-1.132116696806431E-03;3.508871832039453E-01;8.225026220591639E-01;-1.472674089508979E-03;-1.132116696806431E-03;
7.302302302302302E+07;3.541128401476746E-01;8.200992170876611E-01;-1.494672507430369E-03;-1.131249619949970E-03;3.541128401476746E-01;8.200992170876611E-01;-1.494672507430369E-03;-1.131249619949970E-03;
7.327327327327327E+07;3.577829802362970E-01;8.172152516109561E-01;-1.483368564222529E-03;-1.161068343047483E-03;3.577829802362970E-01;8.172152516109561E-01;-1.483368564222529E-03;-1.161068343047483E-03;
7.352352352352352E+07;3.617924996829817E-01;8.142394119473635E-01;-1.492280774592026E-03;-1.186691022382973E-03;3.617924996829817E-01;8.142394119473635E-01;-1.492280774592026E-03;-1.186691022382973E-03;
7.377377377377377E+07;3.660239858220786E-01;8.114115758009657E-01;-1.506837306997200E-03;-1.201500463240428E-03;3.660239858220786E-01;8.114115758009657E-01;-1.506837306997200E-03;-1.201500463240428E-03;
7.402402402402402E+07;3.700595054326517E-01;8.084018105542460E-01;-1.547388607619949E-03;-1.300769908880693E-03;3.700595054326517E-01;8.084018105542460E-01;-1.547388607619949E-03;-1.300769908880693E-03;
