# Version 1.00
#
# Ref Impedances: Z01: 50, Z02: 50
# 
freq[Hz];re:SMag2_S11;im:SMag2_S11;re:ZPh2_S12;im:ZPh2_S12;re:SPh2_S11;im:SPh2_S11;re:ZMag2_S12;im:ZMag2_S12;
5.000000000000000E+07;5.358368848574091E-01;7.479909130392109E-01;1.062353592696575E-03;-5.288714157153440E-03;5.358368848574091E-01;7.479909130392109E-01;1.062353592696575E-03;-5.288714157153440E-03;
5.025025025025025E+07;5.299771760325337E-01;7.384040299463583E-01;4.434400004840926E-04;-5.911467330841430E-03;5.299771760325337E-01;7.384040299463583E-01;4.434400004840926E-04;-5.911467330841430E-03;
5.050050050050050E+07;5.188785329028262E-01;7.267799315484673E-01;-6.189135192920081E-04;-6.409203750742973E-03;5.188785329028262E-01;7.267799315484673E-01;-6.189135192920081E-04;-6.409203750742973E-03;
5.075075075075075E+07;5.001070893003612E-01;7.156411092101344E-01;-1.956382437955106E-03;-6.644392555063171E-03;5.001070893003612E-01;7.156411092101344E-01;-1.956382437955106E-03;-6.644392555063171E-03;
5.100100100100100E+07;4.736448535882541E-01;7.103018527085584E-01;-3.503068428150114E-03;-6.315909196587108E-03;4.736448535882541E-01;7.103018527085584E-01;-3.503068428150114E-03;-6.315909196587108E-03;
5.125125125125125E+07;4.434411389537735E-01;7.161584495011426E-01;-4.904418682520262E-03;-5.244821390711808E-03;4.434411389537735E-01;7.161584495011426E-01;-4.904418682520262E-03;-5.244821390711808E-03;
5.150150150150150E+07;4.178075936394023E-01;7.328153558748975E-01;-5.598776511161026E-03;-3.747312637935065E-03;4.178075936394023E-01;7.328153558748975E-01;-5.598776511161026E-03;-3.747312637935065E-03;
5.175175175175175E+07;4.016979032771902E-01;7.549897869729628E-01;-5.637041997731590E-03;-2.327193334966885E-03;4.016979032771902E-01;7.549897869729628E-01;-5.637041997731590E-03;-2.327193334966885E-03;
5.200200200200200E+07;3.929463956916145E-01;7.764155337311260E-01;-5.182862378518270E-03;-1.086558878449813E-03;3.929463956916145E-01;7.764155337311260E-01;-5.182862378518270E-03;-1.086558878449813E-03;
5.225225225225225E+07;3.906042062926296E-01;7.942580738429481E-01;-4.529894701798094E-03;-2.830421283198593E-04;3.906042062926296E-01;7.942580738429481E-01;-4.529894701798094E-03;-2.830421283198593E-04;
5.250250250250250E+07;3.900166837954924E-01;8.077231284508761E-01;-3.988334985042754E-03;1.300027597220384E-04;3.900166837954924E-01;8.077231284508761E-01;-3.988334985042754E-03;1.300027597220384E-04;
5.275275275275275E+07;3.902657939431156E-01;8.179983906165470E-01;-3.434931430750110E-03;3.461763988859032E-04;3.902657939431156E-01;8.179983906165470E-01;-3.434931430750110E-03;3.461763988859032E-04;
5.300300300300300E+07;3.902771492162057E-01;8.266995560874213E-01;-2.999583700378008E-03;4.835566616339812E-04;3.902771492162057E-01;8.266995560874213E-01;-2.999583700378008E-03;4.835566616339812E-04;
5.325325325325325E+07;3.899815236617074E-01;8.327610224780914E-01;-2.641600680146342E-03;5.489453465585944E-04;3.899815236617074E-01;8.327610224780914E-01;-2.641600680146342E-03;5.489453465585944E-04;
5.350350350350350E+07;3.891277250418655E-01;8.381628070152888E-01;-2.335876323116241E-03;5.150711404378224E-04;3.891277250418655E-01;8.381628070152888E-01;-2.335876323116241E-03;5.150711404378224E-04;
5.375375375375375E+07;3.875498759202397E-01;8.423586991433870E-01;-2.119063302434040E-03;5.179616151898198E-04;3.875498759202397E-01;8.423586991433870E-01;-2.119063302434040E-03;5.179616151898198E-04;
5.400400400400400E+07;3.857405954972591E-01;8.464479289437887E-01;-1.915830974165003E-03;4.822735176330809E-04;3.857405954972591E-01;8.464479289437887E-01;-1.915830974165003E-03;4.822735176330809E-04;
5.425425425425425E+07;3.832860333947284E-01;8.496939092798759E-01;-1.706470492647500E-03;4.804059558744730E-04;3.832860333947284E-01;8.496939092798759E-01;-1.706470492647500E-03;4.804059558744730E-04;
5.450450450450450E+07;3.805479279984245E-01;8.527331564094747E-01;-1.614945608872806E-03;3.916061688674933E-04;3.805479279984245E-01;8.527331564094747E-01;-1.614945608872806E-03;3.916061688674933E-04;
5.475475475475475E+07;3.775277657483043E-01;8.556045217385014E-01;-1.412838408276015E-03;4.153910888926476E-04;3.775277657483043E-01;8.556045217385014E-01;-1.412838408276015E-03;4.153910888926476E-04;
5.500500500500500E+07;3.739707267455590E-01;8.581832148601218E-01;-1.321963940084364E-03;3.584917919680695E-04;3.739707267455590E-01;8.581832148601218E-01;-1.321963940084364E-03;3.584917919680695E-04;
5.525525525525525E+07;3.704776525397653E-01;8.606980574266806E-01;-1.296523918111001E-03;3.229597539832252E-04;3.704776525397653E-01;8.606980574266806E-01;-1.296523918111001E-03;3.229597539832252E-04;
5.550550550550550E+07;3.662075754807694E-01;8.630968754550294E-01;-1.218313231410457E-03;3.104547027908145E-04;3.662075754807694E-01;8.630968754550294E-01;-1.218313231410457E-03;3.104547027908145E-04;
5.575575575575575E+07;3.626063588348672E-01;8.652987415795472E-01;-1.164265783304564E-03;3.009942749327367E-04;3.626063588348672E-01;8.652987415795472E-01;-1.164265783304564E-03;3.009942749327367E-04;
5.600600600600600E+07;3.582548315337130E-01;8.675570711426432E-01;-1.109537967990973E-03;2.538547676168961E-04;3.582548315337130E-01;8.675570711426432E-01;-1.109537967990973E-03;2.538547676168961E-04;
5.625625625625625E+07;3.541432833950974E-01;8.696684111912877E-01;-1.068125754476909E-03;2.371118658385105E-04;3.541432833950974E-01;8.696684111912877E-01;-1.068125754476909E-03;2.371118658385105E-04;
5.650650650650650E+07;3.496519146562421E-01;8.715247576937964E-01;-1.025963539528160E-03;2.210455902531027E-04;3.496519146562421E-01;8.715247576937964E-01;-1.025963539528160E-03;2.210455902531027E-04;
5.675675675675675E+07;3.452809600147427E-01;8.735675133016751E-01;-9.479286040985057E-04;1.901773532492598E-04;3.452809600147427E-01;8.735675133016751E-01;-9.479286040985057E-04;1.901773532492598E-04;
5.700700700700700E+07;3.408143534316920E-01;8.754136333364797E-01;-9.545441425883203E-04;1.558961237161325E-04;3.408143534316920E-01;8.754136333364797E-01;-9.545441425883203E-04;1.558961237161325E-04;
5.725725725725726E+07;3.362625874586161E-01;8.773459522418399E-01;-8.785836907511759E-04;1.460587554276951E-04;3.362625874586161E-01;8.773459522418399E-01;-8.785836907511759E-04;1.460587554276951E-04;
5.750750750750751E+07;3.316391462599767E-01;8.791982166694946E-01;-8.742561744918841E-04;1.473911834263642E-04;3.316391462599767E-01;8.791982166694946E-01;-8.742561744918841E-04;1.473911834263642E-04;
5.775775775775776E+07;3.269600370668821E-01;8.809506556059468E-01;-8.193322314846917E-04;1.186968118908035E-04;3.269600370668821E-01;8.809506556059468E-01;-8.193322314846917E-04;1.186968118908035E-04;
5.800800800800801E+07;3.225768958868913E-01;8.826446667532730E-01;-7.957997838808656E-04;1.314296781624853E-04;3.225768958868913E-01;8.826446667532730E-01;-7.957997838808656E-04;1.314296781624853E-04;
5.825825825825826E+07;3.177316173642001E-01;8.840073488528986E-01;-8.033745889085220E-04;7.260129091518984E-05;3.177316173642001E-01;8.840073488528986E-01;-8.033745889085220E-04;7.260129091518984E-05;
5.850850850850851E+07;3.130960910199378E-01;8.855610269862223E-01;-7.697042144859296E-04;2.136276738626990E-05;3.130960910199378E-01;8.855610269862223E-01;-7.697042144859296E-04;2.136276738626990E-05;
5.875875875875876E+07;3.084315264653245E-01;8.868284109371235E-01;-7.246130209023737E-04;3.504580807065040E-05;3.084315264653245E-01;8.868284109371235E-01;-7.246130209023737E-04;3.504580807065040E-05;
5.900900900900901E+07;3.034455301149672E-01;8.880860410587059E-01;-7.419643188651154E-04;1.131175063816936E-05;3.034455301149672E-01;8.880860410587059E-01;-7.419643188651154E-04;1.131175063816936E-05;
5.925925925925926E+07;2.986528025035596E-01;8.894121032381072E-01;-7.024968551959893E-04;-1.391331718524617E-05;2.986528025035596E-01;8.894121032381072E-01;-7.024968551959893E-04;-1.391331718524617E-05;
5.950950950950951E+07;2.938619857465437E-01;8.905355929262461E-01;-7.164046575640395E-04;-8.722676427262998E-07;2.938619857465437E-01;8.905355929262461E-01;-7.164046575640395E-04;-8.722676427262998E-07;
5.975975975975976E+07;2.889180778654962E-01;8.917698501415581E-01;-7.206396436213162E-04;1.210208692203348E-05;2.889180778654962E-01;8.917698501415581E-01;-7.206396436213162E-04;1.210208692203348E-05;
6.001001001001001E+07;2.840414499794902E-01;8.930204103903813E-01;-6.838041404433656E-04;-2.328028969509330E-05;2.840414499794902E-01;8.930204103903813E-01;-6.838041404433656E-04;-2.328028969509330E-05;
6.026026026026026E+07;2.793736198642459E-01;8.945095847875728E-01;-6.848459554438878E-04;-2.577865015858129E-05;2.793736198642459E-01;8.945095847875728E-01;-6.848459554438878E-04;-2.577865015858129E-05;
6.051051051051051E+07;2.746995759723068E-01;8.961212157299046E-01;-6.711382394537884E-04;-2.979811634767085E-05;2.746995759723068E-01;8.961212157299046E-01;-6.711382394537884E-04;-2.979811634767085E-05;
6.076076076076076E+07;2.701914109984699E-01;8.975345321300151E-01;-6.389508037956875E-04;-9.490474341004349E-06;2.701914109984699E-01;8.975345321300151E-01;-6.389508037956875E-04;-9.490474341004349E-06;
6.101101101101101E+07;2.656960024521639E-01;8.990739661123727E-01;-6.507816836394744E-04;-4.489466022019649E-05;2.656960024521639E-01;8.990739661123727E-01;-6.507816836394744E-04;-4.489466022019649E-05;
6.126126126126126E+07;2.615561404757012E-01;9.003339862048689E-01;-6.564254551602389E-04;-5.664771544628842E-05;2.615561404757012E-01;9.003339862048689E-01;-6.564254551602389E-04;-5.664771544628842E-05;
6.151151151151151E+07;2.573915621854381E-01;9.015917219386821E-01;-6.009012990581750E-04;-6.156367837836285E-05;2.573915621854381E-01;9.015917219386821E-01;-6.009012990581750E-04;-6.156367837836285E-05;
6.176176176176176E+07;2.529483359766847E-01;9.026984205783274E-01;-5.906254196695244E-04;-5.833873045765639E-05;2.529483359766847E-01;9.026984205783274E-01;-5.906254196695244E-04;-5.833873045765639E-05;
6.201201201201201E+07;2.489091311483332E-01;9.038587383184209E-01;-5.362635017486731E-04;-7.692466968215586E-05;2.489091311483332E-01;9.038587383184209E-01;-5.362635017486731E-04;-7.692466968215586E-05;
6.226226226226226E+07;2.447581647470672E-01;9.048599188070724E-01;-5.902698101804887E-04;-6.633766368583502E-05;2.447581647470672E-01;9.048599188070724E-01;-5.902698101804887E-04;-6.633766368583502E-05;
6.251251251251251E+07;2.407194287920905E-01;9.058508400486148E-01;-5.725956632821820E-04;-9.697326403599224E-05;2.407194287920905E-01;9.058508400486148E-01;-5.725956632821820E-04;-9.697326403599224E-05;
6.276276276276276E+07;2.367773741221387E-01;9.066740541287369E-01;-5.687767460683162E-04;-1.493944447873209E-04;2.367773741221387E-01;9.066740541287369E-01;-5.687767460683162E-04;-1.493944447873209E-04;
6.301301301301301E+07;2.327896861762526E-01;9.075051485137589E-01;-5.405974686706155E-04;-1.392970086190933E-04;2.327896861762526E-01;9.075051485137589E-01;-5.405974686706155E-04;-1.392970086190933E-04;
6.326326326326326E+07;2.288841071120991E-01;9.083677885870263E-01;-5.787731058676399E-04;-1.089630860195996E-04;2.288841071120991E-01;9.083677885870263E-01;-5.787731058676399E-04;-1.089630860195996E-04;
6.351351351351351E+07;2.249770070065878E-01;9.089913067386745E-01;-6.182844175385293E-04;-9.699594427356486E-05;2.249770070065878E-01;9.089913067386745E-01;-6.182844175385293E-04;-9.699594427356486E-05;
6.376376376376376E+07;2.210883451137914E-01;9.098134272376652E-01;-5.394837697169620E-04;-1.225378381906835E-04;2.210883451137914E-01;9.098134272376652E-01;-5.394837697169620E-04;-1.225378381906835E-04;
6.401401401401401E+07;2.172433595913730E-01;9.105770514220531E-01;-5.438575696139609E-04;-1.427270773637416E-04;2.172433595913730E-01;9.105770514220531E-01;-5.438575696139609E-04;-1.427270773637416E-04;
6.426426426426426E+07;2.134153471829720E-01;9.111960248437533E-01;-5.204408510196629E-04;-1.592790092839323E-04;2.134153471829720E-01;9.111960248437533E-01;-5.204408510196629E-04;-1.592790092839323E-04;
6.451451451451451E+07;2.095853779488104E-01;9.119407810485347E-01;-5.109908402271502E-04;-1.519026166410073E-04;2.095853779488104E-01;9.119407810485347E-01;-5.109908402271502E-04;-1.519026166410073E-04;
6.476476476476476E+07;2.059837690568516E-01;9.126347274110659E-01;-4.925556459790629E-04;-1.564432720897287E-04;2.059837690568516E-01;9.126347274110659E-01;-4.925556459790629E-04;-1.564432720897287E-04;
6.501501501501501E+07;2.024541088066134E-01;9.131941897311597E-01;-5.103642892724370E-04;-1.832841015629612E-04;2.024541088066134E-01;9.131941897311597E-01;-5.103642892724370E-04;-1.832841015629612E-04;
6.526526526526526E+07;1.989242590581350E-01;9.137871233107258E-01;-5.031475004894139E-04;-1.771807208313508E-04;1.989242590581350E-01;9.137871233107258E-01;-5.031475004894139E-04;-1.771807208313508E-04;
6.551551551551551E+07;1.954616204411919E-01;9.142832780008024E-01;-4.707453975802476E-04;-2.133120544861262E-04;1.954616204411919E-01;9.142832780008024E-01;-4.707453975802476E-04;-2.133120544861262E-04;
6.576576576576576E+07;1.940140566736787E-01;9.155567941102820E-01;-5.063657339914769E-04;-1.721024050446409E-04;1.940140566736787E-01;9.155567941102820E-01;-5.063657339914769E-04;-1.721024050446409E-04;
6.601601601601601E+07;1.906258384758995E-01;9.158654705115936E-01;-5.026701337102418E-04;-1.863098288269022E-04;1.906258384758995E-01;9.158654705115936E-01;-5.026701337102418E-04;-1.863098288269022E-04;
6.626626626626626E+07;1.871177089396603E-01;9.163728566412508E-01;-4.450839022453928E-04;-2.062795084097718E-04;1.871177089396603E-01;9.163728566412508E-01;-4.450839022453928E-04;-2.062795084097718E-04;
6.651651651651651E+07;1.834184531875871E-01;9.168487255067758E-01;-4.829589314811940E-04;-2.272927404122855E-04;1.834184531875871E-01;9.168487255067758E-01;-4.829589314811940E-04;-2.272927404122855E-04;
6.676676676676676E+07;1.796263246181834E-01;9.173773689085284E-01;-4.978123946751441E-04;-2.073419401443809E-04;1.796263246181834E-01;9.173773689085284E-01;-4.978123946751441E-04;-2.073419401443809E-04;
6.701701701701702E+07;1.772968417804987E-01;9.172849277657547E-01;-4.636803931513093E-04;-2.449127097575417E-04;1.772968417804987E-01;9.172849277657547E-01;-4.636803931513093E-04;-2.449127097575417E-04;
6.726726726726727E+07;1.736738681300763E-01;9.179311710937751E-01;-4.414515391728619E-04;-2.032336022544456E-04;1.736738681300763E-01;9.179311710937751E-01;-4.414515391728619E-04;-2.032336022544456E-04;
6.751751751751752E+07;1.701019809427833E-01;9.184076137992341E-01;-4.617270488242910E-04;-2.222321601009970E-04;1.701019809427833E-01;9.184076137992341E-01;-4.617270488242910E-04;-2.222321601009970E-04;
6.776776776776777E+07;1.663059305611713E-01;9.190005455588162E-01;-4.716196168885474E-04;-2.260303756204481E-04;1.663059305611713E-01;9.190005455588162E-01;-4.716196168885474E-04;-2.260303756204481E-04;
6.801801801801802E+07;1.624850231631261E-01;9.196979149141835E-01;-4.811672999945534E-04;-2.596739617132853E-04;1.624850231631261E-01;9.196979149141835E-01;-4.811672999945534E-04;-2.596739617132853E-04;
6.826826826826827E+07;1.587388593767512E-01;9.202592633033990E-01;-4.840132216389534E-04;-2.360721376692688E-04;1.587388593767512E-01;9.202592633033990E-01;-4.840132216389534E-04;-2.360721376692688E-04;
6.851851851851852E+07;1.554032118719409E-01;9.208143601884226E-01;-4.323080208373441E-04;-2.692979106696847E-04;1.554032118719409E-01;9.208143601884226E-01;-4.323080208373441E-04;-2.692979106696847E-04;
6.876876876876877E+07;1.531943550102728E-01;9.203867942258999E-01;-4.397264736694893E-04;-2.741109877162968E-04;1.531943550102728E-01;9.203867942258999E-01;-4.397264736694893E-04;-2.741109877162968E-04;
6.901901901901902E+07;1.511314850797209E-01;9.202699734467994E-01;-4.368835220269293E-04;-2.341041668598502E-04;1.511314850797209E-01;9.202699734467994E-01;-4.368835220269293E-04;-2.341041668598502E-04;
6.926926926926927E+07;1.495877681136702E-01;9.199731759424700E-01;-3.855791390610465E-04;-2.868809572112217E-04;1.495877681136702E-01;9.199731759424700E-01;-3.855791390610465E-04;-2.868809572112217E-04;
6.951951951951952E+07;1.480906049330974E-01;9.195674972866569E-01;-4.258716184726953E-04;-3.066365836075941E-04;1.480906049330974E-01;9.195674972866569E-01;-4.258716184726953E-04;-3.066365836075941E-04;
6.976976976976977E+07;1.466517857562903E-01;9.192745611231947E-01;-3.988188897576773E-04;-3.327256542668880E-04;1.466517857562903E-01;9.192745611231947E-01;-3.988188897576773E-04;-3.327256542668880E-04;
7.002002002002002E+07;1.449502432191438E-01;9.189507114375611E-01;-4.263040612555989E-04;-3.196484930988184E-04;1.449502432191438E-01;9.189507114375611E-01;-4.263040612555989E-04;-3.196484930988184E-04;
7.027027027027027E+07;1.430793962301453E-01;9.185960734734494E-01;-4.010846244325895E-04;-3.219609682510280E-04;1.430793962301453E-01;9.185960734734494E-01;-4.010846244325895E-04;-3.219609682510280E-04;
7.052052052052052E+07;1.408349414533149E-01;9.186268002829359E-01;-3.950370162192833E-04;-3.580278630221167E-04;1.408349414533149E-01;9.186268002829359E-01;-3.950370162192833E-04;-3.580278630221167E-04;
7.077077077077077E+07;1.384871648208352E-01;9.184905806553118E-01;-4.147089499178076E-04;-3.130863121382934E-04;1.384871648208352E-01;9.184905806553118E-01;-4.147089499178076E-04;-3.130863121382934E-04;
7.102102102102102E+07;1.361078566721293E-01;9.184737436738198E-01;-4.007805205817372E-04;-3.404360023756137E-04;1.361078566721293E-01;9.184737436738198E-01;-4.007805205817372E-04;-3.404360023756137E-04;
7.127127127127127E+07;1.336168665087242E-01;9.183726340943406E-01;-3.855533043713883E-04;-3.355324464639398E-04;1.336168665087242E-01;9.183726340943406E-01;-3.855533043713883E-04;-3.355324464639398E-04;
7.152152152152152E+07;1.310306340753903E-01;9.184831155994231E-01;-3.384157427854045E-04;-3.803899960369584E-04;1.310306340753903E-01;9.184831155994231E-01;-3.384157427854045E-04;-3.803899960369584E-04;
7.177177177177177E+07;1.281995466642361E-01;9.185447958707603E-01;-3.929683805615655E-04;-4.008095518082766E-04;1.281995466642361E-01;9.185447958707603E-01;-3.929683805615655E-04;-4.008095518082766E-04;
7.202202202202202E+07;1.250937127288476E-01;9.189029235222345E-01;-3.807789778269352E-04;-4.038625392423881E-04;1.250937127288476E-01;9.189029235222345E-01;-3.807789778269352E-04;-4.038625392423881E-04;
7.227227227227227E+07;1.223763636055600E-01;9.190599760135097E-01;-3.551470911539900E-04;-3.744182506601209E-04;1.223763636055600E-01;9.190599760135097E-01;-3.551470911539900E-04;-3.744182506601209E-04;
7.252252252252252E+07;1.200572684530879E-01;9.188431304024770E-01;-3.998061881602335E-04;-4.045543890745266E-04;1.200572684530879E-01;9.188431304024770E-01;-3.998061881602335E-04;-4.045543890745266E-04;
7.277277277277277E+07;1.181061935114366E-01;9.188794517106312E-01;-3.669552958363276E-04;-4.273466121103956E-04;1.181061935114366E-01;9.188794517106312E-01;-3.669552958363276E-04;-4.273466121103956E-04;
7.302302302302302E+07;1.166750078898922E-01;9.187564955075335E-01;-3.549030773681617E-04;-4.483815727948431E-04;1.166750078898922E-01;9.187564955075335E-01;-3.549030773681617E-04;-4.483815727948431E-04;
7.327327327327327E+07;1.158125229025608E-01;9.181751365903384E-01;-3.569640308898036E-04;-4.223580297035611E-04;1.158125229025608E-01;9.181751365903384E-01;-3.569640308898036E-04;-4.223580297035611E-04;
7.352352352352352E+07;1.149255789788707E-01;9.178044328971012E-01;-3.825055246823039E-04;-4.612635779444264E-04;1.149255789788707E-01;9.178044328971012E-01;-3.825055246823039E-04;-4.612635779444264E-04;
7.377377377377377E+07;1.141228089608322E-01;9.175703824699122E-01;-3.501938623995779E-04;-4.488674106753007E-04;1.141228089608322E-01;9.175703824699122E-01;-3.501938623995779E-04;-4.488674106753007E-04;
7.402402402402402E+07;1.132134260949576E-01;9.170220321047328E-01;-3.601044685237728E-04;-4.591274692718159E-04;1.132134260949576E-01;9.170220321047328E-01;-3.601044685237728E-04;-4.591274692718159E-04;
