# Version 1.00
#
# Ref Impedances: Z01: 50, Z02: 50
# 
freq[Hz];re:ZMag1_S12;im:ZMag1_S12;re:SMag1_S11;im:SMag1_S11;re:ZPh1_S12;im:ZPh1_S12;re:SPh1_S11;im:SPh1_S11;
5.000000000000000E+07;-2.600907658918081E-03;-7.351166451599236E-03;5.907331277413580E-01;5.651031401688815E-01;-2.600907658918081E-03;-7.351166451599236E-03;5.907331277413580E-01;5.651031401688815E-01;
5.025025025025025E+07;-3.689243447075727E-03;-7.265969425340979E-03;5.649917618595417E-01;5.477036449524428E-01;-3.689243447075727E-03;-7.265969425340979E-03;5.649917618595417E-01;5.477036449524428E-01;
5.050050050050050E+07;-4.730992224275364E-03;-6.939379996241721E-03;5.308523273866547E-01;5.352566352971383E-01;-4.730992224275364E-03;-6.939379996241721E-03;5.308523273866547E-01;5.352566352971383E-01;
5.075075075075075E+07;-5.739970028662289E-03;-6.300967093934686E-03;4.907532283139818E-01;5.319312969763293E-01;-5.739970028662289E-03;-6.300967093934686E-03;4.907532283139818E-01;5.319312969763293E-01;
5.100100100100100E+07;-6.616933932327789E-03;-5.376007473677783E-03;4.486042085438592E-01;5.400755947276269E-01;-6.616933932327789E-03;-5.376007473677783E-03;4.486042085438592E-01;5.400755947276269E-01;
5.125125125125125E+07;-7.117096227042992E-03;-4.317068758220527E-03;4.096068865829607E-01;5.596269348526219E-01;-7.117096227042992E-03;-4.317068758220527E-03;4.096068865829607E-01;5.596269348526219E-01;
5.150150150150150E+07;-7.331026172975095E-03;-3.162841261582645E-03;3.774379289690428E-01;5.880427878549385E-01;-7.331026172975095E-03;-3.162841261582645E-03;3.774379289690428E-01;5.880427878549385E-01;
5.175175175175175E+07;-7.239589959971413E-03;-2.096331356690954E-03;3.547109798343752E-01;6.218699504068208E-01;-7.239589959971413E-03;-2.096331356690954E-03;3.547109798343752E-01;6.218699504068208E-01;
5.200200200200200E+07;-6.909325325345005E-03;-1.175162005153785E-03;3.415999872369596E-01;6.561185248966476E-01;-6.909325325345005E-03;-1.175162005153785E-03;3.415999872369596E-01;6.561185248966476E-01;
5.225225225225225E+07;-6.476492433948414E-03;-4.720520952123845E-04;3.365569956264812E-01;6.881245074875068E-01;-6.476492433948414E-03;-4.720520952123845E-04;3.365569956264812E-01;6.881245074875068E-01;
5.250250250250250E+07;-5.974358018109061E-03;7.309312940007166E-05;3.373680012471903E-01;7.152054887816519E-01;-5.974358018109061E-03;7.309312940007166E-05;3.373680012471903E-01;7.152054887816519E-01;
5.275275275275275E+07;-5.445887416893841E-03;4.218468229787724E-04;3.413324600586323E-01;7.374907722485295E-01;-5.445887416893841E-03;4.218468229787724E-04;3.413324600586323E-01;7.374907722485295E-01;
5.300300300300300E+07;-4.976717855184135E-03;6.710728360677981E-04;3.467882171946196E-01;7.551084488238315E-01;-4.976717855184135E-03;6.710728360677981E-04;3.467882171946196E-01;7.551084488238315E-01;
5.325325325325325E+07;-4.553762424215797E-03;8.184804271364172E-04;3.525904724597685E-01;7.689340517483257E-01;-4.553762424215797E-03;8.184804271364172E-04;3.525904724597685E-01;7.689340517483257E-01;
5.350350350350350E+07;-4.176237108220572E-03;8.906955499860909E-04;3.579277390145393E-01;7.797652288937925E-01;-4.176237108220572E-03;8.906955499860909E-04;3.579277390145393E-01;7.797652288937925E-01;
5.375375375375375E+07;-3.853507956880456E-03;9.128550688521102E-04;3.626836266193873E-01;7.883708027457915E-01;-3.853507956880456E-03;9.128550688521102E-04;3.626836266193873E-01;7.883708027457915E-01;
5.400400400400400E+07;-3.565079341335120E-03;9.274054097560011E-04;3.662539346904682E-01;7.954280487089870E-01;-3.565079341335120E-03;9.274054097560011E-04;3.662539346904682E-01;7.954280487089870E-01;
5.425425425425425E+07;-3.331001488459321E-03;8.996768810760195E-04;3.691657988643653E-01;8.012887071783247E-01;-3.331001488459321E-03;8.996768810760195E-04;3.691657988643653E-01;8.012887071783247E-01;
5.450450450450450E+07;-3.131156208810632E-03;8.962708002665652E-04;3.713946299154589E-01;8.063094781714949E-01;-3.131156208810632E-03;8.962708002665652E-04;3.713946299154589E-01;8.063094781714949E-01;
5.475475475475475E+07;-2.949224024231494E-03;8.639081636879528E-04;3.732158324696969E-01;8.107618308602069E-01;-2.949224024231494E-03;8.639081636879528E-04;3.732158324696969E-01;8.107618308602069E-01;
5.500500500500500E+07;-2.789769926176064E-03;8.198642443245007E-04;3.746211935848819E-01;8.146048635124851E-01;-2.789769926176064E-03;8.198642443245007E-04;3.746211935848819E-01;8.146048635124851E-01;
5.525525525525525E+07;-2.638960705170572E-03;7.962962527485206E-04;3.756560593050496E-01;8.180036754859127E-01;-2.638960705170572E-03;7.962962527485206E-04;3.756560593050496E-01;8.180036754859127E-01;
5.550550550550550E+07;-2.507858137891057E-03;7.600820759966293E-04;3.762763455760479E-01;8.209658295492476E-01;-2.507858137891057E-03;7.600820759966293E-04;3.762763455760479E-01;8.209658295492476E-01;
5.575575575575575E+07;-2.404315057415118E-03;7.158763011421928E-04;3.765610607020692E-01;8.233182716419075E-01;-2.404315057415118E-03;7.158763011421928E-04;3.765610607020692E-01;8.233182716419075E-01;
5.600600600600600E+07;-2.306338909094811E-03;6.760191247437542E-04;3.766463687235046E-01;8.254877909753143E-01;-2.306338909094811E-03;6.760191247437542E-04;3.766463687235046E-01;8.254877909753143E-01;
5.625625625625625E+07;-2.215604355330877E-03;6.257831365702565E-04;3.764752704760629E-01;8.271212823654207E-01;-2.215604355330877E-03;6.257831365702565E-04;3.764752704760629E-01;8.271212823654207E-01;
5.650650650650650E+07;-2.138158876744967E-03;5.855817642763115E-04;3.758338065585731E-01;8.285705174346849E-01;-2.138158876744967E-03;5.855817642763115E-04;3.758338065585731E-01;8.285705174346849E-01;
5.675675675675675E+07;-2.058827779157738E-03;5.362644095287557E-04;3.749916476476435E-01;8.297722686293341E-01;-2.058827779157738E-03;5.362644095287557E-04;3.749916476476435E-01;8.297722686293341E-01;
5.700700700700700E+07;-2.002948694647148E-03;5.050960395372762E-04;3.738798577602303E-01;8.307568599008345E-01;-2.002948694647148E-03;5.050960395372762E-04;3.738798577602303E-01;8.307568599008345E-01;
5.725725725725726E+07;-1.954558449430883E-03;4.473450412806669E-04;3.722813216242637E-01;8.315920358139481E-01;-1.954558449430883E-03;4.473450412806669E-04;3.722813216242637E-01;8.315920358139481E-01;
5.750750750750751E+07;-1.913953532371357E-03;4.048434551138817E-04;3.703209822166467E-01;8.324661883897537E-01;-1.913953532371357E-03;4.048434551138817E-04;3.703209822166467E-01;8.324661883897537E-01;
5.775775775775776E+07;-1.852767901679574E-03;3.770197953984117E-04;3.683444342000338E-01;8.329956129792296E-01;-1.852767901679574E-03;3.770197953984117E-04;3.683444342000338E-01;8.329956129792296E-01;
5.800800800800801E+07;-1.808661686609081E-03;3.130515256534942E-04;3.717824019605927E-01;8.308658480744332E-01;-1.808661686609081E-03;3.130515256534942E-04;3.717824019605927E-01;8.308658480744332E-01;
5.825825825825826E+07;-1.765612013281778E-03;2.874701913323467E-04;3.693634101399852E-01;8.313120757514401E-01;-1.765612013281778E-03;2.874701913323467E-04;3.693634101399852E-01;8.313120757514401E-01;
5.850850850850851E+07;-1.743556549806751E-03;2.584347211724162E-04;3.668282651975824E-01;8.317898159571304E-01;-1.743556549806751E-03;2.584347211724162E-04;3.668282651975824E-01;8.317898159571304E-01;
5.875875875875876E+07;-1.729794952573650E-03;2.079455598051344E-04;3.642872686809390E-01;8.319344599263199E-01;-1.729794952573650E-03;2.079455598051344E-04;3.642872686809390E-01;8.319344599263199E-01;
5.900900900900901E+07;-1.682031336273986E-03;1.793910901583331E-04;3.612924054294218E-01;8.323096110000916E-01;-1.682031336273986E-03;1.793910901583331E-04;3.612924054294218E-01;8.323096110000916E-01;
5.925925925925926E+07;-1.668634711374842E-03;1.402695987205409E-04;3.581614739186564E-01;8.324876547444408E-01;-1.668634711374842E-03;1.402695987205409E-04;3.581614739186564E-01;8.324876547444408E-01;
5.950950950950951E+07;-1.646043650425119E-03;1.106592971082943E-04;3.548214494369297E-01;8.330724315975971E-01;-1.646043650425119E-03;1.106592971082943E-04;3.548214494369297E-01;8.330724315975971E-01;
5.975975975975976E+07;-1.621179023468709E-03;9.183235295732115E-05;3.512494724826664E-01;8.338639638949472E-01;-1.621179023468709E-03;9.183235295732115E-05;3.512494724826664E-01;8.338639638949472E-01;
6.001001001001001E+07;-1.628698245784008E-03;6.107402570092795E-05;3.477637757306988E-01;8.348189412883142E-01;-1.628698245784008E-03;6.107402570092795E-05;3.477637757306988E-01;8.348189412883142E-01;
6.026026026026026E+07;-1.615665348847240E-03;3.443978553754974E-05;3.444723382284475E-01;8.360501207025096E-01;-1.615665348847240E-03;3.443978553754974E-05;3.444723382284475E-01;8.360501207025096E-01;
6.051051051051051E+07;-1.611757050035161E-03;2.300978389195714E-08;3.414136015410880E-01;8.374699672816506E-01;-1.611757050035161E-03;2.300978389195714E-08;3.414136015410880E-01;8.374699672816506E-01;
6.076076076076076E+07;-1.599291089923125E-03;-1.361001589951341E-05;3.385924999197364E-01;8.391317267771528E-01;-1.599291089923125E-03;-1.361001589951341E-05;3.385924999197364E-01;8.391317267771528E-01;
6.101101101101101E+07;-1.601148855143289E-03;-8.193494065299687E-06;3.361680564838244E-01;8.407209404475661E-01;-1.601148855143289E-03;-8.193494065299687E-06;3.361680564838244E-01;8.407209404475661E-01;
6.126126126126126E+07;-1.599928383263430E-03;-4.850630885011730E-05;3.337438604091894E-01;8.422198878231406E-01;-1.599928383263430E-03;-4.850630885011730E-05;3.337438604091894E-01;8.422198878231406E-01;
6.151151151151151E+07;-1.571790788465152E-03;-4.887580851104654E-05;3.318001617865803E-01;8.437776186789693E-01;-1.571790788465152E-03;-4.887580851104654E-05;3.318001617865803E-01;8.437776186789693E-01;
6.176176176176176E+07;-1.575650448414261E-03;-7.651071041325073E-05;3.298835831284873E-01;8.450883222335608E-01;-1.575650448414261E-03;-7.651071041325073E-05;3.298835831284873E-01;8.450883222335608E-01;
6.201201201201201E+07;-1.560693304111023E-03;-7.959145081320121E-05;3.281748826548636E-01;8.462118271480655E-01;-1.560693304111023E-03;-7.959145081320121E-05;3.281748826548636E-01;8.462118271480655E-01;
6.226226226226226E+07;-1.540418937162517E-03;-9.606494152704496E-05;3.265634593674395E-01;8.472082232562879E-01;-1.540418937162517E-03;-9.606494152704496E-05;3.265634593674395E-01;8.472082232562879E-01;
6.251251251251251E+07;-1.548029485943048E-03;-1.193558698232148E-04;3.250815813615821E-01;8.481099384393437E-01;-1.548029485943048E-03;-1.193558698232148E-04;3.250815813615821E-01;8.481099384393437E-01;
6.276276276276276E+07;-1.518469934050637E-03;-1.158334395722358E-04;3.235916243978736E-01;8.490288027968039E-01;-1.518469934050637E-03;-1.158334395722358E-04;3.235916243978736E-01;8.490288027968039E-01;
6.301301301301301E+07;-1.522519470153312E-03;-1.568965727666206E-04;3.221460143098152E-01;8.497021201011451E-01;-1.522519470153312E-03;-1.568965727666206E-04;3.221460143098152E-01;8.497021201011451E-01;
6.326326326326326E+07;-1.502076805312073E-03;-1.574922812584954E-04;3.209274489781090E-01;8.503818562560159E-01;-1.502076805312073E-03;-1.574922812584954E-04;3.209274489781090E-01;8.503818562560159E-01;
6.351351351351351E+07;-1.491581293850629E-03;-1.684025666076442E-04;3.197149562485808E-01;8.510991207721276E-01;-1.491581293850629E-03;-1.684025666076442E-04;3.197149562485808E-01;8.510991207721276E-01;
6.376376376376376E+07;-1.495650414387752E-03;-2.189867918259811E-04;3.185200874862554E-01;8.516482669843495E-01;-1.495650414387752E-03;-2.189867918259811E-04;3.185200874862554E-01;8.516482669843495E-01;
6.401401401401401E+07;-1.467322567002084E-03;-2.334684953268128E-04;3.175947558028210E-01;8.521652410712884E-01;-1.467322567002084E-03;-2.334684953268128E-04;3.175947558028210E-01;8.521652410712884E-01;
6.426426426426426E+07;-1.463620420533414E-03;-2.490556210704813E-04;3.168054774818825E-01;8.526294785385605E-01;-1.463620420533414E-03;-2.490556210704813E-04;3.168054774818825E-01;8.526294785385605E-01;
6.451451451451451E+07;-1.467875452467891E-03;-2.643086335525868E-04;3.161040705426041E-01;8.529341451717412E-01;-1.467875452467891E-03;-2.643086335525868E-04;3.161040705426041E-01;8.529341451717412E-01;
6.476476476476476E+07;-1.454315853348097E-03;-2.713082383036014E-04;3.154602066090484E-01;8.530452972624007E-01;-1.454315853348097E-03;-2.713082383036014E-04;3.154602066090484E-01;8.530452972624007E-01;
6.501501501501501E+07;-1.457209326569638E-03;-2.947280144803946E-04;3.150236963977491E-01;8.531443032990966E-01;-1.457209326569638E-03;-2.947280144803946E-04;3.150236963977491E-01;8.531443032990966E-01;
6.526526526526526E+07;-1.446568176667288E-03;-3.281690755534071E-04;3.145115635423412E-01;8.531362503955491E-01;-1.446568176667288E-03;-3.281690755534071E-04;3.145115635423412E-01;8.531362503955491E-01;
6.551551551551551E+07;-1.451687826787573E-03;-3.422092517053472E-04;3.141513426071526E-01;8.529681366657901E-01;-1.451687826787573E-03;-3.422092517053472E-04;3.141513426071526E-01;8.529681366657901E-01;
6.576576576576576E+07;-1.432452555361724E-03;-3.444438731221048E-04;3.062457631217775E-01;8.562388707017240E-01;-1.432452555361724E-03;-3.444438731221048E-04;3.062457631217775E-01;8.562388707017240E-01;
6.601601601601601E+07;-1.420481900862022E-03;-3.728406109189904E-04;3.060105605819373E-01;8.559268997288255E-01;-1.420481900862022E-03;-3.728406109189904E-04;3.060105605819373E-01;8.559268997288255E-01;
6.626626626626626E+07;-1.441856821684747E-03;-3.859068297041729E-04;3.055510623802788E-01;8.556937666122959E-01;-1.441856821684747E-03;-3.859068297041729E-04;3.055510623802788E-01;8.556937666122959E-01;
6.651651651651651E+07;-1.430104089012721E-03;-4.090315499956411E-04;3.050364811407463E-01;8.554059492691163E-01;-1.430104089012721E-03;-4.090315499956411E-04;3.050364811407463E-01;8.554059492691163E-01;
6.676676676676676E+07;-1.425462428216666E-03;-4.380653279323128E-04;3.045130933849254E-01;8.552774373831719E-01;-1.425462428216666E-03;-4.380653279323128E-04;3.045130933849254E-01;8.552774373831719E-01;
6.701701701701702E+07;-1.407100526838261E-03;-4.625100620797413E-04;3.051250616594147E-01;8.543078740786474E-01;-1.407100526838261E-03;-4.625100620797413E-04;3.051250616594147E-01;8.543078740786474E-01;
6.726726726726727E+07;-1.423018169798905E-03;-4.717287060132042E-04;3.048279988096184E-01;8.540668387706245E-01;-1.423018169798905E-03;-4.717287060132042E-04;3.048279988096184E-01;8.540668387706245E-01;
6.751751751751752E+07;-1.410934726451859E-03;-4.955100903902241E-04;3.044486873551185E-01;8.538672883885702E-01;-1.410934726451859E-03;-4.955100903902241E-04;3.044486873551185E-01;8.538672883885702E-01;
6.776776776776777E+07;-1.411948933900261E-03;-5.199363729904440E-04;3.041126042119471E-01;8.537362057252370E-01;-1.411948933900261E-03;-5.199363729904440E-04;3.041126042119471E-01;8.537362057252370E-01;
6.801801801801802E+07;-1.414319089144671E-03;-5.321675860123192E-04;3.036584237803924E-01;8.536472760811118E-01;-1.414319089144671E-03;-5.321675860123192E-04;3.036584237803924E-01;8.536472760811118E-01;
6.826826826826827E+07;-1.419430847915335E-03;-5.628189452727438E-04;3.033543236556721E-01;8.534745602469709E-01;-1.419430847915335E-03;-5.628189452727438E-04;3.033543236556721E-01;8.534745602469709E-01;
6.851851851851852E+07;-1.425310119601623E-03;-5.809440086564430E-04;3.035426145091205E-01;8.530336632005490E-01;-1.425310119601623E-03;-5.809440086564430E-04;3.035426145091205E-01;8.530336632005490E-01;
6.876876876876877E+07;-1.403668769427072E-03;-6.131656429779993E-04;3.082797767968088E-01;8.514275573834512E-01;-1.403668769427072E-03;-6.131656429779993E-04;3.082797767968088E-01;8.514275573834512E-01;
6.901901901901902E+07;-1.414501046022484E-03;-6.249461553788592E-04;3.095735636914829E-01;8.503149567586219E-01;-1.414501046022484E-03;-6.249461553788592E-04;3.095735636914829E-01;8.503149567586219E-01;
6.926926926926927E+07;-1.397519994181858E-03;-6.667656838949285E-04;3.113628793258180E-01;8.487026286362321E-01;-1.397519994181858E-03;-6.667656838949285E-04;3.113628793258180E-01;8.487026286362321E-01;
6.951951951951952E+07;-1.394905164866194E-03;-7.073504095873956E-04;3.133301078208581E-01;8.471314760070707E-01;-1.394905164866194E-03;-7.073504095873956E-04;3.133301078208581E-01;8.471314760070707E-01;
6.976976976976977E+07;-1.396560208431394E-03;-7.271512766291789E-04;3.153820199823977E-01;8.452795495142919E-01;-1.396560208431394E-03;-7.271512766291789E-04;3.153820199823977E-01;8.452795495142919E-01;
7.002002002002002E+07;-1.392810527771285E-03;-7.616400924683030E-04;3.171819373819917E-01;8.436181478745288E-01;-1.392810527771285E-03;-7.616400924683030E-04;3.171819373819917E-01;8.436181478745288E-01;
7.027027027027027E+07;-1.388006090764411E-03;-7.800423943150115E-04;3.187892801112412E-01;8.420862315314580E-01;-1.388006090764411E-03;-7.800423943150115E-04;3.187892801112412E-01;8.420862315314580E-01;
7.052052052052052E+07;-1.388222415977152E-03;-8.201137720737313E-04;3.202407372925893E-01;8.406437316646814E-01;-1.388222415977152E-03;-8.201137720737313E-04;3.202407372925893E-01;8.406437316646814E-01;
7.077077077077077E+07;-1.388360951071338E-03;-8.389153996363309E-04;3.218234941712132E-01;8.392095836020877E-01;-1.388360951071338E-03;-8.389153996363309E-04;3.218234941712132E-01;8.392095836020877E-01;
7.102102102102102E+07;-1.393690595840715E-03;-8.627011434806602E-04;3.232636335066214E-01;8.377520164665136E-01;-1.393690595840715E-03;-8.627011434806602E-04;3.232636335066214E-01;8.377520164665136E-01;
7.127127127127127E+07;-1.391325809752904E-03;-8.921197157327627E-04;3.246708086583252E-01;8.362515942115952E-01;-1.391325809752904E-03;-8.921197157327627E-04;3.246708086583252E-01;8.362515942115952E-01;
7.152152152152152E+07;-1.400011160297156E-03;-9.305286480875386E-04;3.260284238587434E-01;8.347875986568628E-01;-1.400011160297156E-03;-9.305286480875386E-04;3.260284238587434E-01;8.347875986568628E-01;
7.177177177177177E+07;-1.398039880993787E-03;-9.548406595644479E-04;3.271863068387523E-01;8.333594304107322E-01;-1.398039880993787E-03;-9.548406595644479E-04;3.271863068387523E-01;8.333594304107322E-01;
7.202202202202202E+07;-1.407474755048373E-03;-9.917258806714613E-04;3.282761143722134E-01;8.321381318102224E-01;-1.407474755048373E-03;-9.917258806714613E-04;3.282761143722134E-01;8.321381318102224E-01;
7.227227227227227E+07;-1.409298839071219E-03;-1.017047336111854E-03;3.296345823582766E-01;8.305991548107876E-01;-1.409298839071219E-03;-1.017047336111854E-03;3.296345823582766E-01;8.305991548107876E-01;
7.252252252252252E+07;-1.414862794004019E-03;-1.071138094919575E-03;3.313101115433726E-01;8.291902834546165E-01;-1.414862794004019E-03;-1.071138094919575E-03;3.313101115433726E-01;8.291902834546165E-01;
7.277277277277277E+07;-1.417210328528086E-03;-1.093188152653368E-03;3.333989993072057E-01;8.273689299812488E-01;-1.417210328528086E-03;-1.093188152653368E-03;3.333989993072057E-01;8.273689299812488E-01;
7.302302302302302E+07;-1.415690541258283E-03;-1.127227271881813E-03;3.360166999210838E-01;8.254095530546112E-01;-1.415690541258283E-03;-1.127227271881813E-03;3.360166999210838E-01;8.254095530546112E-01;
7.327327327327327E+07;-1.411644296020965E-03;-1.168083929984112E-03;3.391209426012036E-01;8.231541864984024E-01;-1.411644296020965E-03;-1.168083929984112E-03;3.391209426012036E-01;8.231541864984024E-01;
7.352352352352352E+07;-1.421951977413436E-03;-1.198223679774792E-03;3.425876643709060E-01;8.207158466099472E-01;-1.421951977413436E-03;-1.198223679774792E-03;3.425876643709060E-01;8.207158466099472E-01;
7.377377377377377E+07;-1.438231887827727E-03;-1.249880968507410E-03;3.462142263172052E-01;8.183049060656261E-01;-1.438231887827727E-03;-1.249880968507410E-03;3.462142263172052E-01;8.183049060656261E-01;
7.402402402402402E+07;-1.446703250482030E-03;-1.263312018874636E-03;3.497342305190163E-01;8.158558130494037E-01;-1.446703250482030E-03;-1.263312018874636E-03;3.497342305190163E-01;8.158558130494037E-01;
