# Version 1.00
#
# Ref Impedances: Z01: 50, Z02: 50
# 
freq[Hz];re:SMag2_S11;im:SMag2_S11;re:ZPh2_S12;im:ZPh2_S12;re:SPh2_S11;im:SPh2_S11;re:ZMag2_S12;im:ZMag2_S12;
5.000000000000000E+07;9.407333753381777E-01;2.152442080224009E-02;-6.465319326153886E-05;-2.041704986934193E-04;9.407333753381777E-01;2.152442080224009E-02;-6.465319326153886E-05;-2.041704986934193E-04;
5.025025025025025E+07;9.409121137918237E-01;2.159650593395490E-02;-8.680584709980913E-05;-2.312236432170666E-04;9.409121137918237E-01;2.159650593395490E-02;-8.680584709980913E-05;-2.312236432170666E-04;
5.050050050050050E+07;9.408726780423554E-01;2.163083109063904E-02;-9.688748565603382E-05;-2.284744061699803E-04;9.408726780423554E-01;2.163083109063904E-02;-9.688748565603382E-05;-2.284744061699803E-04;
5.075075075075075E+07;9.410198306283393E-01;2.161970094958941E-02;-9.230122169714592E-05;-2.547434811421049E-04;9.410198306283393E-01;2.161970094958941E-02;-9.230122169714592E-05;-2.547434811421049E-04;
5.100100100100100E+07;9.409261984359600E-01;2.152266979122886E-02;-9.705137728888266E-05;-2.687642984384461E-04;9.409261984359600E-01;2.152266979122886E-02;-9.705137728888266E-05;-2.687642984384461E-04;
5.125125125125125E+07;9.410229267820217E-01;2.141656542945831E-02;-5.912500290978105E-05;-3.094347770558912E-04;9.410229267820217E-01;2.141656542945831E-02;-5.912500290978105E-05;-3.094347770558912E-04;
5.150150150150150E+07;9.410623773512585E-01;2.140057284594600E-02;-1.095160528220470E-04;-3.121437727551035E-04;9.410623773512585E-01;2.140057284594600E-02;-1.095160528220470E-04;-3.121437727551035E-04;
5.175175175175175E+07;9.411754249739341E-01;2.133360562934269E-02;-1.265200016773002E-04;-3.360757328231190E-04;9.411754249739341E-01;2.133360562934269E-02;-1.265200016773002E-04;-3.360757328231190E-04;
5.200200200200200E+07;9.410563787776769E-01;2.120166300921047E-02;-1.170231083039599E-04;-3.640846833528464E-04;9.410563787776769E-01;2.120166300921047E-02;-1.170231083039599E-04;-3.640846833528464E-04;
5.225225225225225E+07;9.410924491170960E-01;2.113704123587433E-02;-1.486037418180839E-04;-3.918640618608691E-04;9.410924491170960E-01;2.113704123587433E-02;-1.486037418180839E-04;-3.918640618608691E-04;
5.250250250250250E+07;9.411114602551786E-01;2.095283318787907E-02;-1.630367168999313E-04;-4.343522728157043E-04;9.411114602551786E-01;2.095283318787907E-02;-1.630367168999313E-04;-4.343522728157043E-04;
5.275275275275275E+07;9.410819638080231E-01;2.069728287242943E-02;-1.778576012931194E-04;-4.795584657683136E-04;9.410819638080231E-01;2.069728287242943E-02;-1.778576012931194E-04;-4.795584657683136E-04;
5.300300300300300E+07;9.410677107569000E-01;2.058752794350178E-02;-2.082543472105163E-04;-5.316861029273129E-04;9.410677107569000E-01;2.058752794350178E-02;-2.082543472105163E-04;-5.316861029273129E-04;
5.325325325325325E+07;9.410018127598980E-01;2.034336200242028E-02;-2.377885806771874E-04;-5.873141039889317E-04;9.410018127598980E-01;2.034336200242028E-02;-2.377885806771874E-04;-5.873141039889317E-04;
5.350350350350350E+07;9.409487370946380E-01;1.997055337999509E-02;-2.897486061448008E-04;-6.551510633260973E-04;9.409487370946380E-01;1.997055337999509E-02;-2.897486061448008E-04;-6.551510633260973E-04;
5.375375375375375E+07;9.408313618341948E-01;1.980076908119871E-02;-3.726758099010729E-04;-7.572942706846698E-04;9.408313618341948E-01;1.980076908119871E-02;-3.726758099010729E-04;-7.572942706846698E-04;
5.400400400400400E+07;9.406813557613065E-01;1.954982898995963E-02;-4.779889479272079E-04;-8.622156898944897E-04;9.406813557613065E-01;1.954982898995963E-02;-4.779889479272079E-04;-8.622156898944897E-04;
5.425425425425425E+07;9.403810376540239E-01;1.908964415917935E-02;-6.648120231238542E-04;-9.971186073439266E-04;9.403810376540239E-01;1.908964415917935E-02;-6.648120231238542E-04;-9.971186073439266E-04;
5.450450450450450E+07;9.399989933708818E-01;1.867280796301284E-02;-9.594482813202706E-04;-1.118672711828752E-03;9.399989933708818E-01;1.867280796301284E-02;-9.594482813202706E-04;-1.118672711828752E-03;
5.475475475475475E+07;9.391648748935087E-01;1.836312270923119E-02;-1.454830771325719E-03;-1.136187761855200E-03;9.391648748935087E-01;1.836312270923119E-02;-1.454830771325719E-03;-1.136187761855200E-03;
5.500500500500500E+07;9.380842473479868E-01;1.852328316580585E-02;-2.116392060255687E-03;-7.776275729371916E-04;9.380842473479868E-01;1.852328316580585E-02;-2.116392060255687E-03;-7.776275729371916E-04;
5.525525525525525E+07;9.374891882520544E-01;1.981131611506306E-02;-2.429075663760753E-03;1.237755416417168E-04;9.374891882520544E-01;1.981131611506306E-02;-2.429075663760753E-03;1.237755416417168E-04;
5.550550550550550E+07;9.380438341817710E-01;2.093454665352262E-02;-2.011530923123746E-03;9.446722943779618E-04;9.380438341817710E-01;2.093454665352262E-02;-2.011530923123746E-03;9.446722943779618E-04;
5.575575575575575E+07;9.389966577290616E-01;2.128097680146361E-02;-1.375943655827200E-03;1.216400078234455E-03;9.389966577290616E-01;2.128097680146361E-02;-1.375943655827200E-03;1.216400078234455E-03;
5.600600600600600E+07;9.395993823319705E-01;2.103628257541995E-02;-9.128496705599503E-04;1.168002056804939E-03;9.395993823319705E-01;2.103628257541995E-02;-9.128496705599503E-04;1.168002056804939E-03;
5.625625625625625E+07;9.401201179507080E-01;2.066246543542270E-02;-6.442783238989555E-04;1.036217433426006E-03;9.401201179507080E-01;2.066246543542270E-02;-6.442783238989555E-04;1.036217433426006E-03;
5.650650650650650E+07;9.403769523275229E-01;2.029493115650702E-02;-4.689545521907743E-04;8.992320157260828E-04;9.403769523275229E-01;2.029493115650702E-02;-4.689545521907743E-04;8.992320157260828E-04;
5.675675675675675E+07;9.405976606786292E-01;1.993232515785786E-02;-3.677743858874154E-04;8.334130337262241E-04;9.405976606786292E-01;1.993232515785786E-02;-3.677743858874154E-04;8.334130337262241E-04;
5.700700700700700E+07;9.406617556862917E-01;1.944778541041535E-02;-3.166606634766309E-04;7.282482316716682E-04;9.406617556862917E-01;1.944778541041535E-02;-3.166606634766309E-04;7.282482316716682E-04;
5.725725725725726E+07;9.406710762671289E-01;1.925093990775937E-02;-2.450854166797448E-04;6.463014110412058E-04;9.406710762671289E-01;1.925093990775937E-02;-2.450854166797448E-04;6.463014110412058E-04;
5.750750750750751E+07;9.407497045304221E-01;1.864364165354081E-02;-2.275387925996639E-04;5.982452993412388E-04;9.407497045304221E-01;1.864364165354081E-02;-2.275387925996639E-04;5.982452993412388E-04;
5.775775775775776E+07;9.408068760844727E-01;1.824455454833251E-02;-2.041716952885524E-04;5.403255468048436E-04;9.408068760844727E-01;1.824455454833251E-02;-2.041716952885524E-04;5.403255468048436E-04;
5.800800800800801E+07;9.406395969100703E-01;1.070697730820289E-02;-1.937921069227011E-04;5.031279452144836E-04;9.406395969100703E-01;1.070697730820289E-02;-1.937921069227011E-04;5.031279452144836E-04;
5.825825825825826E+07;9.405704281087333E-01;1.036085421205902E-02;-1.744905632499585E-04;4.645988427761718E-04;9.405704281087333E-01;1.036085421205902E-02;-1.744905632499585E-04;4.645988427761718E-04;
5.850850850850851E+07;9.403404829996694E-01;1.005381146768588E-02;-1.674888495168856E-04;4.384594297241171E-04;9.403404829996694E-01;1.005381146768588E-02;-1.674888495168856E-04;4.384594297241171E-04;
5.875875875875876E+07;9.402271583389467E-01;9.455139402203619E-03;-1.555260058878564E-04;3.930929681419507E-04;9.402271583389467E-01;9.455139402203619E-03;-1.555260058878564E-04;3.930929681419507E-04;
5.900900900900901E+07;9.400775358097903E-01;9.192700896638199E-03;-1.381986752782772E-04;3.793126036808889E-04;9.400775358097903E-01;9.192700896638199E-03;-1.381986752782772E-04;3.793126036808889E-04;
5.925925925925926E+07;9.399068383746289E-01;8.695354815537218E-03;-1.423504574277212E-04;3.612934530803781E-04;9.399068383746289E-01;8.695354815537218E-03;-1.423504574277212E-04;3.612934530803781E-04;
5.950950950950951E+07;9.397532797604456E-01;8.446128325086195E-03;-1.437189725556023E-04;3.561885913947417E-04;9.397532797604456E-01;8.446128325086195E-03;-1.437189725556023E-04;3.561885913947417E-04;
5.975975975975976E+07;9.397087642837699E-01;8.105446067850205E-03;-1.364400264658040E-04;3.259105483584637E-04;9.397087642837699E-01;8.105446067850205E-03;-1.364400264658040E-04;3.259105483584637E-04;
6.001001001001001E+07;9.395151871424267E-01;7.677136697186285E-03;-1.321778624992040E-04;3.187546536686064E-04;9.395151871424267E-01;7.677136697186285E-03;-1.321778624992040E-04;3.187546536686064E-04;
6.026026026026026E+07;9.393769881351295E-01;7.181504294999754E-03;-1.107322639526927E-04;3.001092047256379E-04;9.393769881351295E-01;7.181504294999754E-03;-1.107322639526927E-04;3.001092047256379E-04;
6.051051051051051E+07;9.394315440732209E-01;6.760264165838869E-03;-1.149804532017650E-04;2.950853214521102E-04;9.394315440732209E-01;6.760264165838869E-03;-1.149804532017650E-04;2.950853214521102E-04;
6.076076076076076E+07;9.392715605185596E-01;6.086610913230433E-03;-1.122031057718666E-04;2.795615461875791E-04;9.392715605185596E-01;6.086610913230433E-03;-1.122031057718666E-04;2.795615461875791E-04;
6.101101101101101E+07;9.392292929534249E-01;5.703846338570828E-03;-1.268981466415187E-04;2.581120652450945E-04;9.392292929534249E-01;5.703846338570828E-03;-1.268981466415187E-04;2.581120652450945E-04;
6.126126126126126E+07;9.392404562355178E-01;5.322076513903781E-03;-1.228980283298758E-04;2.540948257117446E-04;9.392404562355178E-01;5.322076513903781E-03;-1.228980283298758E-04;2.540948257117446E-04;
6.151151151151151E+07;9.392860176770540E-01;4.872951712316129E-03;-1.018405394902559E-04;2.463764409394391E-04;9.392860176770540E-01;4.872951712316129E-03;-1.018405394902559E-04;2.463764409394391E-04;
6.176176176176176E+07;9.391640066495710E-01;4.487752680991849E-03;-1.015853840620164E-04;2.398886268381795E-04;9.391640066495710E-01;4.487752680991849E-03;-1.015853840620164E-04;2.398886268381795E-04;
6.201201201201201E+07;9.391706713039827E-01;3.738209659070609E-03;-1.211943202030239E-04;2.345163566921879E-04;9.391706713039827E-01;3.738209659070609E-03;-1.211943202030239E-04;2.345163566921879E-04;
6.226226226226226E+07;9.390837515696581E-01;3.347569247779619E-03;-1.142208326564259E-04;2.202757026017923E-04;9.390837515696581E-01;3.347569247779619E-03;-1.142208326564259E-04;2.202757026017923E-04;
6.251251251251251E+07;9.390795190888105E-01;2.738886169340529E-03;-1.109582650590197E-04;2.073092595214752E-04;9.390795190888105E-01;2.738886169340529E-03;-1.109582650590197E-04;2.073092595214752E-04;
6.276276276276276E+07;9.390711909142843E-01;2.126341150318766E-03;-1.061756666923898E-04;2.059164969683089E-04;9.390711909142843E-01;2.126341150318766E-03;-1.061756666923898E-04;2.059164969683089E-04;
6.301301301301301E+07;9.390064271206712E-01;1.714558010389603E-03;-1.097046842931787E-04;2.096081794948924E-04;9.390064271206712E-01;1.714558010389603E-03;-1.097046842931787E-04;2.096081794948924E-04;
6.326326326326326E+07;9.389590108279160E-01;1.242318811491258E-03;-9.606997790758305E-05;1.973181326370656E-04;9.389590108279160E-01;1.242318811491258E-03;-9.606997790758305E-05;1.973181326370656E-04;
6.351351351351351E+07;9.388940581092576E-01;6.984271327276850E-04;-9.368401752897284E-05;1.976489845046337E-04;9.388940581092576E-01;6.984271327276850E-04;-9.368401752897284E-05;1.976489845046337E-04;
6.376376376376376E+07;9.388794931099375E-01;2.124686663561615E-04;-1.115831673102692E-04;2.007046849020565E-04;9.388794931099375E-01;2.124686663561615E-04;-1.115831673102692E-04;2.007046849020565E-04;
6.401401401401401E+07;9.387782043843917E-01;-4.834929830722622E-04;-1.015483578027216E-04;1.815432760907913E-04;9.387782043843917E-01;-4.834929830722622E-04;-1.015483578027216E-04;1.815432760907913E-04;
6.426426426426426E+07;9.387185144124042E-01;-1.070992787767397E-03;-1.073533931386567E-04;1.812559526315659E-04;9.387185144124042E-01;-1.070992787767397E-03;-1.073533931386567E-04;1.812559526315659E-04;
6.451451451451451E+07;9.386767913540640E-01;-1.573303594088315E-03;-1.148261911749218E-04;1.745842282921897E-04;9.386767913540640E-01;-1.573303594088315E-03;-1.148261911749218E-04;1.745842282921897E-04;
6.476476476476476E+07;9.384691805260936E-01;-2.175671056884083E-03;-1.097223578328614E-04;1.776271250369798E-04;9.384691805260936E-01;-2.175671056884083E-03;-1.097223578328614E-04;1.776271250369798E-04;
6.501501501501501E+07;9.384643607486062E-01;-2.585076693244814E-03;-1.200224176098988E-04;1.601139325620109E-04;9.384643607486062E-01;-2.585076693244814E-03;-1.200224176098988E-04;1.601139325620109E-04;
6.526526526526526E+07;9.384196287852147E-01;-3.229355864033004E-03;-1.091785727077438E-04;1.493066212231887E-04;9.384196287852147E-01;-3.229355864033004E-03;-1.091785727077438E-04;1.493066212231887E-04;
6.551551551551551E+07;9.383276591401841E-01;-3.879863919226256E-03;-1.195318293456631E-04;1.478893667597330E-04;9.383276591401841E-01;-3.879863919226256E-03;-1.195318293456631E-04;1.478893667597330E-04;
6.576576576576576E+07;9.379967868924046E-01;7.133306775077812E-03;-1.145598808093481E-04;1.503080891835963E-04;9.379967868924046E-01;7.133306775077812E-03;-1.145598808093481E-04;1.503080891835963E-04;
6.601601601601601E+07;9.380518736887380E-01;7.185246857129325E-03;-1.106122522988172E-04;1.547733079706015E-04;9.380518736887380E-01;7.185246857129325E-03;-1.106122522988172E-04;1.547733079706015E-04;
6.626626626626626E+07;9.379491666177576E-01;7.132000600145592E-03;-1.080260313313298E-04;1.433721467890807E-04;9.379491666177576E-01;7.132000600145592E-03;-1.080260313313298E-04;1.433721467890807E-04;
6.651651651651651E+07;9.378609659501049E-01;6.858737823916177E-03;-1.111881327581828E-04;1.393796125782184E-04;9.378609659501049E-01;6.858737823916177E-03;-1.111881327581828E-04;1.393796125782184E-04;
6.676676676676676E+07;9.376709758174521E-01;6.484846911047113E-03;-1.057085760692149E-04;1.419772273380395E-04;9.376709758174521E-01;6.484846911047113E-03;-1.057085760692149E-04;1.419772273380395E-04;
6.701701701701702E+07;9.377308007885213E-01;6.663295669515614E-03;-1.030699085518018E-04;1.430181515778354E-04;9.377308007885213E-01;6.663295669515614E-03;-1.030699085518018E-04;1.430181515778354E-04;
6.726726726726727E+07;9.375948302748032E-01;6.587145133576935E-03;-1.221202685666669E-04;1.383075542506207E-04;9.375948302748032E-01;6.587145133576935E-03;-1.221202685666669E-04;1.383075542506207E-04;
6.751751751751752E+07;9.374991797277673E-01;6.156292545079759E-03;-1.122693051893508E-04;1.464911080173916E-04;9.374991797277673E-01;6.156292545079759E-03;-1.122693051893508E-04;1.464911080173916E-04;
6.776776776776777E+07;9.372440758605501E-01;5.134361386480507E-03;-1.092530095429419E-04;1.290442056580972E-04;9.372440758605501E-01;5.134361386480507E-03;-1.092530095429419E-04;1.290442056580972E-04;
6.801801801801802E+07;9.369915047438081E-01;3.698574199472717E-03;-1.109820858670906E-04;1.285825959525224E-04;9.369915047438081E-01;3.698574199472717E-03;-1.109820858670906E-04;1.285825959525224E-04;
6.826826826826827E+07;9.366460069604962E-01;2.410131474664996E-03;-1.169946657222235E-04;1.287897421052740E-04;9.366460069604962E-01;2.410131474664996E-03;-1.169946657222235E-04;1.287897421052740E-04;
6.851851851851852E+07;9.364251001127716E-01;1.440645007444091E-03;-1.136744755278269E-04;1.129830518926201E-04;9.364251001127716E-01;1.440645007444091E-03;-1.136744755278269E-04;1.129830518926201E-04;
6.876876876876877E+07;9.378234131989628E-01;-4.305110260724290E-03;-1.173347762432200E-04;1.221938795992127E-04;9.378234131989628E-01;-4.305110260724290E-03;-1.173347762432200E-04;1.221938795992127E-04;
6.901901901901902E+07;9.376290134013366E-01;-5.125681491706481E-03;-1.106350029330392E-04;1.149150940509420E-04;9.376290134013366E-01;-5.125681491706481E-03;-1.106350029330392E-04;1.149150940509420E-04;
6.926926926926927E+07;9.374770097950128E-01;-5.686684124944724E-03;-1.161296966263639E-04;1.099891232731505E-04;9.374770097950128E-01;-5.686684124944724E-03;-1.161296966263639E-04;1.099891232731505E-04;
6.951951951951952E+07;9.374176868480036E-01;-6.148377288598025E-03;-1.179182432035487E-04;1.005814252436875E-04;9.374176868480036E-01;-6.148377288598025E-03;-1.179182432035487E-04;1.005814252436875E-04;
6.976976976976977E+07;9.373371832081000E-01;-6.483300696226049E-03;-1.179088144859764E-04;9.676235173926641E-05;9.373371832081000E-01;-6.483300696226049E-03;-1.179088144859764E-04;9.676235173926641E-05;
7.002002002002002E+07;9.372898893741642E-01;-6.671060842952774E-03;-1.170524332876169E-04;1.042015969910479E-04;9.372898893741642E-01;-6.671060842952774E-03;-1.170524332876169E-04;1.042015969910479E-04;
7.027027027027027E+07;9.372416868697194E-01;-6.589557937046258E-03;-1.190869115084204E-04;1.027683382008282E-04;9.372416868697194E-01;-6.589557937046258E-03;-1.190869115084204E-04;1.027683382008282E-04;
7.052052052052052E+07;9.372172647485197E-01;-6.272647703528496E-03;-1.205034260061850E-04;1.026800814490025E-04;9.372172647485197E-01;-6.272647703528496E-03;-1.205034260061850E-04;1.026800814490025E-04;
7.077077077077077E+07;9.372678669140070E-01;-5.823697623826188E-03;-1.261738850654619E-04;9.891807007867468E-05;9.372678669140070E-01;-5.823697623826188E-03;-1.261738850654619E-04;9.891807007867468E-05;
7.102102102102102E+07;9.372363515347357E-01;-5.464807368323728E-03;-1.256412435308651E-04;9.890487816676417E-05;9.372363515347357E-01;-5.464807368323728E-03;-1.256412435308651E-04;9.890487816676417E-05;
7.127127127127127E+07;9.371436826854345E-01;-5.581855431775984E-03;-1.192880205686389E-04;9.969306715625732E-05;9.371436826854345E-01;-5.581855431775984E-03;-1.192880205686389E-04;9.969306715625732E-05;
7.152152152152152E+07;9.369165771625551E-01;-6.136776425379058E-03;-1.268478834346854E-04;9.746023605335504E-05;9.369165771625551E-01;-6.136776425379058E-03;-1.268478834346854E-04;9.746023605335504E-05;
7.177177177177177E+07;9.366401831390863E-01;-7.411251602166002E-03;-1.300493341565709E-04;9.419498903158954E-05;9.366401831390863E-01;-7.411251602166002E-03;-1.300493341565709E-04;9.419498903158954E-05;
7.202202202202202E+07;9.362960454801852E-01;-8.716931994628384E-03;-1.271746468336450E-04;8.264124362671129E-05;9.362960454801852E-01;-8.716931994628384E-03;-1.271746468336450E-04;8.264124362671129E-05;
7.227227227227227E+07;9.359157659698889E-01;-1.007557654963200E-02;-1.274387638932451E-04;8.418495795648510E-05;9.359157659698889E-01;-1.007557654963200E-02;-1.274387638932451E-04;8.418495795648510E-05;
7.252252252252252E+07;9.355879230361018E-01;-1.113598566421597E-02;-1.258645880964797E-04;7.544207312039615E-05;9.355879230361018E-01;-1.113598566421597E-02;-1.258645880964797E-04;7.544207312039615E-05;
7.277277277277277E+07;9.353683342029384E-01;-1.191738962970433E-02;-1.260133032996489E-04;7.464936750805818E-05;9.353683342029384E-01;-1.191738962970433E-02;-1.260133032996489E-04;7.464936750805818E-05;
7.302302302302302E+07;9.352042948995447E-01;-1.239799902298324E-02;-1.207866742615859E-04;7.154684108065000E-05;9.352042948995447E-01;-1.239799902298324E-02;-1.207866742615859E-04;7.154684108065000E-05;
7.327327327327327E+07;9.349945757782087E-01;-1.271733955400310E-02;-1.225191129939337E-04;7.823710366779473E-05;9.349945757782087E-01;-1.271733955400310E-02;-1.225191129939337E-04;7.823710366779473E-05;
7.352352352352352E+07;9.348427011365059E-01;-1.291053175121952E-02;-1.238628504715313E-04;7.095422662364946E-05;9.348427011365059E-01;-1.291053175121952E-02;-1.238628504715313E-04;7.095422662364946E-05;
7.377377377377377E+07;9.347214068285447E-01;-1.299315135968761E-02;-1.365090697343963E-04;8.187985564940480E-05;9.347214068285447E-01;-1.299315135968761E-02;-1.365090697343963E-04;8.187985564940480E-05;
7.402402402402402E+07;9.345697351644149E-01;-1.280969393276338E-02;-1.295452414802307E-04;6.360964951048483E-05;9.345697351644149E-01;-1.280969393276338E-02;-1.295452414802307E-04;6.360964951048483E-05;
