# Version 1.00
#
# Ref Impedances: Z01: 50, Z02: 50
# 
freq[Hz];re:ZMag1_S12;im:ZMag1_S12;re:SMag1_S11;im:SMag1_S11;re:ZPh1_S12;im:ZPh1_S12;re:SPh1_S11;im:SPh1_S11;
5.000000000000000E+07;4.084936729256444E-05;-2.058828520473679E-05;9.406763396390451E-01;2.156466447644079E-02;4.084936729256444E-05;-2.058828520473679E-05;9.406763396390451E-01;2.156466447644079E-02;
5.025025025025025E+07;4.514607100634379E-05;-1.859816549266196E-05;9.408441071822938E-01;2.157812529756990E-02;4.514607100634379E-05;-1.859816549266196E-05;9.408441071822938E-01;2.157812529756990E-02;
5.050050050050050E+07;4.514678271319779E-05;-2.167434805218245E-05;9.409013230117746E-01;2.147666471400879E-02;4.514678271319779E-05;-2.167434805218245E-05;9.409013230117746E-01;2.147666471400879E-02;
5.075075075075075E+07;4.795473827862881E-05;-2.390994202848192E-05;9.409648120235082E-01;2.154190878875757E-02;4.795473827862881E-05;-2.390994202848192E-05;9.409648120235082E-01;2.154190878875757E-02;
5.100100100100100E+07;5.262771791141831E-05;-2.493053578316763E-05;9.409651043016298E-01;2.138655825560492E-02;5.262771791141831E-05;-2.493053578316763E-05;9.409651043016298E-01;2.138655825560492E-02;
5.125125125125125E+07;5.628149174480235E-05;-2.639516154307143E-05;9.410776432843673E-01;2.140438828057382E-02;5.628149174480235E-05;-2.639516154307143E-05;9.410776432843673E-01;2.140438828057382E-02;
5.150150150150150E+07;6.212490800029051E-05;-3.271757439421515E-05;9.410174817231904E-01;2.134669449219283E-02;6.212490800029051E-05;-3.271757439421515E-05;9.410174817231904E-01;2.134669449219283E-02;
5.175175175175175E+07;8.058862946868676E-05;-3.572906473161519E-05;9.410792023304990E-01;2.116555742631021E-02;8.058862946868676E-05;-3.572906473161519E-05;9.410792023304990E-01;2.116555742631021E-02;
5.200200200200200E+07;7.613811923312237E-05;-3.876031641386427E-05;9.410855387950519E-01;2.116302073903829E-02;7.613811923312237E-05;-3.876031641386427E-05;9.410855387950519E-01;2.116302073903829E-02;
5.225225225225225E+07;8.072004563850674E-05;-4.563508772783017E-05;9.410213718893872E-01;2.097445738669505E-02;8.072004563850674E-05;-4.563508772783017E-05;9.410213718893872E-01;2.097445738669505E-02;
5.250250250250250E+07;9.223866127446335E-05;-5.168958492848355E-05;9.410658526871721E-01;2.078074131041491E-02;9.223866127446335E-05;-5.168958492848355E-05;9.410658526871721E-01;2.078074131041491E-02;
5.275275275275275E+07;1.006836944918480E-04;-5.935085662289046E-05;9.410772025497377E-01;2.073891508056471E-02;1.006836944918480E-04;-5.935085662289046E-05;9.410772025497377E-01;2.073891508056471E-02;
5.300300300300300E+07;1.140189719341443E-04;-6.170635157116974E-05;9.410576077958501E-01;2.044218667271176E-02;1.140189719341443E-04;-6.170635157116974E-05;9.410576077958501E-01;2.044218667271176E-02;
5.325325325325325E+07;1.256762382148845E-04;-8.638757580945067E-05;9.410497629802180E-01;2.022426585409110E-02;1.256762382148845E-04;-8.638757580945067E-05;9.410497629802180E-01;2.022426585409110E-02;
5.350350350350350E+07;1.443512099555119E-04;-1.022357819202176E-04;9.409454495855210E-01;1.990286434733538E-02;1.443512099555119E-04;-1.022357819202176E-04;9.409454495855210E-01;1.990286434733538E-02;
5.375375375375375E+07;1.631090358447603E-04;-1.308920295683848E-04;9.408943166414294E-01;1.962803066560086E-02;1.631090358447603E-04;-1.308920295683848E-04;9.408943166414294E-01;1.962803066560086E-02;
5.400400400400400E+07;1.864314268455369E-04;-1.709341600985106E-04;9.406449603325608E-01;1.933139861126440E-02;1.864314268455369E-04;-1.709341600985106E-04;9.406449603325608E-01;1.933139861126440E-02;
5.425425425425425E+07;2.100390133318341E-04;-2.317426276003658E-04;9.404017928119456E-01;1.895446219472196E-02;2.100390133318341E-04;-2.317426276003658E-04;9.404017928119456E-01;1.895446219472196E-02;
5.450450450450450E+07;2.242899287399208E-04;-3.262632108224899E-04;9.398613538284190E-01;1.849249898681790E-02;2.242899287399208E-04;-3.262632108224899E-04;9.398613538284190E-01;1.849249898681790E-02;
5.475475475475475E+07;1.925479809315056E-04;-4.714247635487366E-04;9.392232032739910E-01;1.832382406273348E-02;1.925479809315056E-04;-4.714247635487366E-04;9.392232032739910E-01;1.832382406273348E-02;
5.500500500500500E+07;4.884063685878405E-05;-6.380128799709163E-04;9.380369132343401E-01;1.859701371834742E-02;4.884063685878405E-05;-6.380128799709163E-04;9.380369132343401E-01;1.859701371834742E-02;
5.525525525525525E+07;-2.419064950848745E-04;-6.758246675380114E-04;9.375148998794740E-01;1.965451082860868E-02;-2.419064950848745E-04;-6.758246675380114E-04;9.375148998794740E-01;1.965451082860868E-02;
5.550550550550550E+07;-4.556702835484863E-04;-4.967297714160644E-04;9.379805145196375E-01;2.082752006841295E-02;-4.556702835484863E-04;-4.967297714160644E-04;9.379805145196375E-01;2.082752006841295E-02;
5.575575575575575E+07;-4.939830499777634E-04;-2.904306546556180E-04;9.388216282213877E-01;2.113003520720474E-02;-4.939830499777634E-04;-2.904306546556180E-04;9.388216282213877E-01;2.113003520720474E-02;
5.600600600600600E+07;-4.573344840954293E-04;-1.636921736472993E-04;9.396182244191345E-01;2.087905960936603E-02;-4.573344840954293E-04;-1.636921736472993E-04;9.396182244191345E-01;2.087905960936603E-02;
5.625625625625625E+07;-4.113502668526412E-04;-8.985092455018033E-05;9.401260814382371E-01;2.055134560162451E-02;-4.113502668526412E-04;-8.985092455018033E-05;9.401260814382371E-01;2.055134560162451E-02;
5.650650650650650E+07;-3.665957236624549E-04;-4.647530706087749E-05;9.404973254488912E-01;2.009575464395546E-02;-3.665957236624549E-04;-4.647530706087749E-05;9.404973254488912E-01;2.009575464395546E-02;
5.675675675675675E+07;-3.332606138335407E-04;-2.320797490375568E-05;9.405044588783295E-01;1.972774682143432E-02;-3.332606138335407E-04;-2.320797490375568E-05;9.405044588783295E-01;1.972774682143432E-02;
5.700700700700700E+07;-3.072458848074869E-04;-1.540258018955176E-06;9.406680806989131E-01;1.929267540362206E-02;-3.072458848074869E-04;-1.540258018955176E-06;9.406680806989131E-01;1.929267540362206E-02;
5.725725725725726E+07;-2.924834249863767E-04;-2.776130981727866E-06;9.407424421124104E-01;1.894302015414305E-02;-2.924834249863767E-04;-2.776130981727866E-06;9.407424421124104E-01;1.894302015414305E-02;
5.750750750750751E+07;-2.824950777081127E-04;8.023742327404882E-06;9.409089581317611E-01;1.858036282386996E-02;-2.824950777081127E-04;8.023742327404882E-06;9.409089581317611E-01;1.858036282386996E-02;
5.775775775775776E+07;-2.725688641370640E-04;1.094031437179498E-05;9.407749199942222E-01;1.818015647603465E-02;-2.725688641370640E-04;1.094031437179498E-05;9.407749199942222E-01;1.818015647603465E-02;
5.800800800800801E+07;-2.692955404135026E-04;1.905464551446836E-05;9.406548326010531E-01;1.069900453488701E-02;-2.692955404135026E-04;1.905464551446836E-05;9.406548326010531E-01;1.069900453488701E-02;
5.825825825825826E+07;-2.663514803684927E-04;2.086999714023840E-05;9.404815370631407E-01;1.020814548139463E-02;-2.663514803684927E-04;2.086999714023840E-05;9.404815370631407E-01;1.020814548139463E-02;
5.850850850850851E+07;-2.681929566219816E-04;1.927999862487660E-05;9.403704004590155E-01;9.916134366005821E-03;-2.681929566219816E-04;1.927999862487660E-05;9.403704004590155E-01;9.916134366005821E-03;
5.875875875875876E+07;-2.867118361355306E-04;2.677067655623672E-05;9.402762555634150E-01;9.321371921861905E-03;-2.867118361355306E-04;2.677067655623672E-05;9.402762555634150E-01;9.321371921861905E-03;
5.900900900900901E+07;-2.993528887236525E-04;2.825728449491771E-05;9.400855997176877E-01;9.086807936171294E-03;-2.993528887236525E-04;2.825728449491771E-05;9.400855997176877E-01;9.086807936171294E-03;
5.925925925925926E+07;-3.280820264951931E-04;2.352387471229084E-05;9.398582758209044E-01;8.702042092535601E-03;-3.280820264951931E-04;2.352387471229084E-05;9.398582758209044E-01;8.702042092535601E-03;
5.950950950950951E+07;-3.587314167507595E-04;1.562406336270641E-05;9.397949470909651E-01;8.320255913762859E-03;-3.587314167507595E-04;1.562406336270641E-05;9.397949470909651E-01;8.320255913762859E-03;
5.975975975975976E+07;-4.062697630697873E-04;2.267589290090317E-05;9.395863137940530E-01;7.889407208994774E-03;-4.062697630697873E-04;2.267589290090317E-05;9.395863137940530E-01;7.889407208994774E-03;
6.001001001001001E+07;-4.756301538640181E-04;2.586818868008359E-05;9.394304928390960E-01;7.576802676381498E-03;-4.756301538640181E-04;2.586818868008359E-05;9.394304928390960E-01;7.576802676381498E-03;
6.026026026026026E+07;-6.222844092133287E-04;-2.230090695885725E-05;9.394927547897663E-01;7.106142452422733E-03;-6.222844092133287E-04;-2.230090695885725E-05;9.394927547897663E-01;7.106142452422733E-03;
6.051051051051051E+07;-8.398447075887536E-04;-7.230070018856134E-05;9.393810572664000E-01;6.445437819212820E-03;-8.398447075887536E-04;-7.230070018856134E-05;9.393810572664000E-01;6.445437819212820E-03;
6.076076076076076E+07;-1.370221358273810E-03;-5.296427835024153E-04;9.392667020680479E-01;6.122629526483120E-03;-1.370221358273810E-03;-5.296427835024153E-04;9.392667020680479E-01;6.122629526483120E-03;
6.101101101101101E+07;-5.599165593795509E-04;-2.795105366792649E-03;9.393267805976528E-01;5.701055000375136E-03;-5.599165593795509E-04;-2.795105366792649E-03;9.393267805976528E-01;5.701055000375136E-03;
6.126126126126126E+07;9.561554635574891E-04;-8.312301066832255E-04;9.392504323077033E-01;5.127635652760423E-03;9.561554635574891E-04;-8.312301066832255E-04;9.392504323077033E-01;5.127635652760423E-03;
6.151151151151151E+07;6.097111650620508E-04;-3.267910367462702E-04;9.392348707619687E-01;4.560505863494753E-03;6.097111650620508E-04;-3.267910367462702E-04;9.392348707619687E-01;4.560505863494753E-03;
6.176176176176176E+07;4.228432358771270E-04;-1.872148538269180E-04;9.391312791812314E-01;4.230490128968012E-03;4.228432358771270E-04;-1.872148538269180E-04;9.391312791812314E-01;4.230490128968012E-03;
6.201201201201201E+07;3.178936744770488E-04;-1.025242493474481E-04;9.390409919095624E-01;3.588813314293041E-03;3.178936744770488E-04;-1.025242493474481E-04;9.390409919095624E-01;3.588813314293041E-03;
6.226226226226226E+07;2.475128755208063E-04;-7.525338996771996E-05;9.391489387164371E-01;3.205492292847395E-03;2.475128755208063E-04;-7.525338996771996E-05;9.391489387164371E-01;3.205492292847395E-03;
6.251251251251251E+07;1.989619331802861E-04;-5.187731411708654E-05;9.390114412482833E-01;2.845063485258745E-03;1.989619331802861E-04;-5.187731411708654E-05;9.390114412482833E-01;2.845063485258745E-03;
6.276276276276276E+07;1.622322962073228E-04;-4.373233766062985E-05;9.389499760900401E-01;2.131498209570228E-03;1.622322962073228E-04;-4.373233766062985E-05;9.389499760900401E-01;2.131498209570228E-03;
6.301301301301301E+07;1.421009016512792E-04;-3.858655363106074E-05;9.389081245845179E-01;1.612435313524912E-03;1.421009016512792E-04;-3.858655363106074E-05;9.389081245845179E-01;1.612435313524912E-03;
6.326326326326326E+07;1.271834505636221E-04;-3.581945741880089E-05;9.388449363430940E-01;1.060866358992006E-03;1.271834505636221E-04;-3.581945741880089E-05;9.388449363430940E-01;1.060866358992006E-03;
6.351351351351351E+07;1.049578355367596E-04;-2.780527401693534E-05;9.389242312679478E-01;5.377782171664476E-04;1.049578355367596E-04;-2.780527401693534E-05;9.389242312679478E-01;5.377782171664476E-04;
6.376376376376376E+07;9.947532874942771E-05;-2.455081808557941E-05;9.387965938415944E-01;2.768314081006177E-05;9.947532874942771E-05;-2.455081808557941E-05;9.387965938415944E-01;2.768314081006177E-05;
6.401401401401401E+07;8.561712131250295E-05;-2.305154065927211E-05;9.388329119983910E-01;-6.034484975815079E-04;8.561712131250295E-05;-2.305154065927211E-05;9.388329119983910E-01;-6.034484975815079E-04;
6.426426426426426E+07;7.521617503444079E-05;-2.198541446762603E-05;9.388031214140714E-01;-1.165711713641306E-03;7.521617503444079E-05;-2.198541446762603E-05;9.388031214140714E-01;-1.165711713641306E-03;
6.451451451451451E+07;6.927287525551032E-05;-2.322078338705922E-05;9.386620812013111E-01;-1.633482450098858E-03;6.927287525551032E-05;-2.322078338705922E-05;9.386620812013111E-01;-1.633482450098858E-03;
6.476476476476476E+07;6.137535081988680E-05;-2.266748000878072E-05;9.385243843879638E-01;-2.180886192863415E-03;6.137535081988680E-05;-2.266748000878072E-05;9.385243843879638E-01;-2.180886192863415E-03;
6.501501501501501E+07;5.539511536764738E-05;-1.169059703578579E-05;9.385022218568521E-01;-2.869887093446827E-03;5.539511536764738E-05;-1.169059703578579E-05;9.385022218568521E-01;-2.869887093446827E-03;
6.526526526526526E+07;5.582774628376775E-05;-1.654483188466984E-05;9.384788164644415E-01;-3.318964693814885E-03;5.582774628376775E-05;-1.654483188466984E-05;9.384788164644415E-01;-3.318964693814885E-03;
6.551551551551551E+07;4.928647753867711E-05;-1.420768380507333E-05;9.383992726699142E-01;-3.802841972761489E-03;4.928647753867711E-05;-1.420768380507333E-05;9.383992726699142E-01;-3.802841972761489E-03;
6.576576576576576E+07;4.468513829084169E-05;-1.070809492777746E-05;9.379964142821144E-01;7.029005344517663E-03;4.468513829084169E-05;-1.070809492777746E-05;9.379964142821144E-01;7.029005344517663E-03;
6.601601601601601E+07;4.259755697668571E-05;-1.265308361903255E-05;9.379602072383698E-01;7.164590663885743E-03;4.259755697668571E-05;-1.265308361903255E-05;9.379602072383698E-01;7.164590663885743E-03;
6.626626626626626E+07;4.169789177952742E-05;-1.021439579781739E-05;9.379054220701527E-01;6.999877187723299E-03;4.169789177952742E-05;-1.021439579781739E-05;9.379054220701527E-01;6.999877187723299E-03;
6.651651651651651E+07;3.719913951929146E-05;-1.258967395967943E-05;9.378163655173251E-01;6.746756082927317E-03;3.719913951929146E-05;-1.258967395967943E-05;9.378163655173251E-01;6.746756082927317E-03;
6.676676676676676E+07;3.337078570713995E-05;-8.786711777920031E-06;9.376761804688445E-01;6.383457129528654E-03;3.337078570713995E-05;-8.786711777920031E-06;9.376761804688445E-01;6.383457129528654E-03;
6.701701701701702E+07;3.401038195676391E-05;-9.082034149531241E-06;9.376880120695474E-01;6.416964686922153E-03;3.401038195676391E-05;-9.082034149531241E-06;9.376880120695474E-01;6.416964686922153E-03;
6.726726726726727E+07;3.257852404058710E-05;-9.986854113477328E-06;9.376803688516568E-01;6.513182494295640E-03;3.257852404058710E-05;-9.986854113477328E-06;9.376803688516568E-01;6.513182494295640E-03;
6.751751751751752E+07;3.121646814225285E-05;-7.907908431982876E-06;9.374999460128102E-01;6.011507559709003E-03;3.121646814225285E-05;-7.907908431982876E-06;9.374999460128102E-01;6.011507559709003E-03;
6.776776776776777E+07;2.742808813402381E-05;-4.022535840727299E-06;9.373122388387234E-01;4.916223688161252E-03;2.742808813402381E-05;-4.022535840727299E-06;9.373122388387234E-01;4.916223688161252E-03;
6.801801801801802E+07;2.559164166902849E-05;-5.462502666046267E-06;9.369360183318538E-01;3.617177235708318E-03;2.559164166902849E-05;-5.462502666046267E-06;9.369360183318538E-01;3.617177235708318E-03;
6.826826826826827E+07;2.588763225197903E-05;-6.086777266506148E-06;9.366343742064126E-01;2.272063799965062E-03;2.588763225197903E-05;-6.086777266506148E-06;9.366343742064126E-01;2.272063799965062E-03;
6.851851851851852E+07;2.558036127474664E-05;-4.377768483501924E-06;9.364248345365143E-01;1.277038253128087E-03;2.558036127474664E-05;-4.377768483501924E-06;9.364248345365143E-01;1.277038253128087E-03;
6.876876876876877E+07;2.287976091784414E-05;-5.253899504242997E-06;9.378276025776906E-01;-4.419374259269415E-03;2.287976091784414E-05;-5.253899504242997E-06;9.378276025776906E-01;-4.419374259269415E-03;
6.901901901901902E+07;2.212205512450743E-05;-4.049323810229462E-06;9.375846559123289E-01;-5.273931876648914E-03;2.212205512450743E-05;-4.049323810229462E-06;9.375846559123289E-01;-5.273931876648914E-03;
6.926926926926927E+07;2.173168156986335E-05;-5.153141612133530E-06;9.374996984256712E-01;-5.814292277823369E-03;2.173168156986335E-05;-5.153141612133530E-06;9.374996984256712E-01;-5.814292277823369E-03;
6.951951951951952E+07;2.040495413811456E-05;-5.147181057537216E-06;9.374002031919110E-01;-6.271761912285538E-03;2.040495413811456E-05;-5.147181057537216E-06;9.374002031919110E-01;-6.271761912285538E-03;
6.976976976976977E+07;1.963680639106683E-05;-5.877965475285302E-06;9.373040605577948E-01;-6.592182951876436E-03;1.963680639106683E-05;-5.877965475285302E-06;9.373040605577948E-01;-6.592182951876436E-03;
7.002002002002002E+07;1.901610070852970E-05;-4.900150227542439E-06;9.372924110955398E-01;-6.862251164262701E-03;1.901610070852970E-05;-4.900150227542439E-06;9.372924110955398E-01;-6.862251164262701E-03;
7.027027027027027E+07;1.798754568657641E-05;-4.284306291886400E-06;9.372645336545571E-01;-6.763734189761948E-03;1.798754568657641E-05;-4.284306291886400E-06;9.372645336545571E-01;-6.763734189761948E-03;
7.052052052052052E+07;1.790521684475879E-05;-4.711288998462540E-06;9.372504172707057E-01;-6.460338619248165E-03;1.790521684475879E-05;-4.711288998462540E-06;9.372504172707057E-01;-6.460338619248165E-03;
7.077077077077077E+07;1.609427481382931E-05;-3.638834765079082E-06;9.372349776387675E-01;-5.937222703102019E-03;1.609427481382931E-05;-3.638834765079082E-06;9.372349776387675E-01;-5.937222703102019E-03;
7.102102102102102E+07;1.640070811283991E-05;-3.189767132290608E-06;9.371678957583028E-01;-5.614575162083446E-03;1.640070811283991E-05;-3.189767132290608E-06;9.371678957583028E-01;-5.614575162083446E-03;
7.127127127127127E+07;1.707460816358551E-05;-4.244659840577504E-06;9.371110092092887E-01;-5.690437917506413E-03;1.707460816358551E-05;-4.244659840577504E-06;9.371110092092887E-01;-5.690437917506413E-03;
7.152152152152152E+07;1.540894660273225E-05;-3.647220895387942E-06;9.369679099009597E-01;-6.266856625033772E-03;1.540894660273225E-05;-3.647220895387942E-06;9.369679099009597E-01;-6.266856625033772E-03;
7.177177177177177E+07;1.455077985064985E-05;-2.862679173120061E-06;9.366080977153595E-01;-7.492447268735136E-03;1.455077985064985E-05;-2.862679173120061E-06;9.366080977153595E-01;-7.492447268735136E-03;
7.202202202202202E+07;1.510441445221774E-05;-3.231712493940340E-06;9.362884129883524E-01;-8.874060532508025E-03;1.510441445221774E-05;-3.231712493940340E-06;9.362884129883524E-01;-8.874060532508025E-03;
7.227227227227227E+07;1.402215162592432E-05;-4.043442435714574E-06;9.359225688212656E-01;-1.023852821950744E-02;1.402215162592432E-05;-4.043442435714574E-06;9.359225688212656E-01;-1.023852821950744E-02;
7.252252252252252E+07;1.305357780444019E-05;-2.736238428754308E-06;9.356387695059878E-01;-1.128348302320579E-02;1.305357780444019E-05;-2.736238428754308E-06;9.356387695059878E-01;-1.128348302320579E-02;
7.277277277277277E+07;1.288616926925967E-05;-2.610888508167174E-06;9.353652488161259E-01;-1.206726635760904E-02;1.288616926925967E-05;-2.610888508167174E-06;9.353652488161259E-01;-1.206726635760904E-02;
7.302302302302302E+07;1.322990610501508E-05;-3.426391761606343E-06;9.352019597259330E-01;-1.255731089454449E-02;1.322990610501508E-05;-3.426391761606343E-06;9.352019597259330E-01;-1.255731089454449E-02;
7.327327327327327E+07;1.182635805632733E-05;-2.232461395701979E-06;9.349981349798058E-01;-1.288598454825808E-02;1.182635805632733E-05;-2.232461395701979E-06;9.349981349798058E-01;-1.288598454825808E-02;
7.352352352352352E+07;1.210051750735989E-05;-1.997203857534359E-06;9.348406812774885E-01;-1.308394402946617E-02;1.210051750735989E-05;-1.997203857534359E-06;9.348406812774885E-01;-1.308394402946617E-02;
7.377377377377377E+07;1.174757044729031E-05;-2.282654118307577E-06;9.347086307061205E-01;-1.316346702881983E-02;1.174757044729031E-05;-2.282654118307577E-06;9.347086307061205E-01;-1.316346702881983E-02;
7.402402402402402E+07;1.172762941421035E-05;-2.754860536670347E-06;9.346481987462930E-01;-1.301491428268964E-02;1.172762941421035E-05;-2.754860536670347E-06;9.346481987462930E-01;-1.301491428268964E-02;
