# Version 1.00
#
freq[Hz];re:Smith_S11;im:Smith_S11;re:Magnitude_Z<-S11[Ohm];im:Magnitude_Z<-S11[Ohm];re:Phase_S11;im:Phase_S11;
8.000000000000000E+07;-8.031208719915487E-01;-4.434791040316126E-01;2.295923539220257E+00;-1.286222664044888E+01;-8.031208719915487E-01;-4.434791040316126E-01;
8.050000000000000E+07;-8.262725563259264E-01;-3.969669671338749E-01;2.285965566732031E+00;-1.136511694423537E+01;-8.262725563259264E-01;-3.969669671338749E-01;
8.100000000000000E+07;-8.465884297280574E-01;-3.496765828011155E-01;2.279259748178137E+00;-9.899787416520859E+00;-8.465884297280574E-01;-3.496765828011155E-01;
8.150000000000000E+07;-8.640588329531556E-01;-3.020075124655860E-01;2.274218428512067E+00;-8.469264164085727E+00;-8.640588329531556E-01;-3.020075124655860E-01;
8.200000000000000E+07;-8.787067300285222E-01;-2.535935925030460E-01;2.275621299913661E+00;-7.056323583602957E+00;-8.787067300285222E-01;-2.535935925030460E-01;
8.250000000000000E+07;-8.907288588283164E-01;-2.046852832886020E-01;2.276988431894578E+00;-5.659367886989517E+00;-8.907288588283164E-01;-2.046852832886020E-01;
8.300000000000000E+07;-9.001140657109986E-01;-1.548096216237756E-01;2.281376202571082E+00;-4.259565367125341E+00;-9.001140657109986E-01;-1.548096216237756E-01;
8.350000000000000E+07;-9.066544746601717E-01;-1.036348400869519E-01;2.293392834815971E+00;-2.842369960611888E+00;-9.066544746601717E-01;-1.036348400869519E-01;
8.400000000000000E+07;-9.104516716109046E-01;-5.288388480323319E-02;2.303564874844689E+00;-1.447833379269625E+00;-9.104516716109046E-01;-5.288388480323319E-02;
8.450000000000000E+07;-9.112731883414188E-01;-2.157545709643650E-03;2.321077478265517E+00;-5.906278439197128E-02;-9.112731883414188E-01;-2.157545709643650E-03;
8.500000000000000E+07;-9.093188104516559E-01;4.811458551368902E-02;2.341461473110238E+00;1.318998016556328E+00;-9.093188104516559E-01;4.811458551368902E-02;
8.550000000000000E+07;-9.044813231555450E-01;9.802464977547047E-02;2.368997948627405E+00;2.695459714197085E+00;-9.044813231555450E-01;9.802464977547047E-02;
8.600000000000000E+07;-8.972271588270773E-01;1.476946227375293E-01;2.390998544758264E+00;4.078514651716403E+00;-8.972271588270773E-01;1.476946227375293E-01;
8.650000000000000E+07;-8.870503015025576E-01;1.967323417856476E-01;2.422979244508566E+00;5.465299712435138E+00;-8.870503015025576E-01;1.967323417856476E-01;
8.700000000000000E+07;-8.738846781480075E-01;2.453473262222390E-01;2.465678278327590E+00;6.869320206377805E+00;-8.738846781480075E-01;2.453473262222390E-01;
8.750000000000000E+07;-8.585723783920614E-01;2.927625773347771E-01;2.502026606001058E+00;8.270126470818296E+00;-8.585723783920614E-01;2.927625773347771E-01;
8.800000000000000E+07;-8.404920324593739E-01;3.394663755686104E-01;2.545726916232073E+00;9.691705888036772E+00;-8.404920324593739E-01;3.394663755686104E-01;
8.850000000000000E+07;-8.198428897620638E-01;3.849042501583083E-01;2.596928077193456E+00;1.112446644491906E+01;-8.198428897620638E-01;3.849042501583083E-01;
8.900000000000000E+07;-7.964341526999380E-01;4.291685742789759E-01;2.660330549875806E+00;1.258056631198146E+01;-7.964341526999380E-01;4.291685742789759E-01;
8.950000000000000E+07;-7.708817840216640E-01;4.721717501737684E-01;2.721000745761756E+00;1.405704627923054E+01;-7.708817840216640E-01;4.721717501737684E-01;
9.000000000000000E+07;-7.429964925554710E-01;5.135871545646039E-01;2.789144866741190E+00;1.555472246777653E+01;-7.429964925554710E-01;5.135871545646039E-01;
9.050000000000000E+07;-7.124205477671178E-01;5.535571286906344E-01;2.871911131116654E+00;1.709137591947863E+01;-7.124205477671178E-01;5.535571286906344E-01;
9.100000000000000E+07;-6.801790238389277E-01;5.917620249736293E-01;2.949312274231744E+00;1.864884146736273E+01;-6.801790238389277E-01;5.917620249736293E-01;
9.150000000000000E+07;-6.457135842900478E-01;6.282511746126337E-01;3.034966377650321E+00;2.024609885970779E+01;-6.457135842900478E-01;6.282511746126337E-01;
9.200000000000000E+07;-6.092588331896495E-01;6.626535637463976E-01;3.131478505511077E+00;2.187824783226954E+01;-6.092588331896495E-01;6.626535637463976E-01;
9.250000000000000E+07;-5.708541324092125E-01;6.949545758044514E-01;3.239464659676228E+00;2.355343428474556E+01;-5.708541324092125E-01;6.949545758044514E-01;
9.300000000000000E+07;-5.307564959145762E-01;7.249605900981414E-01;3.359084047583849E+00;2.527066398965092E+01;-5.307564959145762E-01;7.249605900981414E-01;
9.350000000000000E+07;-4.891328689315531E-01;7.528009337859856E-01;3.484627223124480E+00;2.703806903789062E+01;-4.891328689315531E-01;7.528009337859856E-01;
9.400000000000000E+07;-4.457819023500241E-01;7.784125547480356E-01;3.622720182353983E+00;2.887060527029602E+01;-4.457819023500241E-01;7.784125547480356E-01;
9.450000000000000E+07;-4.010166086160454E-01;8.013610077172967E-01;3.781270112553241E+00;3.076209985567919E+01;-4.010166086160454E-01;8.013610077172967E-01;
9.500000000000000E+07;-3.548454109630088E-01;8.218643957530540E-01;3.954964874659060E+00;3.272968579719360E+01;-3.548454109630088E-01;8.218643957530540E-01;
9.550000000000000E+07;-3.074637427621179E-01;8.396332755639749E-01;4.151719544700485E+00;3.477540842752917E+01;-3.074637427621179E-01;8.396332755639749E-01;
9.600000000000000E+07;-2.593345238794815E-01;8.543688910385546E-01;4.378471888234161E+00;3.689192493540184E+01;-2.593345238794815E-01;8.543688910385546E-01;
9.650000000000000E+07;-2.101592162812743E-01;8.665959557802704E-01;4.623041488977298E+00;3.911560248429610E+01;-2.101592162812743E-01;8.665959557802704E-01;
9.700000000000000E+07;-1.605242256953955E-01;8.759376484090177E-01;4.894916267271512E+00;4.143345119396460E+01;-1.605242256953955E-01;8.759376484090177E-01;
9.750000000000000E+07;-1.099784835234235E-01;8.825409312362302E-01;5.197251074345433E+00;4.388718708330245E+01;-1.099784835234235E-01;8.825409312362302E-01;
9.800000000000000E+07;-5.941079083560904E-02;8.858178254095519E-01;5.553078746186988E+00;4.645026068777221E+01;-5.941079083560904E-02;8.858178254095519E-01;
9.850000000000000E+07;-8.275636778611522E-03;8.860904880178478E-01;5.960095690276815E+00;4.917872324887927E+01;-8.275636778611522E-03;8.860904880178478E-01;
9.900000000000000E+07;4.230429180415233E-02;8.835776439196819E-01;6.405032927612987E+00;5.203973002372535E+01;4.230429180415233E-02;8.835776439196819E-01;
9.950000000000000E+07;9.292911184503302E-02;8.779304571106317E-01;6.921770527531483E+00;5.509310977935893E+01;9.292911184503302E-02;8.779304571106317E-01;
1.000000000000000E+08;1.432848201932154E-01;8.693700586760327E-01;7.506725276070551E+00;5.835617986691825E+01;1.432848201932154E-01;8.693700586760327E-01;
1.005000000000000E+08;1.929788865958577E-01;8.583070529895112E-01;8.143817533728587E+00;6.183883896968474E+01;1.929788865958577E-01;8.583070529895112E-01;
1.010000000000000E+08;2.428108986280127E-01;8.446831800069377E-01;8.841652562849132E+00;6.564087374421042E+01;2.428108986280127E-01;8.446831800069377E-01;
1.015000000000000E+08;2.920583907535306E-01;8.270370385005158E-01;9.733258720877112E+00;6.978205087434009E+01;2.920583907535306E-01;8.270370385005158E-01;
1.020000000000000E+08;3.405355167682979E-01;8.062126343867994E-01;1.078729579470373E+01;7.431406410203745E+01;3.405355167682979E-01;8.062126343867994E-01;
1.025000000000000E+08;3.884028601413750E-01;7.813670335669995E-01;1.211721970573883E+01;7.935999783472212E+01;3.884028601413750E-01;7.813670335669995E-01;
1.030000000000000E+08;4.339554831507378E-01;7.526096645981275E-01;1.382801477448025E+01;8.486537606401430E+01;4.339554831507378E-01;7.526096645981275E-01;
1.035000000000000E+08;4.771634236999846E-01;7.200635385149431E-01;1.602725898878819E+01;9.093438351686341E+01;4.771634236999846E-01;7.200635385149431E-01;
1.040000000000000E+08;5.174099735222008E-01;6.840541098971386E-01;1.886045649795874E+01;9.760723531858724E+01;5.174099735222008E-01;6.840541098971386E-01;
1.045000000000000E+08;5.541253949140080E-01;6.450618037910421E-01;2.251067748618151E+01;1.049036385562391E+02;5.541253949140080E-01;6.450618037910421E-01;
1.050000000000000E+08;5.878081950696659E-01;6.038883967863494E-01;2.710525571718866E+01;1.129643255928495E+02;5.878081950696659E-01;6.038883967863494E-01;
1.055000000000000E+08;6.180799980632138E-01;5.594333421990569E-01;3.323806355760161E+01;1.219264449572191E+02;6.180799980632138E-01;5.594333421990569E-01;
1.060000000000000E+08;6.439126467879244E-01;5.121151430476962E-01;4.152501947457537E+01;1.316287928168853E+02;6.439126467879244E-01;5.121151430476962E-01;
1.065000000000000E+08;6.642533191706302E-01;4.622206955327786E-01;5.287182231451104E+01;1.416230985321427E+02;6.642533191706302E-01;4.622206955327786E-01;
1.070000000000000E+08;6.778116496448586E-01;4.102145797942045E-01;6.841619008967683E+01;1.507691001394777E+02;6.778116496448586E-01;4.102145797942045E-01;
1.075000000000000E+08;6.826873356161692E-01;3.587820645664599E-01;8.831569712136815E+01;1.563920919182902E+02;6.826873356161692E-01;3.587820645664599E-01;
1.080000000000000E+08;6.796129669548416E-01;3.111222849253811E-01;1.106393492531980E+02;1.559940828864220E+02;6.796129669548416E-01;3.111222849253811E-01;
1.085000000000000E+08;6.712063810558654E-01;2.692673496004506E-01;1.320460367268393E+02;1.490876069070889E+02;6.712063810558654E-01;2.692673496004506E-01;
1.090000000000000E+08;6.582964344011571E-01;2.320768332705591E-01;1.502705405995508E+02;1.360189285068557E+02;6.582964344011571E-01;2.320768332705591E-01;
1.095000000000000E+08;6.388235434554336E-01;2.022194287945164E-01;1.607937867813039E+02;1.180215331978278E+02;6.388235434554336E-01;2.022194287945164E-01;
1.100000000000000E+08;6.161126894130873E-01;1.875624360241626E-01;1.602925940187753E+02;1.027462750766589E+02;6.161126894130873E-01;1.875624360241626E-01;
1.105000000000000E+08;6.028276206453498E-01;1.891918962432982E-01;1.552151812600072E+02;9.775364878992394E+01;6.028276206453498E-01;1.891918962432982E-01;
1.110000000000000E+08;6.073081710846657E-01;1.972713297426192E-01;1.533378385020590E+02;1.021481040211294E+02;6.073081710846657E-01;1.972713297426192E-01;
1.115000000000000E+08;6.289794872269187E-01;2.000792089570849E-01;1.588045895728048E+02;1.126014753094984E+02;6.289794872269187E-01;2.000792089570849E-01;
1.120000000000000E+08;6.599576062040190E-01;1.894712016888627E-01;1.744087044102782E+02;1.250402528326123E+02;6.599576062040190E-01;1.894712016888627E-01;
1.125000000000000E+08;6.903175732500161E-01;1.664588374173407E-01;2.005283088135199E+02;1.346626331461128E+02;6.903175732500161E-01;1.664588374173407E-01;
1.130000000000000E+08;7.168129924904340E-01;1.360977530822753E-01;2.368661240242013E+02;1.378659114994753E+02;7.168129924904340E-01;1.360977530822753E-01;
1.135000000000000E+08;7.408771019088802E-01;1.018967902057325E-01;2.842329577730725E+02;1.314328676814508E+02;7.408771019088802E-01;1.018967902057325E-01;
1.140000000000000E+08;7.628254755559593E-01;6.307964947693073E-02;3.437761666417710E+02;1.047298929864324E+02;7.628254755559593E-01;6.307964947693073E-02;
1.145000000000000E+08;7.821847836336275E-01;1.947179122734474E-02;4.054648413432611E+02;4.071669762095132E+01;7.821847836336275E-01;1.947179122734474E-02;
1.150000000000000E+08;7.975098743400618E-01;-2.843859077096504E-02;4.342986395498427E+02;-6.801699972384365E+01;7.975098743400618E-01;-2.843859077096504E-02;
1.155000000000000E+08;8.083337697601078E-01;-8.069055994016759E-02;3.931905747915392E+02;-1.865810977519341E+02;8.083337697601078E-01;-8.069055994016759E-02;
1.160000000000000E+08;8.126128792448578E-01;-1.360000347367271E-01;2.995380000612622E+02;-2.536843511900391E+02;8.126128792448578E-01;-1.360000347367271E-01;
1.165000000000000E+08;8.095474469231051E-01;-1.925507235684732E-01;2.096562510408035E+02;-2.625168222176451E+02;8.095474469231051E-01;-1.925507235684732E-01;
1.170000000000000E+08;7.998312784263286E-01;-2.476180921663539E-01;1.474396384999836E+02;-2.442420884692861E+02;7.998312784263286E-01;-2.476180921663539E-01;
1.175000000000000E+08;7.853727393229835E-01;-3.003594052384428E-01;1.074891864056123E+02;-2.203977174710382E+02;7.853727393229835E-01;-3.003594052384428E-01;
1.180000000000000E+08;7.673384072816736E-01;-3.510021561117809E-01;8.119970458936967E+01;-1.979328803437271E+02;7.673384072816736E-01;-3.510021561117809E-01;
1.185000000000000E+08;7.453847910546828E-01;-4.000351672245675E-01;6.323426180027715E+01;-1.779064457400608E+02;7.453847910546828E-01;-4.000351672245675E-01;
1.190000000000000E+08;7.197540214631611E-01;-4.465811040820025E-01;5.081788220101000E+01;-1.606565824052241E+02;7.197540214631611E-01;-4.465811040820025E-01;
1.195000000000000E+08;6.915450429177892E-01;-4.898682774134614E-01;4.204440216812020E+01;-1.461789856197105E+02;6.915450429177892E-01;-4.898682774134614E-01;
1.200000000000000E+08;6.620476338459655E-01;-5.307116903084679E-01;3.537024360413720E+01;-1.340632314571426E+02;6.620476338459655E-01;-5.307116903084679E-01;
1.205000000000000E+08;6.308697678009132E-01;-5.704128624336690E-01;2.996271080229116E+01;-1.235654920079543E+02;6.308697678009132E-01;-5.704128624336690E-01;
1.210000000000000E+08;5.974895311387207E-01;-6.087615314949321E-01;2.557387884595456E+01;-1.142988165188105E+02;5.974895311387207E-01;-6.087615314949321E-01;
1.215000000000000E+08;5.614201623502213E-01;-6.452034209506498E-01;2.205902230588983E+01;-1.060074442802940E+02;5.614201623502213E-01;-6.452034209506498E-01;
1.220000000000000E+08;5.229584095983664E-01;-6.796413815435846E-01;1.918849548687248E+01;-9.857288254474811E+01;5.229584095983664E-01;-6.796413815435846E-01;
1.225000000000000E+08;4.822988788422500E-01;-7.118643608926092E-01;1.682037881109894E+01;-9.188128886139832E+01;4.822988788422500E-01;-7.118643608926092E-01;
1.230000000000000E+08;4.394120208952376E-01;-7.416591068636458E-01;1.485906279088861E+01;-8.580868012603968E+01;4.394120208952376E-01;-7.416591068636458E-01;
1.235000000000000E+08;3.944060513046319E-01;-7.685655252139032E-01;1.325157168970138E+01;-8.027322188576554E+01;3.944060513046319E-01;-7.685655252139032E-01;
1.240000000000000E+08;3.476066300998184E-01;-7.923983272468367E-01;1.192556276836838E+01;-7.521491574781319E+01;3.476066300998184E-01;-7.923983272468367E-01;
1.245000000000000E+08;2.998747268796524E-01;-8.130780017888718E-01;1.081323425812912E+01;-7.062436522616250E+01;2.998747268796524E-01;-8.130780017888718E-01;
1.250000000000000E+08;2.511700631510039E-01;-8.312535543324362E-01;9.823659023158065E+00;-6.640844168894357E+01;2.511700631510039E-01;-8.312535543324362E-01;
1.255000000000000E+08;2.009671598992831E-01;-8.469277671312814E-01;8.937020964364480E+00;-6.246977228173371E+01;2.009671598992831E-01;-8.469277671312814E-01;
1.260000000000000E+08;1.489074307159644E-01;-8.591137575164447E-01;8.196949851092324E+00;-5.874543153940078E+01;1.489074307159644E-01;-8.591137575164447E-01;
1.265000000000000E+08;9.585916582004719E-02;-8.679040059907179E-01;7.561896615842385E+00;-5.525488815094251E+01;9.585916582004719E-02;-8.679040059907179E-01;
1.270000000000000E+08;4.198884453485745E-02;-8.728854627367787E-01;7.034169176812862E+00;-5.196630213511269E+01;4.198884453485745E-02;-8.728854627367787E-01;
1.275000000000000E+08;-1.182353031620486E-02;-8.741076993158395E-01;6.594395099009416E+00;-4.889152605366571E+01;-1.182353031620486E-02;-8.741076993158395E-01;
1.280000000000000E+08;-6.553923889090292E-02;-8.719363091099992E-01;6.209798191929973E+00;-4.599677063258994E+01;-6.553923889090292E-02;-8.719363091099992E-01;
1.285000000000000E+08;-1.188652336352103E-01;-8.663806294503809E-01;5.874122871021839E+00;-4.326549461699212E+01;-1.188652336352103E-01;-8.663806294503809E-01;
1.290000000000000E+08;-1.717214669869829E-01;-8.575965482948662E-01;5.573884455026098E+00;-4.067517138396644E+01;-1.717214669869829E-01;-8.575965482948662E-01;
1.295000000000000E+08;-2.239605369935764E-01;-8.453417365304331E-01;5.315698805447123E+00;-3.820439260276289E+01;-2.239605369935764E-01;-8.453417365304331E-01;
1.300000000000000E+08;-2.751305249254716E-01;-8.297734274368200E-01;5.093564653065836E+00;-3.585136978393519E+01;-2.751305249254716E-01;-8.297734274368200E-01;
1.305000000000000E+08;-3.251748156484346E-01;-8.112466548726565E-01;4.890632137751838E+00;-3.360299424631562E+01;-3.251748156484346E-01;-8.112466548726565E-01;
1.310000000000000E+08;-3.738449536801735E-01;-7.894288081298370E-01;4.720735969338318E+00;-3.144323182943293E+01;-3.738449536801735E-01;-7.894288081298370E-01;
1.315000000000000E+08;-4.209704495151165E-01;-7.649241739015674E-01;4.563183789287672E+00;-2.937196779827635E+01;-4.209704495151165E-01;-7.649241739015674E-01;
1.320000000000000E+08;-4.665280026726851E-01;-7.375297422090140E-01;4.423600535623177E+00;-2.737010408254929E+01;-4.665280026726851E-01;-7.375297422090140E-01;
1.325000000000000E+08;-5.102592264500242E-01;-7.072008631679937E-01;4.306024518574185E+00;-2.542958635321985E+01;-5.102592264500242E-01;-7.072008631679937E-01;
1.330000000000000E+08;-5.516362434309634E-01;-6.739246807411960E-01;4.219848365661650E+00;-2.354939448879299E+01;-5.516362434309634E-01;-6.739246807411960E-01;
1.335000000000000E+08;-5.904831299529871E-01;-6.383924200537381E-01;4.149978369759084E+00;-2.173486476297921E+01;-5.904831299529871E-01;-6.383924200537381E-01;
1.340000000000000E+08;-6.262763812419144E-01;-6.009016755861777E-01;4.103572022727715E+00;-1.999102210340618E+01;-6.262763812419144E-01;-6.009016755861777E-01;
1.345000000000000E+08;-6.594317142589078E-01;-5.618603094576063E-01;4.063705550973617E+00;-1.830521260397919E+01;-6.594317142589078E-01;-5.618603094576063E-01;
1.350000000000000E+08;-6.903550841290316E-01;-5.214540455072282E-01;4.018508888271101E+00;-1.666405494119657E+01;-6.903550841290316E-01;-5.214540455072282E-01;
1.355000000000000E+08;-7.185901511207100E-01;-4.798707496321037E-01;3.978736522010186E+00;-1.507213150390706E+01;-7.185901511207100E-01;-4.798707496321037E-01;
1.360000000000000E+08;-7.445344086428457E-01;-4.371534541115524E-01;3.935153821968491E+00;-1.351531885785721E+01;-7.445344086428457E-01;-4.371534541115524E-01;
1.365000000000000E+08;-7.681785258821747E-01;-3.933326425887367E-01;3.888727284486497E+00;-1.198758790375858E+01;-7.681785258821747E-01;-3.933326425887367E-01;
1.370000000000000E+08;-7.896567496446339E-01;-3.482947231374200E-01;3.837532346758179E+00;-1.047761165756474E+01;-7.896567496446339E-01;-3.482947231374200E-01;
1.375000000000000E+08;-8.087555098350790E-01;-3.019045190620973E-01;3.788100954107782E+00;-8.977924689940043E+00;-8.087555098350790E-01;-3.019045190620973E-01;
1.380000000000000E+08;-8.249869868504350E-01;-2.544216262205718E-01;3.750265332110802E+00;-7.493330097209943E+00;-8.249869868504350E-01;-2.544216262205718E-01;
1.385000000000000E+08;-8.382216464605622E-01;-2.058607393332360E-01;3.726589043002330E+00;-6.016790936795598E+00;-8.382216464605622E-01;-2.058607393332360E-01;
1.390000000000000E+08;-8.484323780255081E-01;-1.568658908878346E-01;3.713057735090516E+00;-4.558320203698787E+00;-8.484323780255081E-01;-1.568658908878346E-01;
1.395000000000000E+08;-8.553769550632615E-01;-1.071307423825082E-01;3.718307146834769E+00;-3.101732027266547E+00;-8.553769550632615E-01;-1.071307423825082E-01;
1.400000000000000E+08;-8.589811997519897E-01;-5.734368596351447E-02;3.741768741905786E+00;-1.657763462196824E+00;-8.589811997519897E-01;-5.734368596351447E-02;
1.405000000000000E+08;-8.596295529774759E-01;-7.877227388104016E-03;3.773185942826816E+00;-2.277784908162168E-01;-8.596295529774759E-01;-7.877227388104016E-03;
1.410000000000000E+08;-8.573521308410254E-01;4.084272984673873E-02;3.814065061340010E+00;1.183358440631232E+00;-8.573521308410254E-01;4.084272984673873E-02;
1.415000000000000E+08;-8.525071611457981E-01;8.887220563680741E-02;3.856945852302709E+00;2.583733907833215E+00;-8.525071611457981E-01;8.887220563680741E-02;
1.420000000000000E+08;-8.449346597383176E-01;1.362589298167753E-01;3.908409338149764E+00;3.981442988112553E+00;-8.449346597383176E-01;1.362589298167753E-01;
