# Version 1.00
#
freq[Hz];re:Smith_S11;im:Smith_S11;re:Magnitude_Z<-S11[Ohm];im:Magnitude_Z<-S11[Ohm];re:Phase_S11;im:Phase_S11;
8.000000000000000E+07;-8.905392160421322E-01;-1.932837639321108E-01;2.347797667840135E+00;-5.351901341659989E+00;-8.905392160421322E-01;-1.932837639321108E-01;
8.050000000000000E+07;-8.999049067234030E-01;-1.393371957714504E-01;2.352628644349406E+00;-3.839491355990138E+00;-8.999049067234030E-01;-1.393371957714504E-01;
8.100000000000000E+07;-9.058365629279289E-01;-8.567018421248680E-02;2.364586666023069E+00;-2.353865946929349E+00;-9.058365629279289E-01;-8.567018421248680E-02;
8.150000000000000E+07;-9.085099362243347E-01;-3.214703440928333E-02;2.382035823965460E+00;-8.823255651436094E-01;-9.085099362243347E-01;-3.214703440928333E-02;
8.200000000000000E+07;-9.081821579347809E-01;2.135582342036471E-02;2.399334997017198E+00;5.864382186404886E-01;-9.081821579347809E-01;2.135582342036471E-02;
8.250000000000000E+07;-9.047315721851525E-01;7.453002120899832E-02;2.420576504782819E+00;2.051158670199018E+00;-9.047315721851525E-01;7.453002120899832E-02;
8.300000000000000E+07;-8.983583069094648E-01;1.280190556798014E-01;2.438618850640415E+00;3.536288403500097E+00;-8.983583069094648E-01;1.280190556798014E-01;
8.350000000000000E+07;-8.882001416551797E-01;1.821549617797751E-01;2.472155856424565E+00;5.061997048761421E+00;-8.882001416551797E-01;1.821549617797751E-01;
8.400000000000000E+07;-8.749187742661988E-01;2.348733599717302E-01;2.511585929311130E+00;6.578190369600741E+00;-8.749187742661988E-01;2.348733599717302E-01;
8.450000000000000E+07;-8.586647480644702E-01;2.867476530454855E-01;2.551284076271723E+00;8.107410112065473E+00;-8.586647480644702E-01;2.867476530454855E-01;
8.500000000000000E+07;-8.392280760202335E-01;3.371602343174754E-01;2.602924290901840E+00;9.642966259019726E+00;-8.392280760202335E-01;3.371602343174754E-01;
8.550000000000000E+07;-8.168807388426728E-01;3.866410605766605E-01;2.654862440058742E+00;1.120521089970417E+01;-8.168807388426728E-01;3.866410605766605E-01;
8.600000000000000E+07;-7.911449798226836E-01;4.343143751271091E-01;2.729908206311452E+00;1.278587573374497E+01;-7.911449798226836E-01;4.343143751271091E-01;
8.650000000000000E+07;-7.625941121860321E-01;4.806574282817405E-01;2.807543374351570E+00;1.440055757403627E+01;-7.625941121860321E-01;4.806574282817405E-01;
8.700000000000000E+07;-7.313486775383402E-01;5.252811928222035E-01;2.890017423458667E+00;1.604652592572086E+01;-7.313486775383402E-01;5.252811928222035E-01;
8.750000000000000E+07;-6.974005717444743E-01;5.678574893172148E-01;2.983650809862801E+00;1.772543465849498E+01;-6.974005717444743E-01;5.678574893172148E-01;
8.800000000000000E+07;-6.605221038904077E-01;6.085332533667164E-01;3.091747059096033E+00;1.945658747275959E+01;-6.605221038904077E-01;6.085332533667164E-01;
8.850000000000000E+07;-6.209620583728226E-01;6.470695013822956E-01;3.212298839232358E+00;2.124174066842247E+01;-6.209620583728226E-01;6.470695013822956E-01;
8.900000000000000E+07;-5.788831090462521E-01;6.824788488254366E-01;3.364997843037588E+00;2.306724423538139E+01;-5.788831090462521E-01;6.824788488254366E-01;
8.950000000000000E+07;-5.343793721191243E-01;7.153108501814104E-01;3.537505323044382E+00;2.495859833955425E+01;-5.343793721191243E-01;7.153108501814104E-01;
9.000000000000000E+07;-4.882477496596597E-01;7.453340860610252E-01;3.719515555368121E+00;2.690344133848524E+01;-4.882477496596597E-01;7.453340860610252E-01;
9.050000000000000E+07;-4.399136946283858E-01;7.727859698800501E-01;3.918253115060578E+00;2.893733817742018E+01;-4.399136946283858E-01;7.727859698800501E-01;
9.100000000000000E+07;-3.897189421779142E-01;7.974274900827569E-01;4.133448348869713E+00;3.106203602486219E+01;-3.897189421779142E-01;7.974274900827569E-01;
9.150000000000000E+07;-3.371354829834954E-01;8.187542240705223E-01;4.392915524035986E+00;3.330584664872382E+01;-3.371354829834954E-01;8.187542240705223E-01;
9.200000000000000E+07;-2.832837145031046E-01;8.363603162130054E-01;4.693566201167862E+00;3.564568598966276E+01;-2.832837145031046E-01;8.363603162130054E-01;
9.250000000000000E+07;-2.280670963830161E-01;8.506785619808791E-01;5.025788632079371E+00;3.811620625881663E+01;-2.280670963830161E-01;8.506785619808791E-01;
9.300000000000000E+07;-1.716694350444790E-01;8.611701061860247E-01;5.413193807738883E+00;4.072836976728484E+01;-1.716694350444790E-01;8.611701061860247E-01;
9.350000000000000E+07;-1.126490188737289E-01;8.678465889784851E-01;5.879843831099665E+00;4.358529153295722E+01;-1.126490188737289E-01;8.678465889784851E-01;
9.400000000000000E+07;-5.422379366929864E-02;8.701230953302950E-01;6.420800676807787E+00;4.656795077167236E+01;-5.422379366929864E-02;8.701230953302950E-01;
9.450000000000000E+07;6.147594247576033E-03;8.674953675003524E-01;7.108409468859889E+00;4.984772424235628E+01;6.147594247576033E-03;8.674953675003524E-01;
9.500000000000000E+07;6.736629995659761E-02;8.591525548796988E-01;8.001457512632900E+00;5.343158885037695E+01;6.736629995659761E-02;8.591525548796988E-01;
9.550000000000000E+07;1.278612975388340E-01;8.453492100330909E-01;9.118380136695562E+00;5.730244031822089E+01;1.278612975388340E-01;8.453492100330909E-01;
9.600000000000000E+07;1.873379766999215E-01;8.254825438379737E-01;1.056321328346458E+01;6.151865588749884E+01;1.873379766999215E-01;8.254825438379737E-01;
9.650000000000000E+07;2.456796182636325E-01;7.998292711564675E-01;1.240622924615405E+01;6.617125834340733E+01;2.456796182636325E-01;7.998292711564675E-01;
9.700000000000000E+07;3.019998651938943E-01;7.672004973958502E-01;1.488191311904442E+01;7.131436447466112E+01;3.019998651938943E-01;7.672004973958502E-01;
9.750000000000000E+07;3.549028010113132E-01;7.270271462195292E-01;1.828456816018703E+01;7.695698384392512E+01;3.549028010113132E-01;7.270271462195292E-01;
9.800000000000000E+07;4.021357806522359E-01;6.797123688446636E-01;2.295915959412398E+01;8.294733418022423E+01;4.021357806522359E-01;6.797123688446636E-01;
9.850000000000000E+07;4.425437739285721E-01;6.252121670121107E-01;2.944959099082173E+01;8.910628068800661E+01;4.425437739285721E-01;6.252121670121107E-01;
9.900000000000000E+07;4.727905630981627E-01;5.660261188800203E-01;3.811269970829139E+01;9.460014550007207E+01;4.727905630981627E-01;5.660261188800203E-01;
9.950000000000000E+07;4.931019279550582E-01;5.031007187467106E-01;4.938086863566196E+01;9.863637128973151E+01;4.931019279550582E-01;5.031007187467106E-01;
1.000000000000000E+08;5.018175632061078E-01;4.373094370035139E-01;6.337136366706859E+01;9.951849675117701E+01;5.018175632061078E-01;4.373094370035139E-01;
1.005000000000000E+08;4.965482669129032E-01;3.708174195816500E-01;7.877017552427142E+01;9.484568443967541E+01;4.965482669129032E-01;3.708174195816500E-01;
1.010000000000000E+08;4.742565840497048E-01;3.057597426582321E-01;9.213308886067551E+01;8.266119052524368E+01;4.742565840497048E-01;3.057597426582321E-01;
1.015000000000000E+08;4.263470893315413E-01;2.477970520821777E-01;9.690928637379237E+01;6.345943236739124E+01;4.263470893315413E-01;2.477970520821777E-01;
1.020000000000000E+08;3.531517379758503E-01;2.181247342164908E-01;8.881129885255184E+01;4.680877950218304E+01;3.531517379758503E-01;2.181247342164908E-01;
1.025000000000000E+08;2.743575361263363E-01;2.353841332392474E-01;7.468883217959072E+01;4.044660304267532E+01;2.743575361263363E-01;2.353841332392474E-01;
1.030000000000000E+08;2.234871247090265E-01;2.976267586200309E-01;6.228522293128323E+01;4.303738934070172E+01;2.234871247090265E-01;2.976267586200309E-01;
1.035000000000000E+08;2.203773589673210E-01;3.753144984695738E-01;5.413401167271793E+01;5.013066874610258E+01;2.203773589673210E-01;3.753144984695738E-01;
1.040000000000000E+08;2.573388911989329E-01;4.393803667945927E-01;4.973952205075796E+01;5.900886321262611E+01;2.573388911989329E-01;4.393803667945927E-01;
1.045000000000000E+08;3.147556134805747E-01;4.782688608694611E-01;4.813023516679993E+01;6.849036156058652E+01;3.147556134805747E-01;4.782688608694611E-01;
1.050000000000000E+08;3.765451547718309E-01;4.957501872788532E-01;4.826478040333343E+01;7.813682684595950E+01;3.765451547718309E-01;4.957501872788532E-01;
1.055000000000000E+08;4.405834580438409E-01;4.999682889159712E-01;4.937848264805112E+01;8.881769879537364E+01;4.405834580438409E-01;4.999682889159712E-01;
1.060000000000000E+08;5.059034037099054E-01;4.895951612985767E-01;5.212091532197861E+01;1.011905493468884E+02;5.059034037099054E-01;4.895951612985767E-01;
1.065000000000000E+08;5.676906195992986E-01;4.655024716367595E-01;5.711758453546579E+01;1.153421660913327E+02;5.676906195992986E-01;4.655024716367595E-01;
1.070000000000000E+08;6.248790368445496E-01;4.310834992125365E-01;6.487442450242024E+01;1.320120007902846E+02;6.248790368445496E-01;4.310834992125365E-01;
1.075000000000000E+08;6.749421290434098E-01;3.877280981538181E-01;7.697786487963111E+01;1.514588338148153E+02;6.749421290434098E-01;3.877280981538181E-01;
1.080000000000000E+08;7.168332143166641E-01;3.380361977632245E-01;9.562304939849952E+01;1.738405223146618E+02;7.168332143166641E-01;3.380361977632245E-01;
1.085000000000000E+08;7.505421746571515E-01;2.852766578379443E-01;1.237026594770612E+02;1.986440557038998E+02;7.505421746571515E-01;2.852766578379443E-01;
1.090000000000000E+08;7.783736293036533E-01;2.319130934310338E-01;1.653762989117355E+02;2.253729264049666E+02;7.783736293036533E-01;2.319130934310338E-01;
1.095000000000000E+08;8.021865888329758E-01;1.766972955399000E-01;2.311763511187118E+02;2.511614380407387E+02;8.021865888329758E-01;1.766972955399000E-01;
1.100000000000000E+08;8.211842142603584E-01;1.185997791254586E-01;3.383838612422749E+02;2.575960504196977E+02;8.211842142603584E-01;1.185997791254586E-01;
1.105000000000000E+08;8.340830979523869E-01;5.835435237351009E-02;4.863638249753132E+02;1.886436116920217E+02;8.340830979523869E-01;5.835435237351009E-02;
1.110000000000000E+08;8.412818582642002E-01;-2.125857391876642E-03;5.799346906840367E+02;-8.437292069732770E+00;8.412818582642002E-01;-2.125857391876642E-03;
1.115000000000000E+08;8.427179183481490E-01;-6.259656664888542E-02;4.988629709498274E+02;-2.184415235437711E+02;8.427179183481490E-01;-6.259656664888542E-02;
1.120000000000000E+08;8.389353975324436E-01;-1.226047559201749E-01;3.430923380913636E+02;-2.992276976282889E+02;8.389353975324436E-01;-1.226047559201749E-01;
1.125000000000000E+08;8.300056378956355E-01;-1.814324801710143E-01;2.250013509187442E+02;-2.935048935148550E+02;8.300056378956355E-01;-1.814324801710143E-01;
1.130000000000000E+08;8.163558784031919E-01;-2.380315082984636E-01;1.531817487074601E+02;-2.633553292260499E+02;8.163558784031919E-01;-2.380315082984636E-01;
1.135000000000000E+08;7.992922974165769E-01;-2.926113102518940E-01;1.094120687271409E+02;-2.324064981055005E+02;7.992922974165769E-01;-2.926113102518940E-01;
1.140000000000000E+08;7.793478156890661E-01;-3.454027587429165E-01;8.134805069961314E+01;-2.056085653936703E+02;7.793478156890661E-01;-3.454027587429165E-01;
1.145000000000000E+08;7.566343331804415E-01;-3.967351287504441E-01;6.234390367199466E+01;-1.831432250494189E+02;7.566343331804415E-01;-3.967351287504441E-01;
1.150000000000000E+08;7.307816183679920E-01;-4.473348719795778E-01;4.876419537236868E+01;-1.641071773228869E+02;7.307816183679920E-01;-4.473348719795778E-01;
1.155000000000000E+08;7.009246154085111E-01;-4.968482002311799E-01;3.893001248136714E+01;-1.477377240800213E+02;7.009246154085111E-01;-4.968482002311799E-01;
1.160000000000000E+08;6.667557403596555E-01;-5.441103350429712E-01;3.185651690731031E+01;-1.336526453237519E+02;6.667557403596555E-01;-5.441103350429712E-01;
1.165000000000000E+08;6.285957021334843E-01;-5.881912689195802E-01;2.675067776293380E+01;-1.215496934288111E+02;6.285957021334843E-01;-5.881912689195802E-01;
1.170000000000000E+08;5.876230136826192E-01;-6.286088774579212E-01;2.296074683192669E+01;-1.112180715371214E+02;5.876230136826192E-01;-6.286088774579212E-01;
1.175000000000000E+08;5.447294471824268E-01;-6.653381633937283E-01;2.004742689327167E+01;-1.023681985825701E+02;5.447294471824268E-01;-6.653381633937283E-01;
1.180000000000000E+08;5.000661994353311E-01;-6.994769663130839E-01;1.763156953384715E+01;-9.462597854174982E+01;5.000661994353311E-01;-6.994769663130839E-01;
1.185000000000000E+08;4.531605713704406E-01;-7.304485405172290E-01;1.567944115455303E+01;-8.773224720383152E+01;4.531605713704406E-01;-7.304485405172290E-01;
1.190000000000000E+08;4.044988131767464E-01;-7.579394056930875E-01;1.409483981518071E+01;-8.157835092934984E+01;4.044988131767464E-01;-7.579394056930875E-01;
1.195000000000000E+08;3.548420641502336E-01;-7.817469544639537E-01;1.279782940933623E+01;-7.609301406644595E+01;3.548420641502336E-01;-7.817469544639537E-01;
1.200000000000000E+08;3.043628951999376E-01;-8.026867065855956E-01;1.165809836672123E+01;-7.114648653846464E+01;3.043628951999376E-01;-8.026867065855956E-01;
1.205000000000000E+08;2.529158261368430E-01;-8.207723823738345E-01;1.064969317539936E+01;-6.663184002467268E+01;2.529158261368430E-01;-8.207723823738345E-01;
1.210000000000000E+08;2.002972502941353E-01;-8.359463901035142E-01;9.753740766693232E+00;-6.246186337044688E+01;2.002972502941353E-01;-8.359463901035142E-01;
1.215000000000000E+08;1.466459837779547E-01;-8.477433673043405E-01;8.978830260601432E+00;-5.859105507717388E+01;1.466459837779547E-01;-8.477433673043405E-01;
1.220000000000000E+08;9.241275824012567E-02;-8.562845512605466E-01;8.293094423092894E+00;-5.499799237247674E+01;9.241275824012567E-02;-8.562845512605466E-01;
1.225000000000000E+08;3.746690512782269E-02;-8.613806525542342E-01;7.690375118263352E+00;-5.162770322413427E+01;3.746690512782269E-02;-8.613806525542342E-01;
1.230000000000000E+08;-1.764949996905617E-02;-8.631296600353163E-01;7.151949089343229E+00;-4.847400051721197E+01;-1.764949996905617E-02;-8.631296600353163E-01;
1.235000000000000E+08;-7.312497606316727E-02;-8.613182411338177E-01;6.675155026347924E+00;-4.548896534154194E+01;-7.312497606316727E-02;-8.613182411338177E-01;
1.240000000000000E+08;-1.284355390020552E-01;-8.559553494672215E-01;6.252279663356430E+00;-4.266919822478974E+01;-1.284355390020552E-01;-8.559553494672215E-01;
1.245000000000000E+08;-1.837626181019334E-01;-8.470129302734294E-01;5.871465502103618E+00;-3.997748618678933E+01;-1.837626181019334E-01;-8.470129302734294E-01;
1.250000000000000E+08;-2.384098794594704E-01;-8.342810838848568E-01;5.541946914288016E+00;-3.741701066932087E+01;-2.384098794594704E-01;-8.342810838848568E-01;
1.255000000000000E+08;-2.928619802558320E-01;-8.176965777300463E-01;5.247683644241858E+00;-3.494250935778112E+01;-2.928619802558320E-01;-8.176965777300463E-01;
1.260000000000000E+08;-3.464882690703307E-01;-7.968044742074453E-01;5.005222914859552E+00;-3.255015935162871E+01;-3.464882690703307E-01;-7.968044742074453E-01;
1.265000000000000E+08;-3.987264639875435E-01;-7.721398124923131E-01;4.795383168209619E+00;-3.024872837847631E+01;-3.987264639875435E-01;-7.721398124923131E-01;
1.270000000000000E+08;-4.487938526006439E-01;-7.437840190182241E-01;4.625739356562858E+00;-2.804384618800960E+01;-4.487938526006439E-01;-7.437840190182241E-01;
1.275000000000000E+08;-4.966619037491273E-01;-7.122970508814241E-01;4.476288358372893E+00;-2.592656326952205E+01;-4.966619037491273E-01;-7.122970508814241E-01;
1.280000000000000E+08;-5.422196420668467E-01;-6.777303529287149E-01;4.346376032915766E+00;-2.388258300213517E+01;-5.422196420668467E-01;-6.777303529287149E-01;
1.285000000000000E+08;-5.856247879079853E-01;-6.404153422907832E-01;4.221670269202466E+00;-2.189949967346522E+01;-5.856247879079853E-01;-6.404153422907832E-01;
1.290000000000000E+08;-6.263590111516775E-01;-6.002149765960126E-01;4.116331731844610E+00;-1.997187125423802E+01;-6.263590111516775E-01;-6.002149765960126E-01;
1.295000000000000E+08;-6.643046834885236E-01;-5.571262306107549E-01;4.030608601905934E+00;-1.808675394993711E+01;-6.643046834885236E-01;-5.571262306107549E-01;
1.300000000000000E+08;-6.990727477606286E-01;-5.115958450692342E-01;3.963169153704044E+00;-1.624847032723561E+01;-6.990727477606286E-01;-5.115958450692342E-01;
1.305000000000000E+08;-7.305764712327565E-01;-4.640725992327513E-01;3.907701793205716E+00;-1.445592708885981E+01;-7.305764712327565E-01;-4.640725992327513E-01;
1.310000000000000E+08;-7.588211811826888E-01;-4.146780049697806E-01;3.862188561369951E+00;-1.269911070829607E+01;-7.588211811826888E-01;-4.146780049697806E-01;
1.315000000000000E+08;-7.838165355524481E-01;-3.634635523336828E-01;3.824949985942587E+00;-1.096716345888940E+01;-7.838165355524481E-01;-3.634635523336828E-01;
1.320000000000000E+08;-8.051931877597323E-01;-3.106852109089684E-01;3.802083325391885E+00;-9.259680193029885E+00;-8.051931877597323E-01;-3.106852109089684E-01;
1.325000000000000E+08;-8.228670148274011E-01;-2.564292445146363E-01;3.794102432118178E+00;-7.567409434591777E+00;-8.228670148274011E-01;-2.564292445146363E-01;
1.330000000000000E+08;-8.369028772723796E-01;-2.013878822081987E-01;3.792884309565855E+00;-5.897554619251510E+00;-8.369028772723796E-01;-2.013878822081987E-01;
1.335000000000000E+08;-8.467427358429417E-01;-1.453995215328978E-01;3.815796381660432E+00;-4.237076931689499E+00;-8.467427358429417E-01;-1.453995215328978E-01;
1.340000000000000E+08;-8.526295390538945E-01;-8.914645210716279E-02;3.852640341785490E+00;-2.591328553211406E+00;-8.526295390538945E-01;-8.914645210716279E-02;
1.345000000000000E+08;-8.545567381092685E-01;-3.297317221687152E-02;3.904200782073998E+00;-9.583920831735827E-01;-8.545567381092685E-01;-3.297317221687152E-02;
1.350000000000000E+08;-8.525564049778088E-01;2.299499124711876E-02;3.971147603622792E+00;6.699207988526141E-01;-8.525564049778088E-01;2.299499124711876E-02;
1.355000000000000E+08;-8.471368676832894E-01;7.825824026390145E-02;4.040837135930688E+00;2.289565484094469E+00;-8.471368676832894E-01;7.825824026390145E-02;
1.360000000000000E+08;-8.379323562449481E-01;1.327475254496259E-01;4.126605563524809E+00;3.909378343077757E+00;-8.379323562449481E-01;1.327475254496259E-01;
1.365000000000000E+08;-8.254373640136291E-01;1.862752869934686E-01;4.216831274868689E+00;5.532512922490627E+00;-8.254373640136291E-01;1.862752869934686E-01;
1.370000000000000E+08;-8.091044810204062E-01;2.390685704439610E-01;4.327252991618360E+00;7.179208743946007E+00;-8.091044810204062E-01;2.390685704439610E-01;
1.375000000000000E+08;-7.892885079144225E-01;2.903995869856654E-01;4.453772816077390E+00;8.837788353110268E+00;-7.892885079144225E-01;2.903995869856654E-01;
1.380000000000000E+08;-7.655688634125326E-01;3.400974352801012E-01;4.612547243838450E+00;1.051988831284856E+01;-7.655688634125326E-01;3.400974352801012E-01;
1.385000000000000E+08;-7.386435067962246E-01;3.877395271039416E-01;4.791087977427981E+00;1.221910671097013E+01;-7.386435067962246E-01;3.877395271039416E-01;
1.390000000000000E+08;-7.088304892497963E-01;4.327251524814300E-01;4.993129361556622E+00;1.392584603219352E+01;-7.088304892497963E-01;4.327251524814300E-01;
1.395000000000000E+08;-6.756840780235251E-01;4.757195630383489E-01;5.226075773512245E+00;1.567844737552561E+01;-6.756840780235251E-01;4.757195630383489E-01;
1.400000000000000E+08;-6.400344232250753E-01;5.161627235796192E-01;5.478974663459648E+00;1.746071805455394E+01;-6.400344232250753E-01;5.161627235796192E-01;
1.405000000000000E+08;-6.014537538535699E-01;5.535677318866435E-01;5.778571745711592E+00;1.928074249715316E+01;-6.014537538535699E-01;5.535677318866435E-01;
1.410000000000000E+08;-5.605429549105977E-01;5.883596604101223E-01;6.105145036333016E+00;2.115289680233677E+01;-5.605429549105977E-01;5.883596604101223E-01;
1.415000000000000E+08;-5.170530341563718E-01;6.200249489728686E-01;6.482514350300900E+00;2.308460369507086E+01;-5.170530341563718E-01;6.200249489728686E-01;
1.420000000000000E+08;-4.707685589669909E-01;6.482315223706430E-01;6.932294890623302E+00;2.509253271971216E+01;-4.707685589669909E-01;6.482315223706430E-01;
