# Version 1.00
#
freq[Hz];re:Smith_S11;im:Smith_S11;re:Magnitude_Z<-S11[Ohm];im:Magnitude_Z<-S11[Ohm];re:Phase_S11;im:Phase_S11;
8.000000000000000E+07;-7.739767565336297E-01;-5.198244520493910E-01;1.913000391831492E+00;-1.521195071104194E+01;-7.739767565336297E-01;-5.198244520493910E-01;
8.050000000000000E+07;-8.010530571673848E-01;-4.756333268772370E-01;1.903259481475251E+00;-1.370693655287038E+01;-8.010530571673848E-01;-4.756333268772370E-01;
8.100000000000000E+07;-8.255532832205501E-01;-4.305490093508066E-01;1.891538870573368E+00;-1.223839964561311E+01;-8.255532832205501E-01;-4.305490093508066E-01;
8.150000000000000E+07;-8.473295228554730E-01;-3.848485021779689E-01;1.880571286711444E+00;-1.080812053551006E+01;-8.473295228554730E-01;-3.848485021779689E-01;
8.200000000000000E+07;-8.663451541536319E-01;-3.381217448375093E-01;1.877930643902925E+00;-9.398613321248412E+00;-8.663451541536319E-01;-3.381217448375093E-01;
8.250000000000000E+07;-8.829674722801591E-01;-2.907419605817106E-01;1.870990509130430E+00;-8.009205522641142E+00;-8.829674722801591E-01;-2.907419605817106E-01;
8.300000000000000E+07;-8.970671656465364E-01;-2.419362231354942E-01;1.869326265184089E+00;-6.614983971273625E+00;-8.970671656465364E-01;-2.419362231354942E-01;
8.350000000000000E+07;-9.082754594861082E-01;-1.917862416013908E-01;1.879316977676597E+00;-5.213995270198176E+00;-9.082754594861082E-01;-1.917862416013908E-01;
8.400000000000000E+07;-9.169314122782467E-01;-1.415446878662895E-01;1.883824914499682E+00;-3.831060285095945E+00;-9.169314122782467E-01;-1.415446878662895E-01;
8.450000000000000E+07;-9.227467901044092E-01;-9.153073740762718E-02;1.891334488393523E+00;-2.470243162143352E+00;-9.227467901044092E-01;-9.153073740762718E-02;
8.500000000000000E+07;-9.258812019113734E-01;-4.139932214277198E-02;1.900300053694833E+00;-1.115664475616142E+00;-9.258812019113734E-01;-4.139932214277198E-02;
8.550000000000000E+07;-9.261497222370298E-01;8.729431631081920E-03;1.915977729221706E+00;2.352864748341939E-01;-9.261497222370298E-01;8.729431631081920E-03;
8.600000000000000E+07;-9.236249924499836E-01;5.864807455329250E-02;1.936907148139248E+00;1.583468510986660E+00;-9.236249924499836E-01;5.864807455329250E-02;
8.650000000000000E+07;-9.187996076881652E-01;1.084203231973639E-01;1.950053949402123E+00;2.935398577708085E+00;-9.187996076881652E-01;1.084203231973639E-01;
8.700000000000000E+07;-9.108865384966051E-01;1.578687368748976E-01;1.976971825966668E+00;4.294100525300275E+00;-9.108865384966051E-01;1.578687368748976E-01;
8.750000000000000E+07;-9.005090740363100E-01;2.065288655552008E-01;2.003361236578675E+00;5.651220164099413E+00;-9.005090740363100E-01;2.065288655552008E-01;
8.800000000000000E+07;-8.876823575147011E-01;2.546943567234752E-01;2.027868545492705E+00;7.019827492764282E+00;-8.876823575147011E-01;2.546943567234752E-01;
8.850000000000000E+07;-8.719881816061595E-01;3.019317177909209E-01;2.064716243991903E+00;8.397483149897688E+00;-8.719881816061595E-01;3.019317177909209E-01;
8.900000000000000E+07;-8.538964077129760E-01;3.482991566757843E-01;2.101438437600515E+00;9.788511911406159E+00;-8.538964077129760E-01;3.482991566757843E-01;
8.950000000000000E+07;-8.335170475424348E-01;3.936159197006825E-01;2.137160674776868E+00;1.119270555847373E+01;-8.335170475424348E-01;3.936159197006825E-01;
9.000000000000000E+07;-8.104158539066343E-01;4.379257818866328E-01;2.182622752190470E+00;1.262257829897833E+01;-8.104158539066343E-01;4.379257818866328E-01;
9.050000000000000E+07;-7.850009780859262E-01;4.806856124628756E-01;2.234445039019074E+00;1.406629268750498E+01;-7.850009780859262E-01;4.806856124628756E-01;
9.100000000000000E+07;-7.571574924539962E-01;5.222944930037757E-01;2.290222435587337E+00;1.554265643992339E+01;-7.571574924539962E-01;5.222944930037757E-01;
9.150000000000000E+07;-7.274458379644807E-01;5.622199819895307E-01;2.344298828849364E+00;1.703614093017683E+01;-7.274458379644807E-01;5.622199819895307E-01;
9.200000000000000E+07;-6.955875124629134E-01;6.004110867120875E-01;2.405563823051563E+00;1.855691982483049E+01;-6.955875124629134E-01;6.004110867120875E-01;
9.250000000000000E+07;-6.616278634953312E-01;6.367699361876699E-01;2.475500630327589E+00;2.010968997444452E+01;-6.616278634953312E-01;6.367699361876699E-01;
9.300000000000000E+07;-6.259292697238319E-01;6.714468524540070E-01;2.542774948749811E+00;2.169816456070666E+01;-6.259292697238319E-01;6.714468524540070E-01;
9.350000000000000E+07;-5.885554462136358E-01;7.040142312353110E-01;2.616079685947516E+00;2.331833552238288E+01;-5.885554462136358E-01;7.040142312353110E-01;
9.400000000000000E+07;-5.490012907442213E-01;7.343110884145488E-01;2.711900976727922E+00;2.498831576830008E+01;-5.490012907442213E-01;7.343110884145488E-01;
9.450000000000000E+07;-5.081585255336588E-01;7.626307302196733E-01;2.803938997849977E+00;2.670137513704403E+01;-5.081585255336588E-01;7.626307302196733E-01;
9.500000000000000E+07;-4.655875506835020E-01;7.885646144642960E-01;2.913480890791241E+00;2.847028731866014E+01;-4.655875506835020E-01;7.885646144642960E-01;
9.550000000000000E+07;-4.220356786781173E-01;8.123586199834271E-01;3.019250473657583E+00;3.028802004980167E+01;-4.220356786781173E-01;8.123586199834271E-01;
9.600000000000000E+07;-3.769502669033273E-01;8.337263920969111E-01;3.141702727866217E+00;3.217664511938475E+01;-3.769502669033273E-01;8.337263920969111E-01;
9.650000000000000E+07;-3.307072113255038E-01;8.526777038628954E-01;3.274297224207085E+00;3.413658921018256E+01;-3.307072113255038E-01;8.526777038628954E-01;
9.700000000000000E+07;-2.838636509071838E-01;8.688296913990556E-01;3.423734753383386E+00;3.615347077267064E+01;-2.838636509071838E-01;8.688296913990556E-01;
9.750000000000000E+07;-2.358166933780522E-01;8.826789376121486E-01;3.582875645263846E+00;3.827143297399751E+01;-2.358166933780522E-01;8.826789376121486E-01;
9.800000000000000E+07;-1.871418606553279E-01;8.936162385437559E-01;3.768994872221977E+00;4.047439361751552E+01;-1.871418606553279E-01;8.936162385437559E-01;
9.850000000000000E+07;-1.380969038114419E-01;9.022085710009177E-01;3.957552347260319E+00;4.277400811380674E+01;-1.380969038114419E-01;9.022085710009177E-01;
9.900000000000000E+07;-8.840595075838303E-02;9.076914910952602E-01;4.189144080483546E+00;4.519180086925958E+01;-8.840595075838303E-02;9.076914910952602E-01;
9.950000000000000E+07;-3.847864775474096E-02;9.108315162902518E-01;4.426120115381474E+00;4.773620104531607E+01;-3.847864775474096E-02;9.108315162902518E-01;
1.000000000000000E+08;1.142694261645950E-02;9.108982344413026E-01;4.707600303748973E+00;5.040907817081190E+01;1.142694261645950E-02;9.108982344413026E-01;
1.005000000000000E+08;6.145757706165900E-02;9.090121608167139E-01;4.976667717729481E+00;5.324688399288149E+01;6.145757706165900E-02;9.090121608167139E-01;
1.010000000000000E+08;1.111681702366475E-01;9.044050448357075E-01;5.276625164835998E+00;5.624512645308884E+01;1.111681702366475E-01;9.044050448357075E-01;
1.015000000000000E+08;1.609356175816727E-01;8.968380095560328E-01;5.628057091417846E+00;5.945831695721235E+01;1.609356175816727E-01;8.968380095560328E-01;
1.020000000000000E+08;2.101850993852084E-01;8.864310435591428E-01;6.032425559543062E+00;6.288673640271094E+01;2.101850993852084E-01;8.864310435591428E-01;
1.025000000000000E+08;2.587199872985432E-01;8.735344020675065E-01;6.475963866966004E+00;6.655204036586497E+01;2.587199872985432E-01;8.735344020675065E-01;
1.030000000000000E+08;3.067671484695166E-01;8.574134653608715E-01;7.021958700283035E+00;7.052665652375576E+01;3.067671484695166E-01;8.574134653608715E-01;
1.035000000000000E+08;3.538206764615021E-01;8.388353102291572E-01;7.633223871912304E+00;7.481635741819235E+01;3.538206764615021E-01;8.388353102291572E-01;
1.040000000000000E+08;3.998673183987672E-01;8.175274443865340E-01;8.349697406560919E+00;7.948655433034718E+01;3.998673183987672E-01;8.175274443865340E-01;
1.045000000000000E+08;4.443794871760524E-01;7.933766732569437E-01;9.224449804822719E+00;8.456724666771144E+01;4.443794871760524E-01;7.933766732569437E-01;
1.050000000000000E+08;4.876859817415470E-01;7.672572049612266E-01;1.019085431788764E+01;9.014367165895693E+01;4.876859817415470E-01;7.672572049612266E-01;
1.055000000000000E+08;5.293655315757878E-01;7.383631627600294E-01;1.138628016013454E+01;9.630694521986351E+01;5.293655315757878E-01;7.383631627600294E-01;
1.060000000000000E+08;5.698479451590728E-01;7.071283708213648E-01;1.279029925258323E+01;1.032211784511522E+02;5.698479451590728E-01;7.071283708213648E-01;
1.065000000000000E+08;6.083731043135258E-01;6.733467776018307E-01;1.454315537810966E+01;1.109727809013844E+02;6.083731043135258E-01;6.733467776018307E-01;
1.070000000000000E+08;6.450930825849217E-01;6.369949672093287E-01;1.674676722477000E+01;1.197986083487498E+02;6.450930825849217E-01;6.369949672093287E-01;
1.075000000000000E+08;6.795008172197314E-01;5.987285226284216E-01;1.949311824482229E+01;1.298209613473192E+02;6.795008172197314E-01;5.987285226284216E-01;
1.080000000000000E+08;7.113027950697663E-01;5.581534432145975E-01;2.310986212812841E+01;1.413471297362254E+02;7.113027950697663E-01;5.581534432145975E-01;
1.085000000000000E+08;7.406601293559596E-01;5.157416198688739E-01;2.782221357510582E+01;1.547627612805277E+02;7.406601293559596E-01;5.157416198688739E-01;
1.090000000000000E+08;7.677886945552291E-01;4.713976455742079E-01;3.409253629450220E+01;1.707109976564866E+02;7.677886945552291E-01;4.713976455742079E-01;
1.095000000000000E+08;7.919095010198225E-01;4.252386365338164E-01;4.284384655338322E+01;1.897289444371819E+02;7.919095010198225E-01;4.252386365338164E-01;
1.100000000000000E+08;8.126574411556109E-01;3.769713601960413E-01;5.572102290230898E+01;2.127322165910187E+02;8.126574411556109E-01;3.769713601960413E-01;
1.105000000000000E+08;8.295999793996429E-01;3.274643023714936E-01;7.504676422960851E+01;2.403071975460523E+02;8.295999793996429E-01;3.274643023714936E-01;
1.110000000000000E+08;8.426110529986567E-01;2.773374365598255E-01;1.047773358387947E+02;2.727354771534506E+02;8.426110529986567E-01;2.773374365598255E-01;
1.115000000000000E+08;8.512308053436364E-01;2.272283990125163E-01;1.516798714173087E+02;3.080435731406639E+02;8.512308053436364E-01;2.272283990125163E-01;
1.120000000000000E+08;8.562627443458116E-01;1.781638274463606E-01;2.242933547168900E+02;3.399894738288010E+02;8.562627443458116E-01;1.781638274463606E-01;
1.125000000000000E+08;8.582829482558443E-01;1.303368516980581E-01;3.322811768960062E+02;3.515831330587119E+02;8.582829482558443E-01;1.303368516980581E-01;
1.130000000000000E+08;8.580285734223113E-01;8.395402468360418E-02;4.718738771132934E+02;3.086072558193416E+02;8.580285734223113E-01;8.395402468360418E-02;
1.135000000000000E+08;8.555598121262314E-01;3.836169719827648E-02;5.967107873728580E+02;1.717591465730988E+02;8.555598121262314E-01;3.836169719827648E-02;
1.140000000000000E+08;8.501903445529129E-01;-6.011733819325718E-03;6.164405158417940E+02;-2.674369002250375E+01;8.501903445529129E-01;-6.011733819325718E-03;
1.145000000000000E+08;8.422434613467156E-01;-4.845580948668355E-02;5.292399918175860E+02;-1.779168263336940E+02;8.422434613467156E-01;-4.845580948668355E-02;
1.150000000000000E+08;8.324874619318622E-01;-8.765993103320020E-02;4.186358336754030E+02;-2.452388658988743E+02;8.324874619318622E-01;-8.765993103320020E-02;
1.155000000000000E+08;8.236883468310980E-01;-1.224480746900716E-01;3.326263381471848E+02;-2.657331922748873E+02;8.236883468310980E-01;-1.224480746900716E-01;
1.160000000000000E+08;8.192500009848932E-01;-1.563334038539378E-01;2.664906293844455E+02;-2.737375250298628E+02;8.192500009848932E-01;-1.563334038539378E-01;
1.165000000000000E+08;8.175026559664544E-01;-1.945445683563847E-01;2.064862737303007E+02;-2.734177402769594E+02;8.175026559664544E-01;-1.945445683563847E-01;
1.170000000000000E+08;8.134406783278378E-01;-2.376447396776432E-01;1.543827149948572E+02;-2.603487012292794E+02;8.134406783278378E-01;-2.376447396776432E-01;
1.175000000000000E+08;8.049548133728756E-01;-2.830480409486629E-01;1.150703598890808E+02;-2.395488081160237E+02;8.049548133728756E-01;-2.830480409486629E-01;
1.180000000000000E+08;7.926978250726454E-01;-3.286298627161478E-01;8.731187187862447E+01;-2.176763539532705E+02;7.926978250726454E-01;-3.286298627161478E-01;
1.185000000000000E+08;7.771852917557851E-01;-3.741217734386734E-01;6.750994177571918E+01;-1.973075662744035E+02;7.771852917557851E-01;-3.741217734386734E-01;
1.190000000000000E+08;7.577347721462675E-01;-4.195205746682902E-01;5.322777969551144E+01;-1.787552338536123E+02;7.577347721462675E-01;-4.195205746682902E-01;
1.195000000000000E+08;7.343471406927230E-01;-4.633459940308166E-01;4.312626126758351E+01;-1.624288186090682E+02;7.343471406927230E-01;-4.633459940308166E-01;
1.200000000000000E+08;7.082671544299357E-01;-5.050138560600692E-01;3.576668452303593E+01;-1.484692749896872E+02;7.082671544299357E-01;-5.050138560600692E-01;
1.205000000000000E+08;6.801403019623558E-01;-5.447844520813335E-01;3.014518592788796E+01;-1.365031339382509E+02;6.801403019623558E-01;-5.447844520813335E-01;
1.210000000000000E+08;6.498267634600398E-01;-5.831711131593710E-01;2.567879568144943E+01;-1.260338681396490E+02;6.498267634600398E-01;-5.831711131593710E-01;
1.215000000000000E+08;6.174552116741779E-01;-6.197384489442793E-01;2.212161787791545E+01;-1.168400170725690E+02;6.174552116741779E-01;-6.197384489442793E-01;
1.220000000000000E+08;5.831640595778086E-01;-6.546125052106061E-01;1.921083983474631E+01;-1.086909185567466E+02;5.831640595778086E-01;-6.546125052106061E-01;
1.225000000000000E+08;5.469874107999083E-01;-6.878864293994211E-01;1.677581807564075E+01;-1.013971358884005E+02;5.469874107999083E-01;-6.878864293994211E-01;
1.230000000000000E+08;5.091610380683611E-01;-7.193656013428773E-01;1.471949480223823E+01;-9.485183921382244E+01;5.091610380683611E-01;-7.193656013428773E-01;
1.235000000000000E+08;4.690718672694148E-01;-7.492690928774294E-01;1.295922555637014E+01;-8.885082351592895E+01;4.690718672694148E-01;-7.492690928774294E-01;
1.240000000000000E+08;4.269541836626745E-01;-7.770735025038206E-01;1.147077998039858E+01;-8.335688515504606E+01;4.269541836626745E-01;-7.770735025038206E-01;
1.245000000000000E+08;3.828131059069451E-01;-8.025373956641991E-01;1.021418185490111E+01;-7.829740577834896E+01;3.828131059069451E-01;-8.025373956641991E-01;
1.250000000000000E+08;3.369732252472071E-01;-8.253869789144720E-01;9.152966699370021E+00;-7.363818526940375E+01;3.369732252472071E-01;-8.253869789144720E-01;
1.255000000000000E+08;2.893497935596547E-01;-8.456777783945056E-01;8.240726055959358E+00;-6.930679450554861E+01;2.893497935596547E-01;-8.456777783945056E-01;
1.260000000000000E+08;2.399184319965141E-01;-8.628619204951068E-01;7.483749332247139E+00;-6.525686246591708E+01;2.399184319965141E-01;-8.628619204951068E-01;
1.265000000000000E+08;1.890465939558356E-01;-8.768875562366031E-01;6.846092775185077E+00;-6.146793515349828E+01;1.890465939558356E-01;-8.768875562366031E-01;
1.270000000000000E+08;1.373664188139419E-01;-8.874327193910373E-01;6.319676881026139E+00;-5.793876461548692E+01;1.373664188139419E-01;-8.874327193910373E-01;
1.275000000000000E+08;8.508984990189214E-02;-8.946378583963870E-01;5.874508861164019E+00;-5.463645904588714E+01;8.508984990189214E-02;-8.946378583963870E-01;
1.280000000000000E+08;3.254093858366285E-02;-8.985235832237342E-01;5.495155069189420E+00;-5.154089467240668E+01;3.254093858366285E-02;-8.985235832237342E-01;
1.285000000000000E+08;-1.999943249103458E-02;-8.992704628431822E-01;5.162351451507967E+00;-4.863323619717001E+01;-1.999943249103458E-02;-8.992704628431822E-01;
1.290000000000000E+08;-7.249930372283576E-02;-8.969021464918135E-01;4.868049772230584E+00;-4.588466532678595E+01;-7.249930372283576E-02;-8.969021464918135E-01;
1.295000000000000E+08;-1.245878140615947E-01;-8.914220882900108E-01;4.609373838019860E+00;-4.328697275411815E+01;-1.245878140615947E-01;-8.914220882900108E-01;
1.300000000000000E+08;-1.762820481834806E-01;-8.827764530289086E-01;4.383638098988887E+00;-4.081384666030768E+01;-1.762820481834806E-01;-8.827764530289086E-01;
1.305000000000000E+08;-2.274628641008099E-01;-8.713710925217955E-01;4.169836987454237E+00;-3.845495567970921E+01;-2.274628641008099E-01;-8.713710925217955E-01;
1.310000000000000E+08;-2.776910281106132E-01;-8.569919075647650E-01;3.980950084001663E+00;-3.620690477341442E+01;-2.776910281106132E-01;-8.569919075647650E-01;
1.315000000000000E+08;-3.271563587459243E-01;-8.393506655782077E-01;3.821378156496893E+00;-3.403895048257878E+01;-3.271563587459243E-01;-8.393506655782077E-01;
1.320000000000000E+08;-3.754615982676143E-01;-8.191018861789297E-01;3.669795463378262E+00;-3.196092915299064E+01;-3.754615982676143E-01;-8.191018861789297E-01;
1.325000000000000E+08;-4.222544457058946E-01;-7.958064279398764E-01;3.546406523401230E+00;-2.996128761141254E+01;-4.222544457058946E-01;-7.958064279398764E-01;
1.330000000000000E+08;-4.676289300697737E-01;-7.699336292898370E-01;3.431812022413410E+00;-2.803089262351437E+01;-4.676289300697737E-01;-7.699336292898370E-01;
1.335000000000000E+08;-5.111717563738730E-01;-7.415969259169637E-01;3.330340029183847E+00;-2.617148981043047E+01;-5.111717563738730E-01;-7.415969259169637E-01;
1.340000000000000E+08;-5.528176892250888E-01;-7.107654542701972E-01;3.243778379424179E+00;-2.437107626317585E+01;-5.528176892250888E-01;-7.107654542701972E-01;
1.345000000000000E+08;-5.924964237777278E-01;-6.778566564632632E-01;3.162346163776462E+00;-2.262890495843894E+01;-5.924964237777278E-01;-6.778566564632632E-01;
1.350000000000000E+08;-6.301934405983395E-01;-6.426546738229115E-01;3.091499614499013E+00;-2.092972497484839E+01;-6.301934405983395E-01;-6.426546738229115E-01;
1.355000000000000E+08;-6.655997737151794E-01;-6.055748775308266E-01;3.028644205188350E+00;-1.928003066940501E+01;-6.655997737151794E-01;-6.055748775308266E-01;
1.360000000000000E+08;-6.988525972192001E-01;-5.668720068393651E-01;2.965931347234624E+00;-1.767363680996796E+01;-6.988525972192001E-01;-5.668720068393651E-01;
1.365000000000000E+08;-7.295995220524293E-01;-5.263143855557911E-01;2.916880221880818E+00;-1.610252254606275E+01;-7.295995220524293E-01;-5.263143855557911E-01;
1.370000000000000E+08;-7.581307848092146E-01;-4.843603915198622E-01;2.866115449366163E+00;-1.456447529298449E+01;-7.581307848092146E-01;-4.843603915198622E-01;
1.375000000000000E+08;-7.843556664279290E-01;-4.407939797743935E-01;2.819333902150712E+00;-1.304809620515302E+01;-7.843556664279290E-01;-4.407939797743935E-01;
1.380000000000000E+08;-8.081959714923718E-01;-3.961218772215759E-01;2.771159340379888E+00;-1.156058913449380E+01;-8.081959714923718E-01;-3.961218772215759E-01;
1.385000000000000E+08;-8.291060195104386E-01;-3.500702046416281E-01;2.739681489762834E+00;-1.009377854258939E+01;-8.291060195104386E-01;-3.500702046416281E-01;
1.390000000000000E+08;-8.470206753115714E-01;-3.031551347912687E-01;2.720979199135377E+00;-8.653197968531384E+00;-8.470206753115714E-01;-3.031551347912687E-01;
1.395000000000000E+08;-8.625492040273721E-01;-2.552384461848429E-01;2.700190300267126E+00;-7.221884209448262E+00;-8.625492040273721E-01;-2.552384461848429E-01;
1.400000000000000E+08;-8.754718787935368E-01;-2.065903763866414E-01;2.680694094657464E+00;-5.802979263184626E+00;-8.754718787935368E-01;-2.065903763866414E-01;
1.405000000000000E+08;-8.850136310194135E-01;-1.577444198097892E-01;2.681092900987597E+00;-4.408534929329806E+00;-8.850136310194135E-01;-1.577444198097892E-01;
1.410000000000000E+08;-8.922525279727173E-01;-1.084738381922145E-01;2.673972700700669E+00;-3.019548346329022E+00;-8.922525279727173E-01;-1.084738381922145E-01;
1.415000000000000E+08;-8.965065545713710E-01;-5.901183435807263E-02;2.677525642271087E+00;-1.639117676710270E+00;-8.965065545713710E-01;-5.901183435807263E-02;
1.420000000000000E+08;-8.980267385374004E-01;-9.710675973680612E-03;2.684917705568852E+00;-2.695463420779025E-01;-8.980267385374004E-01;-9.710675973680612E-03;
