# Version 1.00
#
freq[Hz];re:Smith_S11;im:Smith_S11;re:Magnitude_Z<-S11[Ohm];im:Magnitude_Z<-S11[Ohm];re:Phase_S11;im:Phase_S11;
8.000000000000000E+07;-8.191398615141366E-01;-4.099114648107143E-01;2.314764412780296E+00;-1.178822044711902E+01;-8.191398615141366E-01;-4.099114648107143E-01;
8.050000000000000E+07;-8.405770003836989E-01;-3.619891333459112E-01;2.307548422589853E+00;-1.028740667573012E+01;-8.405770003836989E-01;-3.619891333459112E-01;
8.100000000000000E+07;-8.590560652214915E-01;-3.134347786779424E-01;2.303968382326127E+00;-8.818390720206326E+00;-8.590560652214915E-01;-3.134347786779424E-01;
8.150000000000000E+07;-8.743348571986294E-01;-2.643935297800238E-01;2.311373102456711E+00;-7.379038238060484E+00;-8.743348571986294E-01;-2.643935297800238E-01;
8.200000000000000E+07;-8.870572311987961E-01;-2.150697747079632E-01;2.313049041665357E+00;-5.962169819582086E+00;-8.870572311987961E-01;-2.150697747079632E-01;
8.250000000000000E+07;-8.969416329455812E-01;-1.652802904978522E-01;2.319247242702124E+00;-4.558569558872048E+00;-8.969416329455812E-01;-1.652802904978522E-01;
8.300000000000000E+07;-9.042229170180072E-01;-1.146560859497193E-01;2.325159234822384E+00;-3.150575439957174E+00;-9.042229170180072E-01;-1.146560859497193E-01;
8.350000000000000E+07;-9.086877955691401E-01;-6.264099197219042E-02;2.335645589280181E+00;-1.717597169546499E+00;-9.086877955691401E-01;-6.264099197219042E-02;
8.400000000000000E+07;-9.100292476588487E-01;-1.131051239798405E-02;2.353383415084660E+00;-3.100180758585383E-01;-9.100292476588487E-01;-1.131051239798405E-02;
8.450000000000000E+07;-9.086039152908977E-01;4.012776724105420E-02;2.371167771310503E+00;1.101086513358139E+00;-9.086039152908977E-01;4.012776724105420E-02;
8.500000000000000E+07;-9.040639078234203E-01;9.080826939048217E-02;2.400061155916461E+00;2.499054180888074E+00;-9.040639078234203E-01;9.080826939048217E-02;
8.550000000000000E+07;-8.968621086642208E-01;1.411373401906198E-01;2.428390504063233E+00;3.900970741320501E+00;-8.968621086642208E-01;1.411373401906198E-01;
8.600000000000000E+07;-8.867054134598206E-01;1.908421331009463E-01;2.465641570520179E+00;5.306951938759031E+00;-8.867054134598206E-01;1.908421331009463E-01;
8.650000000000000E+07;-8.738246780078439E-01;2.400185536777534E-01;2.505325761174181E+00;6.725417002712546E+00;-8.738246780078439E-01;2.400185536777534E-01;
8.700000000000000E+07;-8.584815341042331E-01;2.889047274104733E-01;2.537775224774762E+00;8.167103816493981E+00;-8.584815341042331E-01;2.889047274104733E-01;
8.750000000000000E+07;-8.401765229808431E-01;3.360024546708559E-01;2.589284558691482E+00;9.602409595184486E+00;-8.401765229808431E-01;3.360024546708559E-01;
8.800000000000000E+07;-8.194630399620648E-01;3.823620535130322E-01;2.636653567247364E+00;1.106164758831616E+01;-8.194630399620648E-01;3.823620535130322E-01;
8.850000000000000E+07;-7.955833223560070E-01;4.276520187384271E-01;2.702680056533400E+00;1.255213681174596E+01;-7.955833223560070E-01;4.276520187384271E-01;
8.900000000000000E+07;-7.693896806787750E-01;4.713470513280826E-01;2.771795152903990E+00;1.405785865613773E+01;-7.693896806787750E-01;4.713470513280826E-01;
8.950000000000000E+07;-7.407623101585161E-01;5.135915848039705E-01;2.845980438373887E+00;1.559158920518709E+01;-7.407623101585161E-01;5.135915848039705E-01;
9.000000000000000E+07;-7.094634588884803E-01;5.540321961038490E-01;2.937398240442478E+00;1.715685869193517E+01;-7.094634588884803E-01;5.540321961038490E-01;
9.050000000000000E+07;-6.760383810481037E-01;5.930110924350857E-01;3.026321824239533E+00;1.876162108718691E+01;-6.760383810481037E-01;5.930110924350857E-01;
9.100000000000000E+07;-6.403064500657458E-01;6.299364762891276E-01;3.128621301508405E+00;2.040329506198690E+01;-6.403064500657458E-01;6.299364762891276E-01;
9.150000000000000E+07;-6.024502694747270E-01;6.647525683643315E-01;3.242099172993529E+00;2.208668989269628E+01;-6.024502694747270E-01;6.647525683643315E-01;
9.200000000000000E+07;-5.628110755917517E-01;6.971763061704846E-01;3.366798451708007E+00;2.380714342110649E+01;-5.628110755917517E-01;6.971763061704846E-01;
9.250000000000000E+07;-5.210751887467729E-01;7.276013733947431E-01;3.501085883283787E+00;2.559207056612373E+01;-5.210751887467729E-01;7.276013733947431E-01;
9.300000000000000E+07;-4.776770827108663E-01;7.553227129316284E-01;3.654849976890569E+00;2.742596966594107E+01;-4.776770827108663E-01;7.553227129316284E-01;
9.350000000000000E+07;-4.323545742805824E-01;7.806627427365094E-01;3.826184624320695E+00;2.933637918597707E+01;-4.323545742805824E-01;7.806627427365094E-01;
9.400000000000000E+07;-3.854829449843508E-01;8.036269390001175E-01;4.006944435319737E+00;3.132585326901707E+01;-3.854829449843508E-01;8.036269390001175E-01;
9.450000000000000E+07;-3.369523864137616E-01;8.231730864461994E-01;4.236195684037231E+00;3.339369229003489E+01;-3.369523864137616E-01;8.231730864461994E-01;
9.500000000000000E+07;-2.871000840598023E-01;8.400657021285285E-01;4.484185721983315E+00;3.556078994965899E+01;-2.871000840598023E-01;8.400657021285285E-01;
9.550000000000000E+07;-2.361735078869121E-01;8.536047644698387E-01;4.776325433230732E+00;3.782424722066898E+01;-2.361735078869121E-01;8.536047644698387E-01;
9.600000000000000E+07;-1.846751282311896E-01;8.636559761564844E-01;5.117657789323731E+00;4.018206629573788E+01;-1.846751282311896E-01;8.636559761564844E-01;
9.650000000000000E+07;-1.322055503696955E-01;8.707890868237931E-01;5.495836707689523E+00;4.268232826930748E+01;-1.322055503696955E-01;8.707890868237931E-01;
9.700000000000000E+07;-7.900766136634553E-02;8.745215000937093E-01;5.934799067280774E+00;4.533441803908614E+01;-7.900766136634553E-02;8.745215000937093E-01;
9.750000000000000E+07;-2.552320115185676E-02;8.744332583159482E-01;6.461239623092183E+00;4.814282668273558E+01;-2.552320115185676E-02;8.744332583159482E-01;
9.800000000000000E+07;2.781797664653277E-02;8.704956724260754E-01;7.089769189832789E+00;5.111840769090652E+01;2.781797664653277E-02;8.704956724260754E-01;
9.850000000000000E+07;8.136237757404707E-02;8.630254798594957E-01;7.822934586039554E+00;5.432247128766321E+01;8.136237757404707E-02;8.630254798594957E-01;
9.900000000000000E+07;1.337576074790758E-01;8.515393255921156E-01;8.708591388442001E+00;5.771210777608001E+01;1.337576074790758E-01;8.515393255921156E-01;
9.950000000000000E+07;1.855901166258077E-01;8.366535891037256E-01;9.740200152177726E+00;6.137186432956089E+01;1.855901166258077E-01;8.366535891037256E-01;
1.000000000000000E+08;2.361579219087053E-01;8.179728073647778E-01;1.098372862375065E+01;6.530542521379536E+01;2.361579219087053E-01;8.179728073647778E-01;
1.005000000000000E+08;2.864407428178717E-01;7.959642143857950E-01;1.244360892602594E+01;6.965487115743763E+01;2.864407428178717E-01;7.959642143857950E-01;
1.010000000000000E+08;3.356961244407096E-01;7.699356975012552E-01;1.423977168187954E+01;7.445462120112958E+01;3.356961244407096E-01;7.699356975012552E-01;
1.015000000000000E+08;3.845312139592890E-01;7.380077246091610E-01;1.664832623144126E+01;7.991791087813426E+01;3.845312139592890E-01;7.380077246091610E-01;
1.020000000000000E+08;4.304827501651231E-01;6.991720717319420E-01;2.003482712447736E+01;8.597877445890590E+01;4.304827501651231E-01;6.991720717319420E-01;
1.025000000000000E+08;4.712027271184820E-01;6.529371890837695E-01;2.490539410697831E+01;9.249010912804154E+01;4.712027271184820E-01;6.529371890837695E-01;
1.030000000000000E+08;5.039959914353629E-01;6.000853931551708E-01;3.183231028481065E+01;9.900398634310068E+01;5.039959914353629E-01;6.000853931551708E-01;
1.035000000000000E+08;5.253840063162564E-01;5.431201036083029E-01;4.123023733726105E+01;1.043980325446846E+02;5.253840063162564E-01;5.431201036083029E-01;
1.040000000000000E+08;5.338334104029554E-01;4.858198773819668E-01;5.283111278603214E+01;1.071664072878853E+02;5.338334104029554E-01;4.858198773819668E-01;
1.045000000000000E+08;5.294757763420568E-01;4.338736803823486E-01;6.486302483726679E+01;1.059159992626083E+02;5.294757763420568E-01;4.338736803823486E-01;
1.050000000000000E+08;5.164300509141735E-01;3.897258050641359E-01;7.536614727407695E+01;1.010369291279244E+02;5.164300509141735E-01;3.897258050641359E-01;
1.055000000000000E+08;4.948495928575929E-01;3.539002925050744E-01;8.278673190085019E+01;9.302825969465347E+01;4.948495928575929E-01;3.539002925050744E-01;
1.060000000000000E+08;4.658400182084866E-01;3.330489733986385E-01;8.480428955094575E+01;8.405053125488293E+01;4.658400182084866E-01;3.330489733986385E-01;
1.065000000000000E+08;4.365006681805816E-01;3.307969609488833E-01;8.197999922331348E+01;7.747761209963443E+01;4.365006681805816E-01;3.307969609488833E-01;
1.070000000000000E+08;4.170158756971632E-01;3.489398130823330E-01;7.628832139225632E+01;7.558871918475171E+01;4.170158756971632E-01;3.489398130823330E-01;
1.075000000000000E+08;4.199405423520043E-01;3.786873355984511E-01;7.087768429392584E+01;7.891406233454710E+01;4.199405423520043E-01;3.786873355984511E-01;
1.080000000000000E+08;4.464090374889166E-01;4.031105605268771E-01;6.804624919600256E+01;8.595821265876120E+01;4.464090374889166E-01;4.031105605268771E-01;
1.085000000000000E+08;4.842079465648403E-01;4.137793541409757E-01;6.796143982856648E+01;9.463117560794240E+01;4.842079465648403E-01;4.137793541409757E-01;
1.090000000000000E+08;5.254048470267075E-01;4.139348482157419E-01;6.967119376393184E+01;1.043754389738940E+02;5.254048470267075E-01;4.139348482157419E-01;
1.095000000000000E+08;5.700771628309842E-01;4.068635578617164E-01;7.270481865237090E+01;1.161234406909481E+02;5.700771628309842E-01;4.068635578617164E-01;
1.100000000000000E+08;6.184865126703886E-01;3.897825524878236E-01;7.824716503325288E+01;1.310268417661484E+02;6.184865126703886E-01;3.897825524878236E-01;
1.105000000000000E+08;6.659304899886191E-01;3.604127371890208E-01;8.833118683691988E+01;1.492393654386528E+02;6.659304899886191E-01;3.604127371890208E-01;
1.110000000000000E+08;7.078382473675358E-01;3.217416376608614E-01;1.046842838467702E+02;1.703452774253630E+02;7.078382473675358E-01;3.217416376608614E-01;
1.115000000000000E+08;7.433746760388795E-01;2.766947648554062E-01;1.301934707221490E+02;1.942855414280870E+02;7.433746760388795E-01;2.766947648554062E-01;
1.120000000000000E+08;7.720856936641639E-01;2.277688836481249E-01;1.695207221227708E+02;2.193806550338170E+02;7.720856936641639E-01;2.277688836481249E-01;
1.125000000000000E+08;7.941884807640300E-01;1.770255616131016E-01;2.292693169555532E+02;2.402091382391573E+02;7.941884807640300E-01;1.770255616131016E-01;
1.130000000000000E+08;8.117546147720244E-01;1.258641935588111E-01;3.171066415864480E+02;2.454539926033474E+02;8.117546147720244E-01;1.258641935588111E-01;
1.135000000000000E+08;8.254137946361957E-01;7.356335870739275E-02;4.364221526262361E+02;2.049580447796625E+02;8.254137946361957E-01;7.356335870739275E-02;
1.140000000000000E+08;8.350875940386185E-01;2.004062662105495E-02;5.475578998316201E+02;7.261694282594853E+01;8.350875940386185E-01;2.004062662105495E-02;
1.145000000000000E+08;8.406306445140787E-01;-3.421821830040049E-02;5.498211778789486E+02;-1.287876953714503E+02;8.406306445140787E-01;-3.421821830040049E-02;
1.150000000000000E+08;8.421927831365270E-01;-8.919523769011088E-02;4.302570319237869E+02;-2.714491831628303E+02;8.421927831365270E-01;-8.919523769011088E-02;
1.155000000000000E+08;8.394214270326427E-01;-1.447835020550952E-01;2.935001799691090E+02;-3.097122990537030E+02;8.394214270326427E-01;-1.447835020550952E-01;
1.160000000000000E+08;8.318078980541821E-01;-2.004617506344873E-01;1.956309524667889E+02;-2.927581626714630E+02;8.318078980541821E-01;-2.004617506344873E-01;
1.165000000000000E+08;8.189456451355549E-01;-2.552777227082354E-01;1.348485655291219E+02;-2.606273728653894E+02;8.189456451355549E-01;-2.552777227082354E-01;
1.170000000000000E+08;8.017106137183554E-01;-3.081515830901611E-01;9.767290491800986E+01;-2.294910498405228E+02;8.017106137183554E-01;-3.081515830901611E-01;
1.175000000000000E+08;7.809547602693497E-01;-3.588205056859243E-01;7.394135447326045E+01;-2.030297464678060E+02;7.809547602693497E-01;-3.588205056859243E-01;
1.180000000000000E+08;7.574090691262352E-01;-4.075051933571390E-01;5.786093206240400E+01;-1.811852150344529E+02;7.574090691262352E-01;-4.075051933571390E-01;
1.185000000000000E+08;7.305619391946375E-01;-4.542285565237994E-01;4.660032480191743E+01;-1.628523674916229E+02;7.305619391946375E-01;-4.542285565237994E-01;
1.190000000000000E+08;7.007762758114601E-01;-4.983642812333159E-01;3.855345830264016E+01;-1.474879063062270E+02;7.007762758114601E-01;-4.983642812333159E-01;
1.195000000000000E+08;6.689356002641861E-01;-5.396539001578035E-01;3.259472234235607E+01;-1.346341197666430E+02;6.689356002641861E-01;-5.396539001578035E-01;
1.200000000000000E+08;6.357588626334614E-01;-5.788523784870524E-01;2.787228532420732E+01;-1.237547134407801E+02;6.357588626334614E-01;-5.788523784870524E-01;
1.205000000000000E+08;6.007920799539976E-01;-6.167670155708461E-01;2.395909709600041E+01;-1.142650967068943E+02;6.007920799539976E-01;-6.167670155708461E-01;
1.210000000000000E+08;5.632117986945412E-01;-6.529024715733058E-01;2.078473057144723E+01;-1.058076326274861E+02;5.632117986945412E-01;-6.529024715733058E-01;
1.215000000000000E+08;5.234746968703813E-01;-6.868453487322053E-01;1.818873363970434E+01;-9.828463300642538E+01;5.234746968703813E-01;-6.868453487322053E-01;
1.220000000000000E+08;4.816430280297506E-01;-7.183681143690126E-01;1.605404944091762E+01;-9.154140005670249E+01;4.816430280297506E-01;-7.183681143690126E-01;
1.225000000000000E+08;4.376385311557357E-01;-7.474077736543563E-01;1.427952027928944E+01;-8.543084084734546E+01;4.376385311557357E-01;-7.474077736543563E-01;
1.230000000000000E+08;3.920252047485639E-01;-7.736963948805382E-01;1.279178017566551E+01;-7.990754605205635E+01;3.920252047485639E-01;-7.736963948805382E-01;
1.235000000000000E+08;3.445028287471351E-01;-7.970523089581453E-01;1.155082613470134E+01;-7.484277620172971E+01;3.445028287471351E-01;-7.970523089581453E-01;
1.240000000000000E+08;2.958780770513806E-01;-8.171491913593346E-01;1.051650426830872E+01;-7.023075253737083E+01;2.958780770513806E-01;-8.171491913593346E-01;
1.245000000000000E+08;2.462948195963482E-01;-8.343455824596629E-01;9.618949997910493E+00;-6.599769890794710E+01;2.462948195963482E-01;-8.343455824596629E-01;
1.250000000000000E+08;1.958232874560716E-01;-8.488524859683744E-01;8.817062307209987E+00;-6.208462490649988E+01;1.958232874560716E-01;-8.488524859683744E-01;
1.255000000000000E+08;1.439295416288321E-01;-8.606013244262535E-01;8.098101848803600E+00;-5.840559373216154E+01;1.439295416288321E-01;-8.606013244262535E-01;
1.260000000000000E+08;9.074208766169788E-02;-8.688570856198030E-01;7.487476796075731E+00;-5.493315028760554E+01;9.074208766169788E-02;-8.688570856198030E-01;
1.265000000000000E+08;3.672300818783698E-02;-8.734987022585594E-01;6.968214649841565E+00;-5.165872536102999E+01;3.672300818783698E-02;-8.734987022585594E-01;
1.270000000000000E+08;-1.772275637078922E-02;-8.743798783768852E-01;6.530738234190541E+00;-4.856857106942626E+01;-1.772275637078922E-02;-8.743798783768852E-01;
1.275000000000000E+08;-7.185695624592989E-02;-8.713710996812823E-01;6.172133787319909E+00;-4.566539751827722E+01;-7.185695624592989E-02;-8.713710996812823E-01;
1.280000000000000E+08;-1.253749716423732E-01;-8.651611089401494E-01;5.850634778620829E+00;-4.293661964915118E+01;-1.253749716423732E-01;-8.651611089401494E-01;
1.285000000000000E+08;-1.785197303336873E-01;-8.556985547717246E-01;5.560970470566246E+00;-4.034165988881367E+01;-1.785197303336873E-01;-8.556985547717246E-01;
1.290000000000000E+08;-2.310444500094832E-01;-8.428572479959795E-01;5.305996982243786E+00;-3.786626909675670E+01;-2.310444500094832E-01;-8.428572479959795E-01;
1.295000000000000E+08;-2.825791432864264E-01;-8.266318584520644E-01;5.085809366151106E+00;-3.550321647520239E+01;-2.825791432864264E-01;-8.266318584520644E-01;
1.300000000000000E+08;-3.328813511885960E-01;-8.070988920290839E-01;4.896688923573941E+00;-3.324156104875428E+01;-3.328813511885960E-01;-8.070988920290839E-01;
1.305000000000000E+08;-3.817239986261506E-01;-7.844859596178739E-01;4.730858638687589E+00;-3.107392663265017E+01;-3.817239986261506E-01;-7.844859596178739E-01;
1.310000000000000E+08;-4.290965695757749E-01;-7.588969008465818E-01;4.582305085861507E+00;-2.898498467673117E+01;-4.290965695757749E-01;-7.588969008465818E-01;
1.315000000000000E+08;-4.744490046051217E-01;-7.305893537269672E-01;4.452707745483833E+00;-2.698131195870744E+01;-4.744490046051217E-01;-7.305893537269672E-01;
1.320000000000000E+08;-5.181008560841682E-01;-6.994405741231650E-01;4.337287580857448E+00;-2.503503207282514E+01;-5.181008560841682E-01;-6.994405741231650E-01;
1.325000000000000E+08;-5.595771381641884E-01;-6.654554376993895E-01;4.244052140441080E+00;-2.314537612560561E+01;-5.595771381641884E-01;-6.654554376993895E-01;
1.330000000000000E+08;-5.983812306469610E-01;-6.289395588069999E-01;4.175297853462759E+00;-2.131718470968487E+01;-5.983812306469610E-01;-6.289395588069999E-01;
1.335000000000000E+08;-6.344698753015744E-01;-5.900082631517400E-01;4.128661096135230E+00;-1.953927557959265E+01;-6.344698753015744E-01;-5.900082631517400E-01;
1.340000000000000E+08;-6.674121126961756E-01;-5.494878255131888E-01;4.098114974303430E+00;-1.782777954846786E+01;-6.674121126961756E-01;-5.494878255131888E-01;
1.345000000000000E+08;-6.977454953788502E-01;-5.074682908360049E-01;4.070672663648772E+00;-1.616211140931457E+01;-6.977454953788502E-01;-5.074682908360049E-01;
1.350000000000000E+08;-7.254335909210055E-01;-4.643906957000881E-01;4.041734843730297E+00;-1.454502739078098E+01;-7.254335909210055E-01;-4.643906957000881E-01;
1.355000000000000E+08;-7.504285430241454E-01;-4.198680178459787E-01;4.020749852483180E+00;-1.295773269552009E+01;-7.504285430241454E-01;-4.198680178459787E-01;
1.360000000000000E+08;-7.729129346474658E-01;-3.744742870896426E-01;3.995408832737282E+00;-1.140489859011249E+01;-7.729129346474658E-01;-3.744742870896426E-01;
1.365000000000000E+08;-7.930333793256705E-01;-3.281201181447882E-01;3.964256139259651E+00;-9.875308683137122E+00;-7.930333793256705E-01;-3.281201181447882E-01;
1.370000000000000E+08;-8.105684598779620E-01;-2.806669571940015E-01;3.935212628738311E+00;-8.360817251361929E+00;-8.105684598779620E-01;-2.806669571940015E-01;
1.375000000000000E+08;-8.255076854227532E-01;-2.319870379328261E-01;3.908681527751118E+00;-6.850760172828776E+00;-8.255076854227532E-01;-2.319870379328261E-01;
1.380000000000000E+08;-8.372159329573736E-01;-1.821985563075304E-01;3.900081988020280E+00;-5.345325471495718E+00;-8.372159329573736E-01;-1.821985563075304E-01;
1.385000000000000E+08;-8.456151926273079E-01;-1.315954382325785E-01;3.908409075087297E+00;-3.843759384402597E+00;-8.456151926273079E-01;-1.315954382325785E-01;
1.390000000000000E+08;-8.504660007192150E-01;-8.116988725185779E-02;3.936662146167212E+00;-2.365908254161029E+00;-8.504660007192150E-01;-8.116988725185779E-02;
1.395000000000000E+08;-8.519790997322011E-01;-3.044267554486841E-02;3.981703577367880E+00;-8.873466701663657E-01;-8.519790997322011E-01;-3.044267554486841E-02;
1.400000000000000E+08;-8.500553992509743E-01;1.989961440625009E-02;4.046182475740412E+00;5.813329653979542E-01;-8.500553992509743E-01;1.989961440625009E-02;
1.405000000000000E+08;-8.449561708659842E-01;6.935529379898508E-02;4.125342576511007E+00;2.034671118828066E+00;-8.449561708659842E-01;6.935529379898508E-02;
1.410000000000000E+08;-8.369527455474399E-01;1.178332117328663E-01;4.214903008064671E+00;3.477670375958570E+00;-8.369527455474399E-01;1.178332117328663E-01;
1.415000000000000E+08;-8.260332155264405E-01;1.649800403861404E-01;4.320105828454821E+00;4.907760262605219E+00;-8.260332155264405E-01;1.649800403861404E-01;
1.420000000000000E+08;-8.131873711236604E-01;2.108308717544125E-01;4.415786003167627E+00;6.327270850744834E+00;-8.131873711236604E-01;2.108308717544125E-01;
