# Version 1.00
#
freq[Hz];re:Smith_S11;im:Smith_S11;re:Magnitude_Z<-S11[Ohm];im:Magnitude_Z<-S11[Ohm];re:Phase_S11;im:Phase_S11;
8.000000000000000E+07;-8.532213275324003E-01;-3.227253239142762E-01;2.371879224701444E+00;-9.120190576101400E+00;-8.532213275324003E-01;-3.227253239142762E-01;
8.050000000000000E+07;-8.698531080076006E-01;-2.719532214901272E-01;2.372301757519413E+00;-7.617077576209566E+00;-8.698531080076006E-01;-2.719532214901272E-01;
8.100000000000000E+07;-8.834830798786816E-01;-2.209215296525214E-01;2.372586010395993E+00;-6.142997479977461E+00;-8.834830798786816E-01;-2.209215296525214E-01;
8.150000000000000E+07;-8.937391308263031E-01;-1.697869649220972E-01;2.384497255165924E+00;-4.696636750619242E+00;-8.937391308263031E-01;-1.697869649220972E-01;
8.200000000000000E+07;-9.011563757108226E-01;-1.186242086302970E-01;2.395577399668516E+00;-3.269264950622109E+00;-9.011563757108226E-01;-1.186242086302970E-01;
8.250000000000000E+07;-9.059807590944359E-01;-6.725047216412808E-02;2.401189688126890E+00;-1.848919372178178E+00;-9.059807590944359E-01;-6.725047216412808E-02;
8.300000000000000E+07;-9.079360043907440E-01;-1.511607670307160E-02;2.409369699213145E+00;-4.152256944204590E-01;-9.079360043907440E-01;-1.511607670307160E-02;
8.350000000000000E+07;-9.065986773663519E-01;3.829420792516916E-02;2.428272591441564E+00;1.053026625691051E+00;-9.065986773663519E-01;3.829420792516916E-02;
8.400000000000000E+07;-9.022893923672232E-01;9.066504545861664E-02;2.449095279042292E+00;2.499777177341116E+00;-9.022893923672232E-01;9.066504545861664E-02;
8.450000000000000E+07;-8.949690857037235E-01;1.424372527804136E-01;2.474830422129752E+00;3.944323283073780E+00;-8.949690857037235E-01;1.424372527804136E-01;
8.500000000000000E+07;-8.847841286404444E-01;1.937393537967173E-01;2.501738202357404E+00;5.396720334156406E+00;-8.847841286404444E-01;1.937393537967173E-01;
8.550000000000000E+07;-8.713197093446228E-01;2.442916026271522E-01;2.542787748870706E+00;6.859203032797258E+00;-8.713197093446228E-01;2.442916026271522E-01;
8.600000000000000E+07;-8.549306230298732E-01;2.937055181741733E-01;2.591850225412624E+00;8.327274578583829E+00;-8.549306230298732E-01;2.937055181741733E-01;
8.650000000000000E+07;-8.358104640456977E-01;3.422169707146112E-01;2.642556587010523E+00;9.813200544776283E+00;-8.358104640456977E-01;3.422169707146112E-01;
8.700000000000000E+07;-8.139419075670947E-01;3.895950697955597E-01;2.697633706422366E+00;1.131829977369607E+01;-8.139419075670947E-01;3.895950697955597E-01;
8.750000000000000E+07;-7.893580814137754E-01;4.355274104261796E-01;2.760289563281872E+00;1.284178528909996E+01;-7.893580814137754E-01;4.355274104261796E-01;
8.800000000000000E+07;-7.620406963362388E-01;4.804876972004107E-01;2.824415330173367E+00;1.440459447430929E+01;-7.620406963362388E-01;4.804876972004107E-01;
8.850000000000000E+07;-7.317242689354527E-01;5.235233980034920E-01;2.907171473123523E+00;1.599515544848346E+01;-7.318144889271074E-01;5.235706462288719E-01;
8.900000000000000E+07;-6.988085522746286E-01;5.648954382157718E-01;3.003998523562654E+00;1.762512728880805E+01;-6.988085522746286E-01;5.648954382157718E-01;
8.950000000000000E+07;-6.637002797138085E-01;6.037639570208010E-01;3.112137410234844E+00;1.927462214176711E+01;-6.637002797138085E-01;6.037639570208010E-01;
9.000000000000000E+07;-6.262056129256339E-01;6.406149648364837E-01;3.232133847582893E+00;2.096985847416316E+01;-6.262056129256339E-01;6.406149648364837E-01;
9.050000000000000E+07;-5.864260546376486E-01;6.754401744175349E-01;3.361709858475223E+00;2.271939653831442E+01;-5.864260546376486E-01;6.754401744175349E-01;
9.100000000000000E+07;-5.447878155988519E-01;7.080559807907670E-01;3.495205155578137E+00;2.451961335502414E+01;-5.447878155988519E-01;7.080559807907670E-01;
9.150000000000000E+07;-5.006628227172445E-01;7.382401334942235E-01;3.652827379333900E+00;2.639411721757904E+01;-5.006628227172445E-01;7.382401334942235E-01;
9.200000000000000E+07;-4.549312462777442E-01;7.655752959976452E-01;3.827919918393780E+00;2.832389903639135E+01;-4.549312462777442E-01;7.655752959976452E-01;
9.250000000000000E+07;-4.074379665150576E-01;7.903430235480050E-01;4.017468860594196E+00;3.033336507853505E+01;-4.074379665150576E-01;7.903430235480050E-01;
9.300000000000000E+07;-3.584883242613602E-01;8.118887967849311E-01;4.238563642792392E+00;3.241520842605165E+01;-3.584883242613602E-01;8.118887967849311E-01;
9.350000000000000E+07;-3.074849761592469E-01;8.306098722783716E-01;4.491488695442458E+00;3.461697020682794E+01;-3.074849761592469E-01;8.306098722783716E-01;
9.400000000000000E+07;-2.552979396787380E-01;8.459154247418835E-01;4.784307413611333E+00;3.691784174108918E+01;-2.552979396787380E-01;8.459154247418835E-01;
9.450000000000000E+07;-2.016216021356429E-01;8.581899969906926E-01;5.110535640641647E+00;3.935957070973069E+01;-2.016216021356429E-01;8.581899969906926E-01;
9.500000000000000E+07;-1.468932185191566E-01;8.660309137684034E-01;5.529576802470657E+00;4.193095692161261E+01;-1.468932185191566E-01;8.660309137684034E-01;
9.550000000000000E+07;-9.129557187391611E-02;8.700726057403600E-01;6.022703213342465E+00;4.466601040243512E+01;-9.129557187391611E-02;8.700726057403600E-01;
9.600000000000000E+07;-3.578939556356596E-02;8.700364908154845E-01;6.605983248363523E+00;4.754757215656770E+01;-3.578939556356596E-02;8.700364908154845E-01;
9.650000000000000E+07;1.994028477334720E-02;8.661396575786851E-01;7.289480878865457E+00;5.063027342145743E+01;1.994028477334720E-02;8.661396575786851E-01;
9.700000000000000E+07;7.551972347804341E-02;8.579045842666092E-01;8.119140382318248E+00;5.393373794323586E+01;7.551972347804341E-02;8.579045842666092E-01;
9.750000000000000E+07;1.310616034260688E-01;8.453520730403099E-01;9.124564936005864E+00;5.751969729192014E+01;1.310616034260688E-01;8.453520730403099E-01;
9.800000000000000E+07;1.851786868879717E-01;8.280808482912643E-01;1.037271209176636E+01;6.135515337915645E+01;1.851786868879717E-01;8.280808482912643E-01;
9.850000000000000E+07;2.394708834624768E-01;8.058092468360907E-01;1.194580314775729E+01;6.563391183023595E+01;2.394708834624768E-01;8.058092468360907E-01;
9.900000000000000E+07;2.894746096939174E-01;7.793240801161964E-01;1.388511743967972E+01;7.007097995519352E+01;2.894746096939174E-01;7.793240801161964E-01;
9.950000000000000E+07;3.386947518827612E-01;7.480354254879922E-01;1.633738940489042E+01;7.503753743150774E+01;3.386947518827612E-01;7.480354254879922E-01;
1.000000000000000E+08;3.853079853994555E-01;7.115839568165681E-01;1.951972457683071E+01;8.047789708692824E+01;3.853079853994555E-01;7.115839568165681E-01;
1.005000000000000E+08;4.287237896775921E-01;6.693832492516313E-01;2.376727188221049E+01;8.643555472592679E+01;4.287237896775921E-01;6.693832492516313E-01;
1.010000000000000E+08;4.676736626242677E-01;6.210694025549593E-01;2.955873637663033E+01;9.282181511636378E+01;4.676736626242677E-01;6.210694025549593E-01;
1.015000000000000E+08;4.999217961190669E-01;5.640448524962492E-01;3.800710545036986E+01;9.926438390463193E+01;4.999217961190669E-01;5.640448524962492E-01;
1.020000000000000E+08;5.198835519285055E-01;4.992248821639905E-01;5.007903521397719E+01;1.040621390132915E+02;5.198835519285055E-01;4.992248821639905E-01;
1.025000000000000E+08;5.219446760896443E-01;4.305422707169643E-01;6.549921133321511E+01;1.040199538134331E+02;5.219446760896443E-01;4.305422707169643E-01;
1.030000000000000E+08;5.011549978488917E-01;3.663864346792582E-01;8.021771642903376E+01;9.564093986864523E+01;5.011549978488917E-01;3.663864346792582E-01;
1.035000000000000E+08;4.600235259172239E-01;3.206963132631216E-01;8.690367913558497E+01;8.130818151942128E+01;4.600235259172239E-01;3.206963132631216E-01;
1.040000000000000E+08;4.110089672330505E-01;3.034359843152515E-01;8.417146330803540E+01;6.912235971511025E+01;4.110089672330505E-01;3.034359843152515E-01;
1.045000000000000E+08;3.711642875284338E-01;3.130897634431870E-01;7.743409430960050E+01;6.344790801586934E+01;3.711642875284338E-01;3.130897634431870E-01;
1.050000000000000E+08;3.469589397667211E-01;3.367332167848092E-01;7.096670913039455E+01;6.237511171931411E+01;3.469589397667211E-01;3.367332167848092E-01;
1.055000000000000E+08;3.383953143666057E-01;3.722029705358879E-01;6.481093511385731E+01;6.458988581447230E+01;3.383953143666057E-01;3.722029705358879E-01;
1.060000000000000E+08;3.536702992899364E-01;4.133490678311138E-01;5.980805513573060E+01;7.022585714510251E+01;3.536702992899364E-01;4.133490678311138E-01;
1.065000000000000E+08;3.916083637868681E-01;4.458110363049774E-01;5.694403513762474E+01;7.836536252881400E+01;3.916083637868681E-01;4.458110363049774E-01;
1.070000000000000E+08;4.433587638525600E-01;4.632782527602590E-01;5.613279126192673E+01;8.833160553590587E+01;4.433587638525600E-01;4.632782527602590E-01;
1.075000000000000E+08;5.016580429455550E-01;4.636075439170028E-01;5.756897531722569E+01;1.000714223286628E+02;5.016580429455550E-01;4.636075439170028E-01;
1.080000000000000E+08;5.592617224760936E-01;4.479758520458428E-01;6.159835501326262E+01;1.134309650953088E+02;5.592617224760936E-01;4.479758520458428E-01;
1.085000000000000E+08;6.114030760096401E-01;4.209744218959479E-01;6.839272352789608E+01;1.282570840552491E+02;6.114030760096401E-01;4.209744218959479E-01;
1.090000000000000E+08;6.578377439102477E-01;3.864759660218892E-01;7.842063838920960E+01;1.450524989103377E+02;6.578377439102477E-01;3.864759660218892E-01;
1.095000000000000E+08;7.001027358843035E-01;3.468850147690541E-01;9.262648600254288E+01;1.649731312132396E+02;7.001027358843035E-01;3.468850147690541E-01;
1.100000000000000E+08;7.378935412689984E-01;3.011697458098251E-01;1.144300545297785E+02;1.889360451703046E+02;7.378935412689984E-01;3.011697458098251E-01;
1.105000000000000E+08;7.695137801779679E-01;2.500929079627671E-01;1.492612623846146E+02;2.162117483317612E+02;7.695137801779679E-01;2.500929079627671E-01;
1.110000000000000E+08;7.936106954418336E-01;1.960140353264890E-01;2.047448525288199E+02;2.419387314169307E+02;7.936106954418336E-01;1.960140353264890E-01;
1.115000000000000E+08;8.111785338859311E-01;1.412418071014759E-01;2.895898875924546E+02;2.540192616022252E+02;8.111785338859311E-01;1.412418071014759E-01;
1.120000000000000E+08;8.237171101506615E-01;8.695989622464538E-02;4.062460431796052E+02;2.250649997950010E+02;8.237171101506615E-01;8.695989622464538E-02;
1.125000000000000E+08;8.324973421433601E-01;3.288552587693380E-02;5.248480304365011E+02;1.128589839834271E+02;8.324973421433601E-01;3.288552587693380E-02;
1.130000000000000E+08;8.378977214036347E-01;-2.159047791286751E-02;5.561417026932523E+02;-8.073229542104666E+01;8.378977214036347E-01;-2.159047791286751E-02;
1.135000000000000E+08;8.393585113236696E-01;-7.704108236226644E-02;4.561006471319180E+02;-2.427177559207434E+02;8.393585113236696E-01;-7.704108236226644E-02;
1.140000000000000E+08;8.366039314999320E-01;-1.325114184640111E-01;3.191936493973050E+02;-2.994097386714132E+02;8.366039314999320E-01;-1.325114184640111E-01;
1.145000000000000E+08;8.294418659221482E-01;-1.876944158332906E-01;2.151742345075314E+02;-2.918167656384693E+02;8.294418659221482E-01;-1.876944158332906E-01;
1.150000000000000E+08;8.186597965174160E-01;-2.421238102968125E-01;1.481682360950413E+02;-2.645924482363222E+02;8.186597965174160E-01;-2.421238102968125E-01;
1.155000000000000E+08;8.038001533501941E-01;-2.961298050899125E-01;1.054831095815934E+02;-2.346749180561416E+02;8.038001533501941E-01;-2.961298050899125E-01;
1.160000000000000E+08;7.843987282456167E-01;-3.489191479224041E-01;7.815979288274383E+01;-2.074078940568664E+02;7.843987282456167E-01;-3.489191479224041E-01;
1.165000000000000E+08;7.606523960833446E-01;-3.999126639770548E-01;6.018803657022497E+01;-1.841070916195348E+02;7.606523960833446E-01;-3.999126639770548E-01;
1.170000000000000E+08;7.334667499325418E-01;-4.479929532756333E-01;4.808476693410638E+01;-1.648622991654557E+02;7.334667499325418E-01;-4.479929532756333E-01;
1.175000000000000E+08;7.037309029909690E-01;-4.932331256089393E-01;3.949260056200244E+01;-1.489885902366768E+02;7.037309029909690E-01;-4.932331256089393E-01;
1.180000000000000E+08;6.719678574864182E-01;-5.364240179460524E-01;3.297137193124981E+01;-1.356813279479603E+02;6.719678574864182E-01;-5.364240179460524E-01;
1.185000000000000E+08;6.375969378869538E-01;-5.778302777653036E-01;2.789864896080897E+01;-1.242047948053078E+02;6.375969378869538E-01;-5.778302777653036E-01;
1.190000000000000E+08;6.004781404586149E-01;-6.165772796834083E-01;2.401496309245399E+01;-1.142264021593188E+02;6.004781404586149E-01;-6.165772796834083E-01;
1.195000000000000E+08;5.614908141138689E-01;-6.527440698772062E-01;2.091428135805743E+01;-1.055596510083045E+02;5.614908141138689E-01;-6.527440698772062E-01;
1.200000000000000E+08;5.207644218083644E-01;-6.863443247226035E-01;1.839038902337500E+01;-9.794630763618822E+01;5.207644218083644E-01;-6.863443247226035E-01;
1.205000000000000E+08;4.780881479543473E-01;-7.178023080611977E-01;1.626340254670147E+01;-9.113420801152844E+01;4.780881479543473E-01;-7.178023080611977E-01;
1.210000000000000E+08;4.335325439544899E-01;-7.466140100256431E-01;1.449458478137509E+01;-8.500499023317711E+01;4.335325439544899E-01;-7.466140100256431E-01;
1.215000000000000E+08;3.872819516329121E-01;-7.727096315080580E-01;1.300419454212914E+01;-7.945571062881987E+01;3.872819516329121E-01;-7.727096315080580E-01;
1.220000000000000E+08;3.395018749455843E-01;-7.959981004328422E-01;1.173625417970412E+01;-7.440133316174818E+01;3.395018749455843E-01;-7.959981004328422E-01;
1.225000000000000E+08;2.902404716433204E-01;-8.163489219928947E-01;1.065366105274689E+01;-6.976243197463566E+01;2.902404716433204E-01;-8.163489219928947E-01;
1.230000000000000E+08;2.396865199317792E-01;-8.336356569169995E-01;9.724945086258614E+00;-6.548462592935678E+01;2.396865199317792E-01;-8.336356569169995E-01;
1.235000000000000E+08;1.879837512619483E-01;-8.479103850683402E-01;8.913374929299920E+00;-6.151756507287899E+01;1.879837512619483E-01;-8.479103850683402E-01;
1.240000000000000E+08;1.355043002870382E-01;-8.585600689675821E-01;8.235661239423182E+00;-5.783581496899638E+01;1.355043002870382E-01;-8.585600689675821E-01;
1.245000000000000E+08;8.258298919333887E-02;-8.658921510283636E-01;7.647583445325800E+00;-5.440992421447459E+01;8.258298919333887E-02;-8.658921510283636E-01;
1.250000000000000E+08;2.923065418197657E-02;-8.702343563325164E-01;7.114125953039006E+00;-5.119926257493738E+01;2.923065418197657E-02;-8.702343563325164E-01;
1.255000000000000E+08;-2.470254116447846E-02;-8.712871539133982E-01;6.639792253501650E+00;-4.815985264828023E+01;-2.470254116447846E-02;-8.712871539133982E-01;
1.260000000000000E+08;-7.928837790205040E-02;-8.686113055554012E-01;6.232002430000445E+00;-4.525551654661655E+01;-7.928837790205040E-02;-8.686113055554012E-01;
1.265000000000000E+08;-1.338732776939142E-01;-8.623071464123206E-01;5.876684603538271E+00;-4.249404708562606E+01;-1.338732776939142E-01;-8.623071464123206E-01;
1.270000000000000E+08;-1.876733950121817E-01;-8.519231208541513E-01;5.593809277156392E+00;-3.987767318731575E+01;-1.876733950121817E-01;-8.519231208541513E-01;
1.275000000000000E+08;-2.406691026794366E-01;-8.380777053781824E-01;5.346638569677746E+00;-3.738690981559489E+01;-2.406691026794366E-01;-8.380777053781824E-01;
1.280000000000000E+08;-2.923178040146424E-01;-8.211268200649389E-01;5.125144055863100E+00;-3.502600838864529E+01;-2.923178040146424E-01;-8.211268200649389E-01;
1.285000000000000E+08;-3.429465581817791E-01;-8.010404119769295E-01;4.922393913266130E+00;-3.276009516462592E+01;-3.429465581817791E-01;-8.010404119769295E-01;
1.290000000000000E+08;-3.920704067423897E-01;-7.779059963554669E-01;4.741314780465114E+00;-3.059011728850457E+01;-3.920704067423897E-01;-7.779059963554669E-01;
1.295000000000000E+08;-4.394789720761797E-01;-7.513994201038364E-01;4.593944534944949E+00;-2.849771275614556E+01;-4.394789720761797E-01;-7.513994201038364E-01;
1.300000000000000E+08;-4.851751276041892E-01;-7.219202060115379E-01;4.463586250798588E+00;-2.647389030122671E+01;-4.851751276041892E-01;-7.219202060115379E-01;
1.305000000000000E+08;-5.286484314000799E-01;-6.897753028808616E-01;4.350862132594392E+00;-2.452485582640443E+01;-5.286484314000799E-01;-6.897753028808616E-01;
1.310000000000000E+08;-5.700041111660220E-01;-6.549879040693708E-01;4.251775849041194E+00;-2.263322541812579E+01;-5.700041111660220E-01;-6.549879040693708E-01;
1.315000000000000E+08;-6.089303077066645E-01;-6.179936506320465E-01;4.162290196509694E+00;-2.080385414135404E+01;-6.089303077066645E-01;-6.179936506320465E-01;
1.320000000000000E+08;-6.457440491098759E-01;-5.784812324471452E-01;4.080919837526844E+00;-1.900951559047631E+01;-6.457440491098759E-01;-5.784812324471452E-01;
1.325000000000000E+08;-6.798326580399923E-01;-5.366912489438951E-01;4.016078457015785E+00;-1.725764555855960E+01;-6.798326580399923E-01;-5.366912489438951E-01;
1.330000000000000E+08;-7.107852363567805E-01;-4.925598643249405E-01;3.978182318891033E+00;-1.554110100699695E+01;-7.107852363567805E-01;-4.925598643249405E-01;
1.335000000000000E+08;-7.382889423633126E-01;-4.471695804324913E-01;3.957165464905559E+00;-1.388031785409898E+01;-7.382889423633126E-01;-4.471695804324913E-01;
1.340000000000000E+08;-7.626033570665933E-01;-3.999506253144315E-01;3.956181415363658E+00;-1.224314501055287E+01;-7.626033570665933E-01;-3.999506253144315E-01;
1.345000000000000E+08;-7.837893576365143E-01;-3.522503481247665E-01;3.956369319524908E+00;-1.065492951563176E+01;-7.837893576365143E-01;-3.522503481247665E-01;
1.350000000000000E+08;-8.018997721082038E-01;-3.036582030090392E-01;3.964426477253882E+00;-9.094146646860395E+00;-8.018997721082038E-01;-3.036582030090392E-01;
1.355000000000000E+08;-8.170246478801656E-01;-2.548837170483365E-01;3.972991193248180E+00;-7.571078703638754E+00;-8.170246478801656E-01;-2.548837170483365E-01;
1.360000000000000E+08;-8.295514387415249E-01;-2.054200846226250E-01;3.977732842790086E+00;-6.060562285108777E+00;-8.295514387415249E-01;-2.054200846226250E-01;
1.365000000000000E+08;-8.390627821223057E-01;-1.560136557768992E-01;3.986995606100530E+00;-4.579891796406867E+00;-8.390627821223057E-01;-1.560136557768992E-01;
1.370000000000000E+08;-8.463193452463404E-01;-1.058320294894107E-01;3.984437626984891E+00;-3.094417338808762E+00;-8.463193452463404E-01;-1.058320294894107E-01;
1.375000000000000E+08;-8.502901077770407E-01;-5.522929397042848E-02;3.997469186344579E+00;-1.611770006669212E+00;-8.502901077770407E-01;-5.522929397042848E-02;
1.380000000000000E+08;-8.513371149441921E-01;-4.571180663449311E-03;4.014684597009389E+00;-1.333689471134520E-01;-8.513371149441921E-01;-4.571180663449311E-03;
1.385000000000000E+08;-8.493619246105957E-01;4.609233834650209E-02;4.039136296824431E+00;1.346837588142969E+00;-8.493619246105957E-01;4.609233834650209E-02;
1.390000000000000E+08;-8.443398809462319E-01;9.604002009784819E-02;4.073317080373509E+00;2.815751322631507E+00;-8.443398809462319E-01;9.604002009784819E-02;
1.395000000000000E+08;-8.361935533966800E-01;1.461439151786250E-01;4.117671608816080E+00;4.307262921511246E+00;-8.361935533966800E-01;1.461439151786250E-01;
1.400000000000000E+08;-8.250164187924426E-01;1.953204162477762E-01;4.173517614127179E+00;5.797862364985630E+00;-8.250164187924426E-01;1.953204162477762E-01;
1.405000000000000E+08;-8.106530475267859E-01;2.437333672924656E-01;4.245756232966258E+00;7.302062007984735E+00;-8.106530475267859E-01;2.437333672924656E-01;
1.410000000000000E+08;-7.937209671897543E-01;2.908087593410054E-01;4.322181865638001E+00;8.807036658434441E+00;-7.937209671897543E-01;2.908087593410054E-01;
1.415000000000000E+08;-7.741455720657432E-01;3.369759117485959E-01;4.402531071940356E+00;1.033305428711410E+01;-7.741455720657432E-01;3.369759117485959E-01;
1.420000000000000E+08;-7.515727181351474E-01;3.819356053329145E-01;4.500222181719348E+00;1.188393444030979E+01;-7.515727181351474E-01;3.819356053329145E-01;
