# Version 1.00
#
freq[Hz];re:Smith_S11;im:Smith_S11;re:Magnitude_Z<-S11[Ohm];im:Magnitude_Z<-S11[Ohm];re:Phase_S11;im:Phase_S11;
8.000000000000000E+07;-8.527187506790749E-01;-3.289552067099908E-01;2.325183764706919E+00;-9.290477378257487E+00;-8.527187506790749E-01;-3.289552067099908E-01;
8.050000000000000E+07;-8.698552748374664E-01;-2.783139247481775E-01;2.320951828903675E+00;-7.787581020851072E+00;-8.698552748374664E-01;-2.783139247481775E-01;
8.100000000000000E+07;-8.835833274776652E-01;-2.273839947122140E-01;2.327723983233974E+00;-6.316942149535433E+00;-8.835833274776652E-01;-2.273839947122140E-01;
8.150000000000000E+07;-8.944954343439386E-01;-1.763772878084103E-01;2.330920244938150E+00;-4.872002124680102E+00;-8.944954343439386E-01;-1.763772878084103E-01;
8.200000000000000E+07;-9.022582057052552E-01;-1.251685801134405E-01;2.342474994052029E+00;-3.444134584347744E+00;-9.022582057052552E-01;-1.251685801134405E-01;
8.250000000000000E+07;-9.072908645193803E-01;-7.353516347714133E-02;2.352567428690450E+00;-2.018441274968787E+00;-9.072908645193803E-01;-7.353516347714133E-02;
8.300000000000000E+07;-9.094037453681145E-01;-2.142955090744328E-02;2.365774335817612E+00;-5.877096604944315E-01;-9.094037453681145E-01;-2.142955090744328E-02;
8.350000000000000E+07;-9.083263507223188E-01;3.166763400513194E-02;2.387512205459449E+00;8.693421658899854E-01;-9.083263507223188E-01;3.166763400513194E-02;
8.400000000000000E+07;-9.043624619432826E-01;8.416184479057097E-02;2.408651015697414E+00;2.316160311186438E+00;-9.043624619432826E-01;8.416184479057097E-02;
8.450000000000000E+07;-8.972624634061868E-01;1.359294235318974E-01;2.438353801872740E+00;3.756947360068135E+00;-8.972624634061868E-01;1.359294235318974E-01;
8.500000000000000E+07;-8.873043028196745E-01;1.872759992483297E-01;2.468991888104027E+00;5.206464516992121E+00;-8.873043028196745E-01;1.872759992483297E-01;
8.550000000000000E+07;-8.741473629528138E-01;2.375748706514917E-01;2.513744697522530E+00;6.656865063312253E+00;-8.741473629528138E-01;2.375748706514917E-01;
8.600000000000000E+07;-8.581725508727771E-01;2.871890512596190E-01;2.560789801461262E+00;8.123510031104432E+00;-8.581725508727771E-01;2.871890512596190E-01;
8.650000000000000E+07;-8.394912669645195E-01;3.357563369212141E-01;2.610098099074080E+00;9.602749488427742E+00;-8.394912669645195E-01;3.357563369212141E-01;
8.700000000000000E+07;-8.177143298725942E-01;3.831973563429811E-01;2.673240200684744E+00;1.110419061081835E+01;-8.177143298725942E-01;3.831973563429811E-01;
8.750000000000000E+07;-7.934694304455511E-01;4.292602049515721E-01;2.736740000802044E+00;1.262234161169848E+01;-7.934694304455511E-01;4.292602049515721E-01;
8.800000000000000E+07;-7.667333322979943E-01;4.737750119116704E-01;2.804362280534062E+00;1.416025096210078E+01;-7.667333322979943E-01;4.737750119116704E-01;
8.850000000000000E+07;-7.368966540182411E-01;5.169306207243891E-01;2.889227768417205E+00;1.574075307054761E+01;-7.368966540182411E-01;5.169306207243891E-01;
8.900000000000000E+07;-7.045352232642159E-01;5.583253376416681E-01;2.982482819604483E+00;1.735456223233716E+01;-7.045352232642159E-01;5.583253376416681E-01;
8.950000000000000E+07;-6.698133333757430E-01;5.974531949471625E-01;3.090393557807003E+00;1.899555154945969E+01;-6.698133333757430E-01;5.974531949471625E-01;
9.000000000000000E+07;-6.330236280852746E-01;6.347396342738600E-01;3.198833849612419E+00;2.067784431330686E+01;-6.330236280852746E-01;6.347396342738600E-01;
9.050000000000000E+07;-5.936416454004220E-01;6.695725402715706E-01;3.334350809162576E+00;2.240856145928165E+01;-5.936416454004220E-01;6.695725402715706E-01;
9.100000000000000E+07;-5.524996841415588E-01;7.027877339015663E-01;3.457679575076933E+00;2.419929734734731E+01;-5.524996841415588E-01;7.027877339015663E-01;
9.150000000000000E+07;-5.091878312530453E-01;7.332835776311576E-01;3.605639644764471E+00;2.604588667222610E+01;-5.091878312530453E-01;7.332835776311576E-01;
9.200000000000000E+07;-4.637321905624059E-01;7.610395381137508E-01;3.780207190547150E+00;2.796198942938451E+01;-4.637321905624059E-01;7.610395381137508E-01;
9.250000000000000E+07;-4.168298046259381E-01;7.861106235609603E-01;3.966726161974573E+00;2.994277549513710E+01;-4.168298046259381E-01;7.861106235609603E-01;
9.300000000000000E+07;-3.682916008742775E-01;8.084350871031994E-01;4.172834515966141E+00;3.200722723325868E+01;-3.682916008742775E-01;8.084350871031994E-01;
9.350000000000000E+07;-3.179488153712574E-01;8.273787435045971E-01;4.425955231930874E+00;3.416739552297978E+01;-3.179488153712574E-01;8.273787435045971E-01;
9.400000000000000E+07;-2.661666119708490E-01;8.437492484541712E-01;4.691879716631743E+00;3.644562411547493E+01;-2.661666119708490E-01;8.437492484541712E-01;
9.450000000000000E+07;-2.129329855631521E-01;8.565774453277871E-01;5.010011402039359E+00;3.884825921551951E+01;-2.129329855631521E-01;8.565774453277871E-01;
9.500000000000000E+07;-1.584887025810354E-01;8.656964032130712E-01;5.389630163363602E+00;4.139065275379498E+01;-1.584887025810354E-01;8.656964032130712E-01;
9.550000000000000E+07;-1.031622346493445E-01;8.706754285212076E-01;5.855110401888382E+00;4.408388055427023E+01;-1.031622346493445E-01;8.706754285212076E-01;
9.600000000000000E+07;-4.741532178206775E-02;8.719348342101548E-01;6.393020512565748E+00;4.694512097414663E+01;-4.741532178206775E-02;8.719348342101548E-01;
9.650000000000000E+07;8.653646081543072E-03;8.693075426024909E-01;7.024293387341358E+00;5.000436846038040E+01;8.653646081543072E-03;8.693075426024909E-01;
9.700000000000000E+07;6.492886158150202E-02;8.618293073815468E-01;7.823674142152266E+00;5.329448743383598E+01;6.492886158150202E-02;8.618293073815468E-01;
9.750000000000000E+07;1.212361965101444E-01;8.497214975492077E-01;8.809594456825909E+00;5.686599342583478E+01;1.212361965101444E-01;8.497214975492077E-01;
9.800000000000000E+07;1.760322795937320E-01;8.327892259080919E-01;1.003579708843714E+01;6.067854813463213E+01;1.760322795937320E-01;8.327892259080919E-01;
9.850000000000000E+07;2.293063464837889E-01;8.114454088707285E-01;1.153673332006891E+01;6.479059416365361E+01;2.293063464837889E-01;8.114454088707285E-01;
9.900000000000000E+07;2.803169714222101E-01;7.840622752669805E-01;1.353710035698780E+01;6.922081179017501E+01;2.803169714222101E-01;7.840622752669805E-01;
9.950000000000000E+07;3.286056281424348E-01;7.528391928267730E-01;1.598228910028899E+01;7.398640106215038E+01;3.286056281424348E-01;7.528391928267730E-01;
1.000000000000000E+08;3.739667227747822E-01;7.177431377499105E-01;1.901686664906096E+01;7.912739502590891E+01;3.739667227747822E-01;7.177431377499105E-01;
1.005000000000000E+08;4.168700930564660E-01;6.787779491393384E-01;2.282023930731403E+01;8.476459894148554E+01;4.168700930564660E-01;6.787779491393384E-01;
1.010000000000000E+08;4.579052396823994E-01;6.327329021022463E-01;2.808714698506001E+01;9.114330324793127E+01;4.579052396823994E-01;6.327329021022463E-01;
1.015000000000000E+08;4.916326864416046E-01;5.788112902036714E-01;3.566162079355865E+01;9.753167036920821E+01;4.916326864416046E-01;5.788112902036714E-01;
1.020000000000000E+08;5.151082573418493E-01;5.157877816989196E-01;4.675445140715857E+01;1.029193930736353E+02;5.151082573418493E-01;5.157877816989196E-01;
1.025000000000000E+08;5.215379524598727E-01;4.479135774902711E-01;6.138616193989831E+01;1.042744655169881E+02;5.215379524598727E-01;4.479135774902711E-01;
1.030000000000000E+08;5.056518279229960E-01;3.825918527093252E-01;7.651049789395304E+01;9.791051835605288E+01;5.056518279229960E-01;3.825918527093252E-01;
1.035000000000000E+08;4.685247956438275E-01;3.326694261432641E-01;8.518903703441705E+01;8.461967557937245E+01;4.685247956438275E-01;3.326694261432641E-01;
1.040000000000000E+08;4.201002709250871E-01;3.096422470146694E-01;8.418572349584393E+01;7.164957467185636E+01;4.201002709250871E-01;3.096422470146694E-01;
1.045000000000000E+08;3.771126512327672E-01;3.144602486485276E-01;7.793607385926340E+01;6.458761712936032E+01;3.771126512327672E-01;3.144602486485276E-01;
1.050000000000000E+08;3.496533519254398E-01;3.375010972490072E-01;7.113947206118728E+01;6.286601900980175E+01;3.496533519254398E-01;3.375010972490072E-01;
1.055000000000000E+08;3.382743011376184E-01;3.746146267216011E-01;6.444244583207318E+01;6.478789353382081E+01;3.382743011376184E-01;3.746146267216011E-01;
1.060000000000000E+08;3.547474728708967E-01;4.180693327420222E-01;5.915525872198100E+01;7.072342108014831E+01;3.547474728708967E-01;4.180693327420222E-01;
1.065000000000000E+08;3.950492819571104E-01;4.492252704153351E-01;5.654879394209082E+01;7.912117358239102E+01;3.950492819571104E-01;4.492252704153351E-01;
1.070000000000000E+08;4.459973662743429E-01;4.631719515035703E-01;5.624328991740994E+01;8.882432849511449E+01;4.459973662743429E-01;4.631719515035703E-01;
1.075000000000000E+08;5.008060137409011E-01;4.619035699652291E-01;5.792227403125721E+01;9.986034492797302E+01;5.008060137409011E-01;4.619035699652291E-01;
1.080000000000000E+08;5.548449231409474E-01;4.479667895517701E-01;6.161320452592442E+01;1.123181819150507E+02;5.548449231409474E-01;4.479667895517701E-01;
1.085000000000000E+08;6.054844440841708E-01;4.237372529940723E-01;6.769705211488014E+01;1.264148518374265E+02;6.054844440841708E-01;4.237372529940723E-01;
1.090000000000000E+08;6.517223962400235E-01;3.924358847228214E-01;7.650691580841826E+01;1.425467870826591E+02;6.517223962400235E-01;3.924358847228214E-01;
1.095000000000000E+08;6.954430131211750E-01;3.554303308430882E-01;8.901273199897201E+01;1.622334848796452E+02;6.954430131211750E-01;3.554303308430882E-01;
1.100000000000000E+08;7.355163958667226E-01;3.116546515201602E-01;1.082973962441120E+02;1.865299742291292E+02;7.355163958667226E-01;3.116546515201602E-01;
1.105000000000000E+08;7.698194806559482E-01;2.614331469527250E-01;1.397138654398942E+02;2.154721563921044E+02;7.698194806559482E-01;2.614331469527250E-01;
1.110000000000000E+08;7.972777546692962E-01;2.072077571744981E-01;1.912459314760913E+02;2.465838334963552E+02;7.972777546692962E-01;2.072077571744981E-01;
1.115000000000000E+08;8.176925705803528E-01;1.506634692652649E-01;2.759244938909396E+02;2.693522426620458E+02;8.176925705803528E-01;1.506634692652649E-01;
1.120000000000000E+08;8.317446696467380E-01;9.332160623579161E-02;4.045134596657344E+02;2.520926143780306E+02;8.317446696467380E-01;9.332160623579161E-02;
1.125000000000000E+08;8.402304364276957E-01;3.598267063713964E-02;5.456868507464131E+02;1.341582418705358E+02;8.402304364276957E-01;3.598267063713964E-02;
1.130000000000000E+08;8.435087251297464E-01;-2.060894196256554E-02;5.781196100597434E+02;-8.271950369120007E+01;8.435087251297464E-01;-2.060894196256554E-02;
1.135000000000000E+08;8.430260784643301E-01;-7.617685297295980E-02;4.656199567708067E+02;-2.502218537486702E+02;8.430260784643301E-01;-7.617685297295980E-02;
1.140000000000000E+08;8.390149947655503E-01;-1.307722256938550E-01;3.242310214053659E+02;-3.039974034947682E+02;8.390149947655503E-01;-1.307722256938550E-01;
1.145000000000000E+08;8.319052555830068E-01;-1.849538313983528E-01;2.191076181591560E+02;-2.960978060893448E+02;8.319052555830068E-01;-1.849538313983528E-01;
1.150000000000000E+08;8.217167372619015E-01;-2.390587205728119E-01;1.504669479151119E+02;-2.688046614679895E+02;8.217167372619015E-01;-2.390587205728119E-01;
1.155000000000000E+08;8.074978452901375E-01;-2.930057704665694E-01;1.066211038559709E+02;-2.383915508676236E+02;8.074978452901375E-01;-2.930057704665694E-01;
1.160000000000000E+08;7.888563916643478E-01;-3.463069438679992E-01;7.834687911882702E+01;-2.105079846508025E+02;7.888563916643478E-01;-3.463069438679992E-01;
1.165000000000000E+08;7.657111590451753E-01;-3.978905342883725E-01;5.988738181075693E+01;-1.866207066544117E+02;7.657111590451753E-01;-3.978905342883725E-01;
1.170000000000000E+08;7.385507371461086E-01;-4.472640657720360E-01;4.740999388637597E+01;-1.666403241564971E+02;7.385507371461086E-01;-4.472640657720360E-01;
1.175000000000000E+08;7.083492795177726E-01;-4.937308016892610E-01;3.869339815354797E+01;-1.501476235083210E+02;7.083492795177726E-01;-4.937308016892610E-01;
1.180000000000000E+08;6.757001855144689E-01;-5.378585938698636E-01;3.221314598302347E+01;-1.363523663009055E+02;6.757001855144689E-01;-5.378585938698636E-01;
1.185000000000000E+08;6.401513490347666E-01;-5.793766451791136E-01;2.735879968259649E+01;-1.245520351819134E+02;6.401513490347666E-01;-5.793766451791136E-01;
1.190000000000000E+08;6.019734320425151E-01;-6.179871798942395E-01;2.366315670652654E+01;-1.143714770317450E+02;6.019734320425151E-01;-6.179871798942395E-01;
1.195000000000000E+08;5.625445456969314E-01;-6.534394596867494E-01;2.074555994557318E+01;-1.056746235790335E+02;5.625445456969314E-01;-6.534394596867494E-01;
1.200000000000000E+08;5.217669944470299E-01;-6.865620867973673E-01;1.831174934223635E+01;-9.806988776727100E+01;5.217669944470299E-01;-6.865620867973673E-01;
1.205000000000000E+08;4.794242103491035E-01;-7.179668302790576E-01;1.619097161812791E+01;-9.128915141756347E+01;4.794242103491035E-01;-7.179668302790576E-01;
1.210000000000000E+08;4.348662458914854E-01;-7.468628540142065E-01;1.442618070983799E+01;-8.514359803917374E+01;4.348662458914854E-01;-7.468628540142065E-01;
1.215000000000000E+08;3.885722055777905E-01;-7.730525170974970E-01;1.293943975309598E+01;-7.957684091187880E+01;3.885722055777905E-01;-7.730525170974970E-01;
1.220000000000000E+08;3.405060085986735E-01;-7.964913462595314E-01;1.167352497121681E+01;-7.448502878474672E+01;3.405060085986735E-01;-7.964913462595314E-01;
1.225000000000000E+08;2.910578928953135E-01;-8.168856472655111E-01;1.059846632437511E+01;-6.982519008336276E+01;2.910578928953135E-01;-8.168856472655111E-01;
1.230000000000000E+08;2.404513349428445E-01;-8.343359322543091E-01;9.664602851491297E+00;-6.553934505162506E+01;2.404513349428445E-01;-8.343359322543091E-01;
1.235000000000000E+08;1.885694414784120E-01;-8.485524232980027E-01;8.864973041492108E+00;-6.155796697222960E+01;1.885694414784120E-01;-8.485524232980027E-01;
1.240000000000000E+08;1.358496571783067E-01;-8.595555656926577E-01;8.168769347453301E+00;-5.785947995904769E+01;1.358496571783067E-01;-8.595555656926577E-01;
1.245000000000000E+08;8.236515334259463E-02;-8.672040636807118E-01;7.564569596065919E+00;-5.440097317531033E+01;8.236515334259463E-02;-8.672040636807118E-01;
1.250000000000000E+08;2.848757666945002E-02;-8.713930903869148E-01;7.041681789913409E+00;-5.116324421810059E+01;2.848757666945002E-02;-8.713930903869148E-01;
1.255000000000000E+08;-2.597066604026482E-02;-8.722131004937184E-01;6.578073819951855E+00;-4.809897477568427E+01;-2.597066604026482E-02;-8.722131004937184E-01;
1.260000000000000E+08;-8.096640439156523E-02;-8.692510574957066E-01;6.180780615686285E+00;-4.517735496933142E+01;-8.096640439156523E-02;-8.692510574957066E-01;
1.265000000000000E+08;-1.357773639069962E-01;-8.624393326335005E-01;5.845310771421649E+00;-4.240548727502126E+01;-1.357773639069962E-01;-8.624393326335005E-01;
1.270000000000000E+08;-1.897252565545338E-01;-8.520081649560923E-01;5.559223066232828E+00;-3.978810353924552E+01;-1.897252565545338E-01;-8.520081649560923E-01;
1.275000000000000E+08;-2.429970402315430E-01;-8.380869861640183E-01;5.307450941214541E+00;-3.729088112961424E+01;-2.429970402315430E-01;-8.380869861640183E-01;
1.280000000000000E+08;-2.950857398562993E-01;-8.208268356546605E-01;5.086502099390106E+00;-3.491388856659278E+01;-2.950857398562993E-01;-8.208268356546605E-01;
1.285000000000000E+08;-3.459219827410079E-01;-8.003749219767853E-01;4.888409517987023E+00;-3.264030682961383E+01;-3.459219827410079E-01;-8.003749219767853E-01;
1.290000000000000E+08;-3.953804848944223E-01;-7.765842604479978E-01;4.717159569775843E+00;-3.045225682765983E+01;-3.953804848944223E-01;-7.765842604479978E-01;
1.295000000000000E+08;-4.432121066343842E-01;-7.498469540421068E-01;4.561069295542326E+00;-2.834819042361822E+01;-4.432121066343842E-01;-7.498469540421068E-01;
1.300000000000000E+08;-4.889839857634037E-01;-7.199088475489337E-01;4.435019600590890E+00;-2.631878690547040E+01;-4.889839857634037E-01;-7.199088475489337E-01;
1.305000000000000E+08;-5.327599240696638E-01;-6.871924689807135E-01;4.322627998591432E+00;-2.435482574254481E+01;-5.327599240696638E-01;-6.871924689807135E-01;
1.310000000000000E+08;-5.741058708472359E-01;-6.520731820942389E-01;4.223256580910658E+00;-2.246197801371276E+01;-5.741058708472359E-01;-6.520731820942389E-01;
1.315000000000000E+08;-6.133031732296212E-01;-6.144983708199384E-01;4.131235018286197E+00;-2.061829188782837E+01;-6.133031732296212E-01;-6.144983708199384E-01;
1.320000000000000E+08;-6.500776672505419E-01;-5.745620002242838E-01;4.049908817762792E+00;-1.882034060494842E+01;-6.500776672505419E-01;-5.745620002242838E-01;
1.325000000000000E+08;-6.842571799375908E-01;-5.320877323586576E-01;3.985377269561401E+00;-1.705497076934054E+01;-6.842571799375908E-01;-5.320877323586576E-01;
1.330000000000000E+08;-7.154720535647491E-01;-4.875610779149452E-01;3.936160965178754E+00;-1.532940902425723E+01;-7.154720535647491E-01;-4.875610779149452E-01;
1.335000000000000E+08;-7.438076061149483E-01;-4.409435424602464E-01;3.899473553842112E+00;-1.362915537369600E+01;-7.438076061149483E-01;-4.409435424602464E-01;
1.340000000000000E+08;-7.685807833583521E-01;-3.929647689877234E-01;3.882374011795077E+00;-1.197224059838995E+01;-7.685807833583521E-01;-3.929647689877234E-01;
1.345000000000000E+08;-7.898867220736778E-01;-3.438486010132427E-01;3.880987710384864E+00;-1.035087976068294E+01;-7.898867220736778E-01;-3.438486010132427E-01;
1.350000000000000E+08;-8.079958798551133E-01;-2.935594802581594E-01;3.889172076228930E+00;-8.749841480561347E+00;-8.079958798551133E-01;-2.935594802581594E-01;
1.355000000000000E+08;-8.229117086752501E-01;-2.427554259877795E-01;3.901404726072609E+00;-7.177999023949723E+00;-8.229117086752501E-01;-2.427554259877795E-01;
1.360000000000000E+08;-8.346792267521542E-01;-1.915109586627387E-01;3.917950980802193E+00;-5.628165583878874E+00;-8.346792267521542E-01;-1.915109586627387E-01;
1.365000000000000E+08;-8.431399015917072E-01;-1.399862067043288E-01;3.944071319287977E+00;-4.097044348968629E+00;-8.431399015917072E-01;-1.399862067043288E-01;
1.370000000000000E+08;-8.487582163314161E-01;-8.791196591411383E-02;3.968329087186642E+00;-2.566296590459029E+00;-8.487582163314161E-01;-8.791196591411383E-02;
1.375000000000000E+08;-8.509951932251010E-01;-3.552025372246197E-02;4.005104402736662E+00;-1.036347915820855E+00;-8.509951932251010E-01;-3.552025372246197E-02;
1.380000000000000E+08;-8.498033883863267E-01;1.688219966595543E-02;4.055296931453984E+00;4.933347627800570E-01;-8.498033883863267E-01;1.688219966595543E-02;
1.385000000000000E+08;-8.449843297967100E-01;6.897967163732209E-02;4.125343883445370E+00;2.023620682322317E+00;-8.449843297967100E-01;6.897967163732209E-02;
1.390000000000000E+08;-8.367952617478978E-01;1.203277285378218E-01;4.210006470685774E+00;3.551276006902900E+00;-8.367952617478978E-01;1.203277285378218E-01;
1.395000000000000E+08;-8.250766190722739E-01;1.710224341804718E-01;4.315277763464655E+00;5.089721121416833E+00;-8.250766190722739E-01;1.710224341804718E-01;
1.400000000000000E+08;-8.098449458733445E-01;2.205596461791046E-01;4.444767375009672E+00;6.634998570411319E+00;-8.098449458733445E-01;2.205596461791046E-01;
1.405000000000000E+08;-7.913674217646477E-01;2.682551555187387E-01;4.598912406562992E+00;8.176122642862721E+00;-7.913674217646477E-01;2.682551555187387E-01;
1.410000000000000E+08;-7.700816010394853E-01;3.143337088427238E-01;4.767468539866177E+00;9.725688069947521E+00;-7.700816010394853E-01;3.143337088427238E-01;
1.415000000000000E+08;-7.461382276941269E-01;3.585468615064791E-01;4.952265761696993E+00;1.128373579424194E+01;-7.461382276941269E-01;3.585468615064791E-01;
1.420000000000000E+08;-7.191842574607605E-01;4.008158758379279E-01;5.168405245142120E+00;1.286213072912464E+01;-7.191842574607605E-01;4.008158758379279E-01;
