# Version 1.00
#
freq[Hz];re:Smith_S11;im:Smith_S11;re:Magnitude_Z<-S11[Ohm];im:Magnitude_Z<-S11[Ohm];re:Phase_S11;im:Phase_S11;
8.000000000000000E+07;-8.247456086922307E-01;-4.023636169895616E-01;2.261119779852757E+00;-1.152378341527657E+01;-8.247456086922307E-01;-4.023636169895616E-01;
8.050000000000000E+07;-8.456763977069269E-01;-3.539635531566239E-01;2.258631733272879E+00;-1.002215285106007E+01;-8.456763977069269E-01;-3.539635531566239E-01;
8.100000000000000E+07;-8.637098313439265E-01;-3.050814514456697E-01;2.256149310770095E+00;-8.554111595363144E+00;-8.637098313439265E-01;-3.050814514456697E-01;
8.150000000000000E+07;-8.787284652697092E-01;-2.559682970080652E-01;2.257443333246481E+00;-7.119841437057423E+00;-8.787284652697092E-01;-2.559682970080652E-01;
8.200000000000000E+07;-8.908819881660980E-01;-2.063102936285234E-01;2.263203536436345E+00;-5.702331999061975E+00;-8.908819881660980E-01;-2.063102936285234E-01;
8.250000000000000E+07;-9.003443179639316E-01;-1.562991679400567E-01;2.268462155070663E+00;-4.298966806761039E+00;-9.003443179639316E-01;-1.562991679400567E-01;
8.300000000000000E+07;-9.070410310155396E-01;-1.053848872930108E-01;2.277612752143743E+00;-2.888910221768292E+00;-9.070410310155396E-01;-1.053848872930108E-01;
8.350000000000000E+07;-9.111820412319780E-01;-5.314603599965779E-02;2.283209783486843E+00;-1.453888373469486E+00;-9.111820412319780E-01;-5.314603599965779E-02;
8.400000000000000E+07;-9.119435275756980E-01;-1.431765988999010E-03;2.302770704029336E+00;-3.916712347639053E-02;-9.119435275756980E-01;-1.431765988999010E-03;
8.450000000000000E+07;-9.098965890718903E-01;4.960398326643203E-02;2.323560950340890E+00;1.358951608517246E+00;-9.098965890718903E-01;4.960398326643203E-02;
8.500000000000000E+07;-9.048722357824193E-01;1.005936191638271E-01;2.350965563347954E+00;2.764580738705023E+00;-9.048722357824193E-01;1.005936191638271E-01;
8.550000000000000E+07;-8.972019493604754E-01;1.510035974891443E-01;2.377390175105202E+00;4.168862648596547E+00;-8.972019493604754E-01;1.510035974891443E-01;
8.600000000000000E+07;-8.866510210193993E-01;2.008659784274226E-01;2.409895874817871E+00;5.579921722082161E+00;-8.866510210193993E-01;2.008659784274226E-01;
8.650000000000000E+07;-8.731576113356272E-01;2.499190033715809E-01;2.452079274243988E+00;6.998221237581388E+00;-8.731576113356272E-01;2.499190033715809E-01;
8.700000000000000E+07;-8.570305534072685E-01;2.982036657223014E-01;2.495742870943995E+00;8.429814431544074E+00;-8.570305534072685E-01;2.982036657223014E-01;
8.750000000000000E+07;-8.383968676163960E-01;3.455478819742477E-01;2.539039032487850E+00;9.875317989514070E+00;-8.383968676163960E-01;3.455478819742477E-01;
8.800000000000000E+07;-8.170518229960324E-01;3.920628302367528E-01;2.586003680552901E+00;1.134641135322363E+01;-8.170518229960324E-01;3.920628302367528E-01;
8.850000000000000E+07;-7.930834187128105E-01;4.368733211666903E-01;2.644745321444584E+00;1.282655591509752E+01;-7.930834187128105E-01;4.368733211666903E-01;
8.900000000000000E+07;-7.660591214202321E-01;4.803826222695115E-01;2.722396048997872E+00;1.434092582698018E+01;-7.660591214202321E-01;4.803826222695115E-01;
8.950000000000000E+07;-7.369028978620579E-01;5.223104633945300E-01;2.799180225345495E+00;1.587743582228837E+01;-7.369028978620579E-01;5.223104633945300E-01;
9.000000000000000E+07;-7.053365008594893E-01;5.624347843851968E-01;2.886761020023844E+00;1.744251296804876E+01;-7.053365008594893E-01;5.624347843851968E-01;
9.050000000000000E+07;-6.713592486375577E-01;6.011497610612191E-01;2.977912509685360E+00;1.905494553171665E+01;-6.713592486375577E-01;6.011497610612191E-01;
9.100000000000000E+07;-6.353634472097313E-01;6.377238928933526E-01;3.077167180808553E+00;2.069789301946868E+01;-6.353634472097313E-01;6.377238928933526E-01;
9.150000000000000E+07;-5.972991478197527E-01;6.721775606277522E-01;3.186798552089448E+00;2.238213959929907E+01;-5.972991478197527E-01;6.721775606277522E-01;
9.200000000000000E+07;-5.570756813979084E-01;7.045193900358607E-01;3.309315595843752E+00;2.412050162718795E+01;-5.570756813979084E-01;7.045193900358607E-01;
9.250000000000000E+07;-5.150853266596632E-01;7.341656280675597E-01;3.451916211823574E+00;2.590122083987627E+01;-5.150853266596632E-01;7.341656280675597E-01;
9.300000000000000E+07;-4.715932804819705E-01;7.615223847987036E-01;3.600131309333058E+00;2.773707950530905E+01;-4.715932804819705E-01;7.615223847987036E-01;
9.350000000000000E+07;-4.265560765345341E-01;7.865922505733589E-01;3.755432312654730E+00;2.964033954141679E+01;-4.265560765345341E-01;7.865922505733589E-01;
9.400000000000000E+07;-3.793581744201284E-01;8.087421718545580E-01;3.950874917923858E+00;3.163235522413752E+01;-3.793581744201284E-01;8.087421718545580E-01;
9.450000000000000E+07;-3.307051163951111E-01;8.283530358026935E-01;4.160967905742367E+00;3.371475891538758E+01;-3.307051163951111E-01;8.283530358026935E-01;
9.500000000000000E+07;-2.811994335064294E-01;8.448768595255468E-01;4.396699937105657E+00;3.587147465842578E+01;-2.811994335064294E-01;8.448768595255468E-01;
9.550000000000000E+07;-2.302466279802477E-01;8.579644148920896E-01;4.687114231700261E+00;3.813836745967566E+01;-2.302466279802477E-01;8.579644148920896E-01;
9.600000000000000E+07;-1.784058751697011E-01;8.681113531072164E-01;5.007661298269229E+00;4.052319857453794E+01;-1.784058751697011E-01;8.681113531072164E-01;
9.650000000000000E+07;-1.261110398595625E-01;8.748686214653709E-01;5.377394223087348E+00;4.302235110876701E+01;-1.261110398595625E-01;8.748686214653709E-01;
9.700000000000000E+07;-7.333427684748507E-02;8.783317739579790E-01;5.800723946044705E+00;4.566289357274779E+01;-7.333427684748507E-02;8.783317739579790E-01;
9.750000000000000E+07;-1.967932517531945E-02;8.781049156252017E-01;6.310544870467782E+00;4.849227108119469E+01;-1.967932517531945E-02;8.781049156252017E-01;
9.800000000000000E+07;3.376099586079069E-02;8.742216029170192E-01;6.908515767124547E+00;5.148897287362698E+01;3.376099586079069E-02;8.742216029170192E-01;
9.850000000000000E+07;8.674145837723103E-02;8.662807124585997E-01;7.637619965797598E+00;5.467275279973611E+01;8.674145837723103E-02;8.662807124585997E-01;
9.900000000000000E+07;1.394203505591827E-01;8.548902204306175E-01;8.485755096590358E+00;5.809909646255667E+01;1.394203505591827E-01;8.548902204306175E-01;
9.950000000000000E+07;1.907126589086454E-01;8.399471427131002E-01;9.486424071643405E+00;6.174006362414660E+01;1.907126589086454E-01;8.399471427131002E-01;
1.000000000000000E+08;2.411888772339522E-01;8.214555493653535E-01;1.067656407813259E+01;6.568577974544505E+01;2.411888772339522E-01;8.214555493653535E-01;
1.005000000000000E+08;2.911819364747337E-01;8.001894466553567E-01;1.202868761918348E+01;7.002459979066707E+01;2.911819364747337E-01;8.001894466553567E-01;
1.010000000000000E+08;3.404147509379551E-01;7.746678454291999E-01;1.371801032374215E+01;7.483535121915027E+01;3.404147509379551E-01;7.746678454291999E-01;
1.015000000000000E+08;3.890316542884411E-01;7.438333272888729E-01;1.593869029601815E+01;8.027812855481912E+01;3.890316542884411E-01;7.438333272888729E-01;
1.020000000000000E+08;4.351194681886761E-01;7.063452925932064E-01;1.905514423321151E+01;8.634883539368606E+01;4.351194681886761E-01;7.063452925932064E-01;
1.025000000000000E+08;4.771205655899116E-01;6.616959073576959E-01;2.351614318619353E+01;9.303355203845069E+01;4.771205655899116E-01;6.616959073576959E-01;
1.030000000000000E+08;5.114005637346750E-01;6.107863578606019E-01;2.986399388249055E+01;9.983605040673604E+01;5.114005637346750E-01;6.107863578606019E-01;
1.035000000000000E+08;5.357710680538127E-01;5.552609039528243E-01;3.862321411643437E+01;1.060015923074788E+02;5.357710680538127E-01;5.552609039528243E-01;
1.040000000000000E+08;5.480274920469802E-01;4.987602379460291E-01;4.976416811499941E+01;1.100916523725750E+02;5.480274920469802E-01;4.987602379460291E-01;
1.045000000000000E+08;5.486869438759634E-01;4.460666468813659E-01;6.208321103596641E+01;1.107802697929688E+02;5.486869438759634E-01;4.460666468813659E-01;
1.050000000000000E+08;5.409998388396837E-01;3.993411577568984E-01;7.400231550949499E+01;1.078849909658359E+02;5.409998388396837E-01;3.993411577568984E-01;
1.055000000000000E+08;5.247533033916804E-01;3.586773666741521E-01;8.405777084306631E+01;1.011758494511463E+02;5.247533033916804E-01;3.586773666741521E-01;
1.060000000000000E+08;4.986190774531143E-01;3.293774121592953E-01;8.932189552244503E+01;9.152618965078270E+01;4.986190774531143E-01;3.293774121592953E-01;
1.065000000000000E+08;4.682627891838763E-01;3.178439509881865E-01;8.855649630239549E+01;8.282163317523093E+01;4.682627891838763E-01;3.178439509881865E-01;
1.070000000000000E+08;4.432018628751604E-01;3.279364542744527E-01;8.334358935949230E+01;7.853514762204790E+01;4.432018628751604E-01;3.279364542744527E-01;
1.075000000000000E+08;4.383456436171994E-01;3.538321357341153E-01;7.745961470591753E+01;8.029726321663995E+01;4.383456436171994E-01;3.538321357341153E-01;
1.080000000000000E+08;4.575754326284266E-01;3.782466981495326E-01;7.404088709093904E+01;8.649692289019559E+01;4.575754326284266E-01;3.782466981495326E-01;
1.085000000000000E+08;4.903071064834507E-01;3.904894608686547E-01;7.363118758062932E+01;9.471718440458096E+01;4.903071064834507E-01;3.904894608686547E-01;
1.090000000000000E+08;5.279413498033774E-01;3.926823531886934E-01;7.520161069181225E+01;1.041490566669998E+02;5.279413498033774E-01;3.926823531886934E-01;
1.095000000000000E+08;5.699363145649990E-01;3.881583665126911E-01;7.813941915470106E+01;1.156535399510991E+02;5.699363145649990E-01;3.881583665126911E-01;
1.100000000000000E+08;6.172477911006747E-01;3.736030681022441E-01;8.379271807861575E+01;1.305945956723583E+02;6.172477911006747E-01;3.736030681022441E-01;
1.105000000000000E+08;6.639642494689095E-01;3.462868403136660E-01;9.432380260363718E+01;1.487265373005090E+02;6.639642494689095E-01;3.462868403136660E-01;
1.110000000000000E+08;7.059883574447074E-01;3.090842473578306E-01;1.115662368467860E+02;1.698489838028590E+02;7.059883574447074E-01;3.090842473578306E-01;
1.115000000000000E+08;7.412727060792296E-01;2.648900609988220E-01;1.387052665568242E+02;1.932001406250679E+02;7.412727060792296E-01;2.648900609988220E-01;
1.120000000000000E+08;7.697597050977771E-01;2.167146332062935E-01;1.802959674729362E+02;2.167670352445505E+02;7.697597050977771E-01;2.167146332062935E-01;
1.125000000000000E+08;7.920321033332964E-01;1.665946495699865E-01;2.428942831641982E+02;2.346257342929804E+02;7.920321033332964E-01;1.665946495699865E-01;
1.130000000000000E+08;8.090826547817785E-01;1.155953101444394E-01;3.332780509359439E+02;2.320645361942113E+02;8.090826547817785E-01;1.155953101444394E-01;
1.135000000000000E+08;8.224565615613555E-01;6.387936114581202E-02;4.486860712791795E+02;1.794250912665386E+02;8.224565615613555E-01;6.387936114581202E-02;
1.140000000000000E+08;8.317539698210770E-01;1.085233164162199E-02;5.419049816967353E+02;3.817949912321838E+01;8.317539698210770E-01;1.085233164162199E-02;
1.145000000000000E+08;8.373145491539984E-01;-4.281496312043361E-02;5.248668118655474E+02;-1.512913491722335E+02;8.373145491539984E-01;-4.281496312043361E-02;
1.150000000000000E+08;8.389150864197804E-01;-9.730770815439908E-02;4.048219197948516E+02;-2.747475083169772E+02;8.389150864197804E-01;-9.730770815439908E-02;
1.155000000000000E+08;8.363349257598814E-01;-1.529266877628919E-01;2.762026072724855E+02;-3.047998145078440E+02;8.363349257598814E-01;-1.529266877628919E-01;
1.160000000000000E+08;8.286025428248172E-01;-2.086768114084591E-01;1.850386328924048E+02;-2.861600940768921E+02;8.286025428248172E-01;-2.086768114084591E-01;
1.165000000000000E+08;8.154820475157412E-01;-2.636396644868835E-01;1.281874039801407E+02;-2.545945625812247E+02;8.154820475157412E-01;-2.636396644868835E-01;
1.170000000000000E+08;7.979882489921858E-01;-3.164687044712518E-01;9.331019284245562E+01;-2.245076874989458E+02;7.979882489921858E-01;-3.164687044712518E-01;
1.175000000000000E+08;7.768792719863359E-01;-3.672255999931376E-01;7.084258470643699E+01;-1.988900406905503E+02;7.768792719863359E-01;-3.672255999931376E-01;
1.180000000000000E+08;7.527645978567175E-01;-4.157737637339258E-01;5.565924024560506E+01;-1.776862844453115E+02;7.527645978567175E-01;-4.157737637339258E-01;
1.185000000000000E+08;7.253778361985328E-01;-4.625528698039608E-01;4.490265076598698E+01;-1.598468705371690E+02;7.253778361985328E-01;-4.625528698039608E-01;
1.190000000000000E+08;6.951505150140200E-01;-5.064293258630121E-01;3.724845677037518E+01;-1.449409604442709E+02;6.951505150140200E-01;-5.064293258630121E-01;
1.195000000000000E+08;6.628571370641467E-01;-5.473901557720130E-01;3.157314504442510E+01;-1.324433689144316E+02;6.628571370641467E-01;-5.473901557720130E-01;
1.200000000000000E+08;6.293338363533464E-01;-5.865146465262923E-01;2.699868721365990E+01;-1.218370119619522E+02;6.293338363533464E-01;-5.865146465262923E-01;
1.205000000000000E+08;5.939400756603984E-01;-6.242186677954802E-01;2.322548515297515E+01;-1.125664269016613E+02;5.939400756603984E-01;-6.242186677954802E-01;
1.210000000000000E+08;5.560571123248981E-01;-6.600851711517728E-01;2.015557628586025E+01;-1.043121916479359E+02;5.560571123248981E-01;-6.600851711517728E-01;
1.215000000000000E+08;5.159210179740423E-01;-6.938189237906511E-01;1.763551430398584E+01;-9.694037850604778E+01;5.159210179740423E-01;-6.938189237906511E-01;
1.220000000000000E+08;4.736989437501904E-01;-7.251565636255050E-01;1.555451659921411E+01;-9.032337560928927E+01;4.736989437501904E-01;-7.251565636255050E-01;
1.225000000000000E+08;4.293808812138590E-01;-7.541676328296153E-01;1.380088001295743E+01;-8.432342532471603E+01;4.293808812138590E-01;-7.541676328296153E-01;
1.230000000000000E+08;3.829260975507414E-01;-7.802811747105018E-01;1.235469982793132E+01;-7.884663123386547E+01;3.829260975507414E-01;-7.802811747105018E-01;
1.235000000000000E+08;3.347513989505779E-01;-8.032734716322519E-01;1.115519142453019E+01;-7.384358696346629E+01;3.347513989505779E-01;-8.032734716322519E-01;
1.240000000000000E+08;2.854076919278076E-01;-8.228846911488464E-01;1.016193881231086E+01;-6.927913703974937E+01;2.854076919278076E-01;-8.228846911488464E-01;
1.245000000000000E+08;2.351760265312340E-01;-8.395811409259493E-01;9.295473693216833E+00;-6.509126698697641E+01;2.351760265312340E-01;-8.395811409259493E-01;
1.250000000000000E+08;1.840893283292768E-01;-8.535477291460044E-01;8.519516593513856E+00;-6.121895721358288E+01;1.840893283292768E-01;-8.535477291460044E-01;
1.255000000000000E+08;1.316562753048401E-01;-8.646798144707469E-01;7.824355550827395E+00;-5.758037008574312E+01;1.316562753048401E-01;-8.646798144707469E-01;
1.260000000000000E+08;7.796786919969263E-02;-8.720558411428467E-01;7.246866074819605E+00;-5.414395255872147E+01;7.796786919969263E-02;-8.720558411428467E-01;
1.265000000000000E+08;2.360835708652928E-02;-8.758844412451358E-01;6.749990548374529E+00;-5.090829496841035E+01;2.360835708652928E-02;-8.758844412451358E-01;
1.270000000000000E+08;-3.115719253026497E-02;-8.759739505696535E-01;6.328441582248941E+00;-4.785133426762800E+01;-3.115719253026497E-02;-8.759739505696535E-01;
1.275000000000000E+08;-8.554419929049810E-02;-8.722636436364469E-01;5.977525261716634E+00;-4.497943075781640E+01;-8.554419929049810E-02;-8.722636436364469E-01;
1.280000000000000E+08;-1.393734201438658E-01;-8.652587687089558E-01;5.664873658699118E+00;-4.227281345231309E+01;-1.393734201438658E-01;-8.652587687089558E-01;
1.285000000000000E+08;-1.926670402195368E-01;-8.549380926589412E-01;5.385973121282380E+00;-3.970226108675934E+01;-1.926670402195368E-01;-8.549380926589412E-01;
1.290000000000000E+08;-2.453253867033685E-01;-8.412686645564655E-01;5.137823156445097E+00;-3.724787380763644E+01;-2.453253867033685E-01;-8.412686645564655E-01;
1.295000000000000E+08;-2.969183111416977E-01;-8.240502435878470E-01;4.929589163731663E+00;-3.490176747578355E+01;-2.969183111416977E-01;-8.240502435878470E-01;
1.300000000000000E+08;-3.472311004066890E-01;-8.036577518928051E-01;4.745520451749064E+00;-3.265710083383092E+01;-3.472311004066890E-01;-8.036577518928051E-01;
1.305000000000000E+08;-3.961921871574900E-01;-7.801374720516094E-01;4.582101068622263E+00;-3.049833879505675E+01;-3.961921871574900E-01;-7.801374720516094E-01;
1.310000000000000E+08;-4.432387297381333E-01;-7.536725981464982E-01;4.442107883294524E+00;-2.843017170445492E+01;-4.432387297381333E-01;-7.536725981464982E-01;
1.315000000000000E+08;-4.884262771527977E-01;-7.245064230293976E-01;4.315737082528623E+00;-2.643872994713882E+01;-4.884262771527977E-01;-7.245064230293976E-01;
1.320000000000000E+08;-5.319852966814380E-01;-6.922794707736279E-01;4.205970392190673E+00;-2.449480460234457E+01;-5.319852966814380E-01;-6.922794707736279E-01;
1.325000000000000E+08;-5.730581688540074E-01;-6.576197770750436E-01;4.113219072289968E+00;-2.262212788294861E+01;-5.730581688540074E-01;-6.576197770750436E-01;
1.330000000000000E+08;-6.116173602342554E-01;-6.201294098601542E-01;4.047185804202888E+00;-2.079665450643366E+01;-6.116173602342554E-01;-6.201294098601542E-01;
1.335000000000000E+08;-6.474241664728744E-01;-5.806421352784616E-01;3.993519258966651E+00;-1.903026127196328E+01;-6.474241664728744E-01;-5.806421352784616E-01;
1.340000000000000E+08;-6.802285924059678E-01;-5.392477422936600E-01;3.958002532634433E+00;-1.731712647666247E+01;-6.802285924059678E-01;-5.392477422936600E-01;
1.345000000000000E+08;-7.102428848416977E-01;-4.963903871211489E-01;3.928183171223489E+00;-1.565241519691027E+01;-7.102428848416977E-01;-4.963903871211489E-01;
1.350000000000000E+08;-7.374266002223819E-01;-4.522971622810572E-01;3.903378930190303E+00;-1.403244621923311E+01;-7.374266002223819E-01;-4.522971622810572E-01;
1.355000000000000E+08;-7.621681959961869E-01;-4.067610166873690E-01;3.877545982429571E+00;-1.243654574530805E+01;-7.621681959961869E-01;-4.067610166873690E-01;
1.360000000000000E+08;-7.839210202679072E-01;-3.604577273914995E-01;3.857406540961329E+00;-1.088238668886784E+01;-7.839210202679072E-01;-3.604577273914995E-01;
1.365000000000000E+08;-8.032773845363848E-01;-3.134644185631213E-01;3.828062665628027E+00;-9.356953350911333E+00;-8.032773845363848E-01;-3.134644185631213E-01;
1.370000000000000E+08;-8.200692442263069E-01;-2.649747358466382E-01;3.802618869086904E+00;-7.832852935633159E+00;-8.200692442263069E-01;-2.649747358466382E-01;
1.375000000000000E+08;-8.339480869610998E-01;-2.154304575556025E-01;3.785004003570933E+00;-6.318023996698317E+00;-8.339480869610998E-01;-2.154304575556025E-01;
1.380000000000000E+08;-8.447041047721102E-01;-1.650646355864726E-01;3.778645349529365E+00;-4.812128120705216E+00;-8.447041047721102E-01;-1.650646355864726E-01;
1.385000000000000E+08;-8.519030303650230E-01;-1.139319368177068E-01;3.794899330182715E+00;-3.309545354755004E+00;-8.519030303650230E-01;-1.139319368177068E-01;
1.390000000000000E+08;-8.558272418262945E-01;-6.274021377639166E-02;3.822810629507986E+00;-1.819595363638729E+00;-8.558272418262945E-01;-6.274021377639166E-02;
1.395000000000000E+08;-8.563948260100080E-01;-1.156852385633945E-02;3.865759224449852E+00;-3.356760705734295E-01;-8.563948260100080E-01;-1.156852385633945E-02;
1.400000000000000E+08;-8.534160987157630E-01;3.932009832716284E-02;3.930152532178964E+00;1.144124571829010E+00;-8.534160987157630E-01;3.932009832716284E-02;
1.405000000000000E+08;-8.469678658474107E-01;8.921814678076143E-02;4.016751369937292E+00;2.609289821147928E+00;-8.469678658474107E-01;8.921814678076143E-02;
1.410000000000000E+08;-8.377695316845833E-01;1.380218992252693E-01;4.108590177327157E+00;4.063714329745570E+00;-8.377695316845833E-01;1.380218992252693E-01;
1.415000000000000E+08;-8.257725490518825E-01;1.855005230566451E-01;4.211719061632317E+00;5.507970993952613E+00;-8.257725490518825E-01;1.855005230566451E-01;
1.420000000000000E+08;-8.111746749822432E-01;2.317855193595183E-01;4.323100715881012E+00;6.952012021023508E+00;-8.111746749822432E-01;2.317855193595183E-01;
