# Version 1.00
#
freq[Hz];re:Smith_S11;im:Smith_S11;re:Magnitude_Z<-S11[Ohm];im:Magnitude_Z<-S11[Ohm];re:Phase_S11;im:Phase_S11;
8.000000000000000E+07;-7.915054386552044E-01;-4.694941157836734E-01;2.231751378536222E+00;-1.368820847549666E+01;-7.915054386552044E-01;-4.694941157836734E-01;
8.050000000000000E+07;-8.161585851572075E-01;-4.238140549358928E-01;2.217719623971451E+00;-1.218539155897845E+01;-8.161585851572075E-01;-4.238140549358928E-01;
8.100000000000000E+07;-8.378305382918387E-01;-3.773918280324923E-01;2.210417298745283E+00;-1.072121962073082E+01;-8.378305382918387E-01;-3.773918280324923E-01;
8.150000000000000E+07;-8.567337403126696E-01;-3.305649054233084E-01;2.203344003734475E+00;-9.294059292782039E+00;-8.567337403126696E-01;-3.305649054233084E-01;
8.200000000000000E+07;-8.730003471456628E-01;-2.827075176066734E-01;2.201010079210040E+00;-7.879132536491042E+00;-8.730003471456628E-01;-2.827075176066734E-01;
8.250000000000000E+07;-8.864072756140435E-01;-2.344582084735076E-01;2.204391244840188E+00;-6.488391029837997E+00;-8.864072756140435E-01;-2.344582084735076E-01;
8.300000000000000E+07;-8.974393073365111E-01;-1.850200098032164E-01;2.206217060198015E+00;-5.090647566390709E+00;-8.974393073365111E-01;-1.850200098032164E-01;
8.350000000000000E+07;-9.057766256103805E-01;-1.343242446608531E-01;2.212664145775266E+00;-3.680088515549831E+00;-9.057766256103805E-01;-1.343242446608531E-01;
8.400000000000000E+07;-9.112760405344270E-01;-8.385210274925999E-02;2.220552999690464E+00;-2.291036502780012E+00;-9.112760405344270E-01;-8.385210274925999E-02;
8.450000000000000E+07;-9.138958925701151E-01;-3.350410914883457E-02;2.233439019958402E+00;-9.143835090181471E-01;-9.138958925701151E-01;-3.350410914883457E-02;
8.500000000000000E+07;-9.136931696061593E-01;1.652760342536071E-02;2.251083526914266E+00;4.512662744445933E-01;-9.136931696061593E-01;1.652760342536071E-02;
8.550000000000000E+07;-9.108654264231175E-01;6.654023310824612E-02;2.268929054153907E+00;1.820110760019402E+00;-9.108654264231175E-01;6.654023310824612E-02;
8.600000000000000E+07;-9.051539195400179E-01;1.161858279741916E-01;2.294704354387409E+00;3.189192989481415E+00;-9.051539195400179E-01;1.161858279741916E-01;
8.650000000000000E+07;-8.967484734568014E-01;1.653986327790797E-01;2.323930125331604E+00;4.562706455529962E+00;-8.967484734568014E-01;1.653986327790797E-01;
8.700000000000000E+07;-8.858182382588492E-01;2.140332730427604E-01;2.353000112178512E+00;5.941868489915158E+00;-8.858182382588492E-01;2.140332730427604E-01;
8.750000000000000E+07;-8.721755459740655E-01;2.619391160690935E-01;2.388280263125913E+00;7.329729230793633E+00;-8.721755459740655E-01;2.619391160690935E-01;
8.800000000000000E+07;-8.559594243792970E-01;3.090107107286388E-01;2.427151138735320E+00;8.728936108221465E+00;-8.559594243792970E-01;3.090107107286388E-01;
8.850000000000000E+07;-8.369642506422734E-01;3.552706099698455E-01;2.474874609866596E+00;1.014868999449512E+01;-8.369642506422734E-01;3.552706099698455E-01;
8.900000000000000E+07;-8.157868625794527E-01;4.003445621728384E-01;2.519496701816731E+00;1.157949500898905E+01;-8.157868625794527E-01;4.003445621728384E-01;
8.950000000000000E+07;-7.918906973952469E-01;4.439510929743723E-01;2.579494778481226E+00;1.302686832901070E+01;-7.918906973952469E-01;4.439510929743723E-01;
9.000000000000000E+07;-7.659029668845517E-01;4.863420370243153E-01;2.635873815922066E+00;1.449628805899386E+01;-7.659029668845517E-01;4.863420370243153E-01;
9.050000000000000E+07;-7.372691184995028E-01;5.272760220145963E-01;2.706424938323819E+00;1.599685033260335E+01;-7.372691184995028E-01;5.272760220145963E-01;
9.100000000000000E+07;-7.065699912115879E-01;5.668106921009499E-01;2.775256781132317E+00;1.752848109129216E+01;-7.065699912115879E-01;5.668106921009499E-01;
9.150000000000000E+07;-6.736654035463283E-01;6.042789479891373E-01;2.858563094809726E+00;1.908464907709070E+01;-6.736654035463283E-01;6.042789479891373E-01;
9.200000000000000E+07;-6.388754597106190E-01;6.399535290205400E-01;2.944603108044092E+00;2.067398434751554E+01;-6.388754597106190E-01;6.399535290205400E-01;
9.250000000000000E+07;-6.025290489507561E-01;6.737486510472511E-01;3.028115220920248E+00;2.229452322319251E+01;-6.025290489507561E-01;6.737486510472511E-01;
9.300000000000000E+07;-5.639654431701953E-01;7.054266758799576E-01;3.130779712982022E+00;2.396464032086707E+01;-5.639654431701953E-01;7.054266758799576E-01;
9.350000000000000E+07;-5.234077390551359E-01;7.352199874701792E-01;3.241439906014551E+00;2.569513714356784E+01;-5.234077390551359E-01;7.352199874701792E-01;
9.400000000000000E+07;-4.819223327503385E-01;7.620230260166799E-01;3.368510502303243E+00;2.744275659270969E+01;-4.819223327503385E-01;7.620230260166799E-01;
9.450000000000000E+07;-4.383192116048872E-01;7.872024864073888E-01;3.499944586965660E+00;2.928090583906220E+01;-4.383192116048872E-01;7.872024864073888E-01;
9.500000000000000E+07;-3.936549032806797E-01;8.097131058952699E-01;3.645248566302095E+00;3.116787429290596E+01;-3.936549032806797E-01;8.097131058952699E-01;
9.550000000000000E+07;-3.475323377215368E-01;8.297280985584219E-01;3.808911813295420E+00;3.313224093741157E+01;-3.475323377215368E-01;8.297280985584219E-01;
9.600000000000000E+07;-3.005324586066642E-01;8.469316537508801E-01;3.993622705587043E+00;3.516168156159358E+01;-3.005324586066642E-01;8.469316537508801E-01;
9.650000000000000E+07;-2.524439376686485E-01;8.614873458445814E-01;4.200138592031375E+00;3.728129630055408E+01;-2.524439376686485E-01;8.614873458445814E-01;
9.700000000000000E+07;-2.037336394862483E-01;8.732457280294188E-01;4.429834925241754E+00;3.948599529552054E+01;-2.037336394862483E-01;8.732457280294188E-01;
9.750000000000000E+07;-1.542858786228440E-01;8.823707533812295E-01;4.680767981298190E+00;4.179961942936259E+01;-1.542858786228440E-01;8.823707533812295E-01;
9.800000000000000E+07;-1.043003531614513E-01;8.885207151623178E-01;4.969076903339674E+00;4.422815168187048E+01;-1.043003531614513E-01;8.885207151623178E-01;
9.850000000000000E+07;-5.380411070291467E-02;8.913439577809154E-01;5.317883706221576E+00;4.678977895225587E+01;-5.380411070291467E-02;8.913439577809154E-01;
9.900000000000000E+07;-3.519214974375788E-03;8.922514228581798E-01;5.653259479355174E+00;4.948256019035778E+01;-3.519214974375788E-03;8.922514228581798E-01;
9.950000000000000E+07;4.695393500968283E-02;8.898908857938406E-01;6.054853124708846E+00;5.234028525231631E+01;4.695393500968283E-02;8.898908857938406E-01;
1.000000000000000E+08;9.709068344573377E-02;8.845355465148083E-01;6.514896220084906E+00;5.536484528150956E+01;9.709068344573377E-02;8.845355465148083E-01;
1.005000000000000E+08;1.470607286662199E-01;8.769113841008138E-01;6.996408564904074E+00;5.859830963729487E+01;1.470607286662199E-01;8.769113841008138E-01;
1.010000000000000E+08;1.970777890864401E-01;8.661704673445820E-01;7.559815074971652E+00;6.209395038036045E+01;1.970777890864401E-01;8.661704673445820E-01;
1.015000000000000E+08;2.465236645364526E-01;8.525923022478588E-01;8.199669891704081E+00;6.585553946097883E+01;2.465236645364526E-01;8.525923022478588E-01;
1.020000000000000E+08;2.956674081961980E-01;8.357529525478390E-01;8.961310449026282E+00;6.996281283486316E+01;2.956674081961980E-01;8.357529525478390E-01;
1.025000000000000E+08;3.439408264958639E-01;8.153641460153738E-01;9.901370301596184E+00;7.444668349082039E+01;3.439408264958639E-01;8.153641460153738E-01;
1.030000000000000E+08;3.907631259534933E-01;7.912361497048486E-01;1.109326928914273E+01;7.934385659252257E+01;3.907631259534933E-01;7.912361497048486E-01;
1.035000000000000E+08;4.357921769261283E-01;7.636719272735307E-01;1.258369404756205E+01;8.470887551472519E+01;4.357921769261283E-01;7.636719272735307E-01;
1.040000000000000E+08;4.787637708427129E-01;7.330323768040925E-01;1.442780936804241E+01;9.060703687019765E+01;4.787637708427129E-01;7.330323768040925E-01;
1.045000000000000E+08;5.192666015140168E-01;6.994765429256480E-01;1.673404511104301E+01;9.709934719893947E+01;5.192666015140168E-01;6.994765429256480E-01;
1.050000000000000E+08;5.568811170401554E-01;6.633589831031161E-01;1.962904488051935E+01;1.042362539322618E+02;5.568811170401554E-01;6.633589831031161E-01;
1.055000000000000E+08;5.923514293502865E-01;6.247654689638995E-01;2.325099660953446E+01;1.122650649207200E+02;5.923514293502865E-01;6.247654689638995E-01;
1.060000000000000E+08;6.246979011810317E-01;5.827880549041620E-01;2.810761946273945E+01;1.212894565821270E+02;6.246979011810317E-01;5.827880549041620E-01;
1.065000000000000E+08;6.535568241662377E-01;5.379920703926004E-01;3.461011546060703E+01;1.313911612871576E+02;6.535568241662377E-01;5.379920703926004E-01;
1.070000000000000E+08;6.776968746485310E-01;4.902877113452554E-01;4.362164253804387E+01;1.424172998704430E+02;6.776968746485310E-01;4.902877113452554E-01;
1.075000000000000E+08;6.959250282743439E-01;4.407697758911416E-01;5.604569056308973E+01;1.537177986022669E+02;6.959250282743439E-01;4.407697758911416E-01;
1.080000000000000E+08;7.070818836785384E-01;3.911340627355733E-01;7.266926846896351E+01;1.638004844207413E+02;7.070818836785384E-01;3.911340627355733E-01;
1.085000000000000E+08;7.125081968756637E-01;3.433661998879644E-01;9.335033770936364E+01;1.712106577544155E+02;7.125081968756637E-01;3.433661998879644E-01;
1.090000000000000E+08;7.127429882206263E-01;2.975071470171474E-01;1.179599449215796E+02;1.739532264756518E+02;7.127429882206263E-01;2.975071470171474E-01;
1.095000000000000E+08;7.056895996759623E-01;2.545335260886593E-01;1.443849919931102E+02;1.681133163362460E+02;7.056895996759623E-01;2.545335260886593E-01;
1.100000000000000E+08;6.914074146068319E-01;2.202435846641423E-01;1.646930856254470E+02;1.532271902142757E+02;6.914074146068319E-01;2.202435846641423E-01;
1.105000000000000E+08;6.774747393933845E-01;1.987197740604756E-01;1.747373411994170E+02;1.384690104027905E+02;6.774747393933845E-01;1.987197740604756E-01;
1.110000000000000E+08;6.703421166819536E-01;1.864015210681169E-01;1.798551351199111E+02;1.299691255080127E+02;6.703421166819536E-01;1.864015210681169E-01;
1.115000000000000E+08;6.730756138707150E-01;1.785564793219667E-01;1.856008529025442E+02;1.286782528449704E+02;6.730756138707150E-01;1.785564793219667E-01;
1.120000000000000E+08;6.863613840631642E-01;1.684937058239739E-01;1.974284651534542E+02;1.329241263723710E+02;6.863613840631642E-01;1.684937058239739E-01;
1.125000000000000E+08;7.064606963895309E-01;1.518287966070340E-01;2.187662914489670E+02;1.390153280917461E+02;7.064606963895309E-01;1.518287966070340E-01;
1.130000000000000E+08;7.287021962448833E-01;1.274686439077393E-01;2.519427140908660E+02;1.418670839581356E+02;7.287021962448833E-01;1.274686439077393E-01;
1.135000000000000E+08;7.499501530970315E-01;9.633690381578651E-02;2.982310734930338E+02;1.341632632384076E+02;7.499501530970315E-01;9.633690381578651E-02;
1.140000000000000E+08;7.687617307627660E-01;6.012739516118883E-02;3.550668879710364E+02;1.053269293187815E+02;7.687617307627660E-01;6.012739516118883E-02;
1.145000000000000E+08;7.850285628292163E-01;2.041377430724153E-02;4.110208328673294E+02;4.377872408050883E+01;7.850285628292163E-01;2.041377430724153E-02;
1.150000000000000E+08;7.995124486249765E-01;-2.239481310292464E-02;4.426373100251178E+02;-5.502845642971165E+01;7.995124486249765E-01;-2.239481310292464E-02;
1.155000000000000E+08;8.113001916769164E-01;-6.998450806169855E-02;4.158627736338053E+02;-1.727780082383472E+02;8.113001916769164E-01;-6.998450806169855E-02;
1.160000000000000E+08;8.177086239166799E-01;-1.223944383173809E-01;3.281151584869443E+02;-2.538748318030367E+02;8.177086239166799E-01;-1.223944383173809E-01;
1.165000000000000E+08;8.171512927610578E-01;-1.767530048532266E-01;2.327181001633935E+02;-2.732930108440639E+02;8.171512927610578E-01;-1.767530048532266E-01;
1.170000000000000E+08;8.102692917772820E-01;-2.307591959385347E-01;1.625892667635905E+02;-2.585608240387879E+02;8.102692917772820E-01;-2.307591959385347E-01;
1.175000000000000E+08;7.983168006488295E-01;-2.829868209894951E-01;1.170148376363665E+02;-2.343427618802187E+02;7.983168006488295E-01;-2.829868209894951E-01;
1.180000000000000E+08;7.825629546063095E-01;-3.338639064645035E-01;8.697341458007881E+01;-2.103159523285819E+02;7.825629546063095E-01;-3.338639064645035E-01;
1.185000000000000E+08;7.626066184318154E-01;-3.832731476668930E-01;6.679645719658429E+01;-1.885686344343973E+02;7.626066184318154E-01;-3.832731476668930E-01;
1.190000000000000E+08;7.389304749768298E-01;-4.303431672607265E-01;5.304594797625705E+01;-1.698594258427935E+02;7.389304749768298E-01;-4.303431672607265E-01;
1.195000000000000E+08;7.125430708784934E-01;-4.745552862062310E-01;4.338043782560938E+01;-1.541593745324672E+02;7.125430708784934E-01;-4.745552862062310E-01;
1.200000000000000E+08;6.844337586222879E-01;-5.165072781893187E-01;3.613513286214579E+01;-1.409828340220060E+02;6.844337586222879E-01;-5.165072781893187E-01;
1.205000000000000E+08;6.546301109294852E-01;-5.571828939497200E-01;3.036845634246287E+01;-1.296578842112735E+02;6.546301109294852E-01;-5.571828939497200E-01;
1.210000000000000E+08;6.224470161716852E-01;-5.966780223768815E-01;2.572703705904573E+01;-1.196776628665160E+02;6.224470161716852E-01;-5.966780223768815E-01;
1.215000000000000E+08;5.875086103001427E-01;-6.342936389352438E-01;2.205372114106010E+01;-1.107979902674903E+02;5.875086103001427E-01;-6.342936389352438E-01;
1.220000000000000E+08;5.502999899624483E-01;-6.699535313368639E-01;1.907114545071587E+01;-1.029007266518077E+02;5.502999899624483E-01;-6.699535313368639E-01;
1.225000000000000E+08;5.107962863506673E-01;-7.034984040080037E-01;1.662810406772036E+01;-9.581440934710368E+01;5.107962863506673E-01;-7.034984040080037E-01;
1.230000000000000E+08;4.690033169890065E-01;-7.347541609749926E-01;1.461219453198840E+01;-8.940560327590835E+01;4.690033169890065E-01;-7.347541609749926E-01;
1.235000000000000E+08;4.248678535762690E-01;-7.634062025171753E-01;1.295463452221219E+01;-8.356333195823538E+01;4.248678535762690E-01;-7.634062025171753E-01;
1.240000000000000E+08;3.789035625236394E-01;-7.888370810013977E-01;1.161519872154343E+01;-7.825572740734532E+01;3.789035625236394E-01;-7.888370810013977E-01;
1.245000000000000E+08;3.317349791055657E-01;-8.113046200508669E-01;1.048778590293409E+01;-7.343496760314549E+01;3.317349791055657E-01;-8.113046200508669E-01;
1.250000000000000E+08;2.832700740786021E-01;-8.311287367462178E-01;9.505500437051250E+00;-6.900330182825617E+01;2.832700740786021E-01;-8.311287367462178E-01;
1.255000000000000E+08;2.335116013145891E-01;-8.483722862831494E-01;8.634099158048880E+00;-6.489797476671660E+01;2.335116013145891E-01;-8.483722862831494E-01;
1.260000000000000E+08;1.820016576589826E-01;-8.622169927134004E-01;7.909770490134075E+00;-6.104020702270670E+01;1.820016576589826E-01;-8.622169927134004E-01;
1.265000000000000E+08;1.293248492262491E-01;-8.725239094341963E-01;7.304890997012323E+00;-5.742657003358809E+01;1.293248492262491E-01;-8.725239094341963E-01;
1.270000000000000E+08;7.602218241594957E-02;-8.794508970311737E-01;6.784383267279481E+00;-5.404791744064588E+01;7.602218241594957E-02;-8.794508970311737E-01;
1.275000000000000E+08;2.265461251365004E-02;-8.828000738214333E-01;6.346086026838645E+00;-5.089534318259287E+01;2.265461251365004E-02;-8.828000738214333E-01;
1.280000000000000E+08;-3.061055087557309E-02;-8.827409203186204E-01;5.969172873493394E+00;-4.793884472640568E+01;-3.061055087557309E-02;-8.827409203186204E-01;
1.285000000000000E+08;-8.390285004923392E-02;-8.795483363679685E-01;5.628960480219503E+00;-4.514090874660407E+01;-8.390285004923392E-02;-8.795483363679685E-01;
1.290000000000000E+08;-1.369042446320113E-01;-8.733589731941751E-01;5.315539600574634E+00;-4.249286876651295E+01;-1.369042446320113E-01;-8.733589731941751E-01;
1.295000000000000E+08;-1.895425821276047E-01;-8.635718137267732E-01;5.051846127286105E+00;-3.996596954445793E+01;-1.895425821276047E-01;-8.635718137267732E-01;
1.300000000000000E+08;-2.412370077956226E-01;-8.505169524246804E-01;4.823784246512136E+00;-3.756620017360085E+01;-2.412370077956226E-01;-8.505169524246804E-01;
1.305000000000000E+08;-2.920437009397964E-01;-8.342916404007553E-01;4.622180940984997E+00;-3.527034643361853E+01;-2.920437009397964E-01;-8.342916404007553E-01;
1.310000000000000E+08;-3.414816802761798E-01;-8.151024430247951E-01;4.444021349939306E+00;-3.308092496745341E+01;-3.414816802761798E-01;-8.151024430247951E-01;
1.315000000000000E+08;-3.898069314879409E-01;-7.930081767665375E-01;4.280316044873334E+00;-3.097173678287266E+01;-3.898069314879409E-01;-7.930081767665375E-01;
1.320000000000000E+08;-4.366266528062634E-01;-7.681252860982647E-01;4.132402690163027E+00;-2.894312674928167E+01;-4.366266528062634E-01;-7.681252860982647E-01;
1.325000000000000E+08;-4.820120745325586E-01;-7.401923554247064E-01;4.004374173063457E+00;-2.697253660028722E+01;-4.820120745325586E-01;-7.401923554247064E-01;
1.330000000000000E+08;-5.251745015588883E-01;-7.096713652060396E-01;3.897077896769177E+00;-2.507858137709601E+01;-5.251745015588883E-01;-7.096713652060396E-01;
1.335000000000000E+08;-5.662242415108804E-01;-6.766300728759885E-01;3.805745138016314E+00;-2.324481021872240E+01;-5.662242415108804E-01;-6.766300728759885E-01;
1.340000000000000E+08;-6.048697052716979E-01;-6.412038392139563E-01;3.732993066932998E+00;-2.146828576413401E+01;-6.048697052716979E-01;-6.412038392139563E-01;
1.345000000000000E+08;-6.411288154678598E-01;-6.038776149212269E-01;3.667228982231407E+00;-1.974765047799256E+01;-6.411288154678598E-01;-6.038776149212269E-01;
1.350000000000000E+08;-6.750667456609830E-01;-5.647630643048341E-01;3.605465039754644E+00;-1.807354051876374E+01;-6.750667456609830E-01;-5.647630643048341E-01;
1.355000000000000E+08;-7.064019323059225E-01;-5.241096454986172E-01;3.551004202566642E+00;-1.644782351528092E+01;-7.064019323059225E-01;-5.241096454986172E-01;
1.360000000000000E+08;-7.354077865251325E-01;-4.818281994838581E-01;3.499245818557365E+00;-1.485382599216919E+01;-7.354077865251325E-01;-4.818281994838581E-01;
1.365000000000000E+08;-7.619179548602659E-01;-4.383596553215806E-01;3.447912522481069E+00;-1.329767282658229E+01;-7.619179548602659E-01;-4.383596553215806E-01;
1.370000000000000E+08;-7.860917020711867E-01;-3.933528371675398E-01;3.398259710947003E+00;-1.175995439246097E+01;-7.860917020711867E-01;-3.933528371675398E-01;
1.375000000000000E+08;-8.076342711794718E-01;-3.471621280540775E-01;3.353026896914724E+00;-1.024662491244633E+01;-8.076342711794718E-01;-3.471621280540775E-01;
1.380000000000000E+08;-8.264389391829047E-01;-2.997909232174238E-01;3.314950455723694E+00;-8.751093658550168E+00;-8.264389391829047E-01;-2.997909232174238E-01;
1.385000000000000E+08;-8.421959369128706E-01;-2.511152551106201E-01;3.292796395645234E+00;-7.264500965558117E+00;-8.421959369128706E-01;-2.511152551106201E-01;
1.390000000000000E+08;-8.548678464006123E-01;-2.020553986205210E-01;3.279961109315718E+00;-5.803919562959270E+00;-8.548678464006123E-01;-2.020553986205210E-01;
1.395000000000000E+08;-8.647788829537171E-01;-1.521238349404962E-01;3.271148098478274E+00;-4.345722388054719E+00;-8.647788829537171E-01;-1.521238349404962E-01;
1.400000000000000E+08;-8.714185643971083E-01;-1.019163078103471E-01;3.277388834533488E+00;-2.901453936116705E+00;-8.714185643971083E-01;-1.019163078103471E-01;
1.405000000000000E+08;-8.749359118750789E-01;-5.162644751618257E-02;3.294749398370163E+00;-1.467473402838304E+00;-8.749359118750789E-01;-5.162644751618257E-02;
1.410000000000000E+08;-8.754488236048169E-01;-1.707244748522777E-03;3.320525665397656E+00;-4.853834787971033E-02;-8.754488236048169E-01;-1.707244748522777E-03;
1.415000000000000E+08;-8.729986867690112E-01;4.813298768815828E-02;3.355084410263235E+00;1.371137972045232E+00;-8.729986867690112E-01;4.813298768815828E-02;
1.420000000000000E+08;-8.676630233142586E-01;9.700812416450649E-02;3.398787033734545E+00;2.773581796147676E+00;-8.676630233142586E-01;9.700812416450649E-02;
