# Version 1.00
#
freq[Hz];re:Smith_S11;im:Smith_S11;re:Magnitude_Z<-S11[Ohm];im:Magnitude_Z<-S11[Ohm];re:Phase_S11;im:Phase_S11;
8.000000000000000E+07;-7.930490912384517E-01;-4.692635427656736E-01;2.195845994028646E+00;-1.366031065657647E+01;-7.930490912384517E-01;-4.692635427656736E-01;
8.050000000000000E+07;-8.176659528499834E-01;-4.235868814823755E-01;2.181767294507531E+00;-1.216038185886828E+01;-8.176659528499834E-01;-4.235868814823755E-01;
8.100000000000000E+07;-8.393375686807951E-01;-3.768501834827289E-01;2.177143285395841E+00;-1.069024324600116E+01;-8.393375686807951E-01;-3.768501834827289E-01;
8.150000000000000E+07;-8.582268252700165E-01;-3.297974053092264E-01;2.171395768759823E+00;-9.259359902630596E+00;-8.582268252700165E-01;-3.297974053092264E-01;
8.200000000000000E+07;-8.744893677546065E-01;-2.820868944531396E-01;2.166477175284474E+00;-7.850393709388605E+00;-8.744893677546065E-01;-2.820868944531396E-01;
8.250000000000000E+07;-8.879733079483623E-01;-2.336827015678668E-01;2.167637418107513E+00;-6.457016312123478E+00;-8.879733079483623E-01;-2.336827015678668E-01;
8.300000000000000E+07;-8.990351394808446E-01;-1.840082454367151E-01;2.168521862789575E+00;-5.054902869055440E+00;-8.990351394808446E-01;-1.840082454367151E-01;
8.350000000000000E+07;-9.071487715181378E-01;-1.330525487184979E-01;2.180323386240230E+00;-3.640368870629910E+00;-9.071487715181378E-01;-1.330525487184979E-01;
8.400000000000000E+07;-9.124477629460740E-01;-8.266009253983997E-02;2.191508134263294E+00;-2.255828878445378E+00;-9.124477629460740E-01;-8.266009253983997E-02;
8.450000000000000E+07;-9.150747638475383E-01;-3.235154852063760E-02;2.202385174651360E+00;-8.818600864844335E-01;-9.150747638475383E-01;-3.235154852063760E-02;
8.500000000000000E+07;-9.149909817399828E-01;1.786123701400179E-02;2.215024668083370E+00;4.870127014599273E-01;-9.149909817399828E-01;1.786123701400179E-02;
8.550000000000000E+07;-9.120320089247667E-01;6.795966719041675E-02;2.234391097472183E+00;1.856575527140118E+00;-9.120320089247667E-01;6.795966719041675E-02;
8.600000000000000E+07;-9.061125476015627E-01;1.174045998981633E-01;2.264518741677470E+00;3.219167157499524E+00;-9.061125476015627E-01;1.174045998981633E-01;
8.650000000000000E+07;-8.978434673214880E-01;1.668296939291150E-01;2.287346281482171E+00;4.596312671042675E+00;-8.978434673214880E-01;1.668296939291150E-01;
8.700000000000000E+07;-8.868139895410784E-01;2.154298772933322E-01;2.317371121407129E+00;5.973415982428555E+00;-8.868139895410784E-01;2.154298772933322E-01;
8.750000000000000E+07;-8.731572407531977E-01;2.634851033990823E-01;2.349990751304034E+00;7.363739907121729E+00;-8.731572407531977E-01;2.634851033990823E-01;
8.800000000000000E+07;-8.568188749593709E-01;3.106210396256021E-01;2.389439557539993E+00;8.764054696030485E+00;-8.568188749593709E-01;3.106210396256021E-01;
8.850000000000000E+07;-8.378883207494356E-01;3.568538237502255E-01;2.433521265499035E+00;1.018076144509818E+01;-8.378883207494356E-01;3.568538237502255E-01;
8.900000000000000E+07;-8.164843904027760E-01;4.017760704973070E-01;2.483780188740471E+00;1.160853739260645E+01;-8.164843904027760E-01;4.017760704973070E-01;
8.950000000000000E+07;-7.925666998335722E-01;4.454335298882362E-01;2.541645972507539E+00;1.305603347080192E+01;-7.925666998335722E-01;4.454335298882362E-01;
9.000000000000000E+07;-7.664180434489647E-01;4.877462039419659E-01;2.601255340444145E+00;1.452434360599587E+01;-7.664180434489647E-01;4.877462039419659E-01;
9.050000000000000E+07;-7.378747844256042E-01;5.287947926910488E-01;2.665542252772976E+00;1.602489704499705E+01;-7.378747844256042E-01;5.287947926910488E-01;
9.100000000000000E+07;-7.070517279146267E-01;5.682588084424366E-01;2.736528627925273E+00;1.755541231085296E+01;-7.070517279146267E-01;5.682588084424366E-01;
9.150000000000000E+07;-6.742770179082057E-01;6.057152258014489E-01;2.814735809685826E+00;1.910716642731917E+01;-6.742770179082057E-01;6.057152258014489E-01;
9.200000000000000E+07;-6.394364902616890E-01;6.415395349367210E-01;2.896566206598564E+00;2.069933095030350E+01;-6.394364902616890E-01;6.415395349367210E-01;
9.250000000000000E+07;-6.027899685337172E-01;6.751302401033377E-01;2.989407693500354E+00;2.232029912925797E+01;-6.027899685337172E-01;6.751302401033377E-01;
9.300000000000000E+07;-5.643647921355950E-01;7.070412329792188E-01;3.080695157154296E+00;2.399072156314255E+01;-5.643647921355950E-01;7.070412329792188E-01;
9.350000000000000E+07;-5.239918984502636E-01;7.388713301731712E-01;3.128861162049026E+00;2.575826837223179E+01;-5.239918984502636E-01;7.388713301731712E-01;
9.400000000000000E+07;-4.822706920770305E-01;7.635390258818081E-01;3.316821786439242E+00;2.746426438000179E+01;-4.822706920770305E-01;7.635390258818081E-01;
9.450000000000000E+07;-4.391326051539624E-01;7.886841043009661E-01;3.437269344030177E+00;2.928508794669211E+01;-4.391326051539624E-01;7.886841043009661E-01;
9.500000000000000E+07;-3.942960176273329E-01;8.112477862622667E-01;3.581753909455828E+00;3.117564612790405E+01;-3.942960176273329E-01;8.112477862622667E-01;
9.550000000000000E+07;-3.481677935203083E-01;8.311653455909664E-01;3.746291220057329E+00;3.313538190932816E+01;-3.481677935203083E-01;8.311653455909664E-01;
9.600000000000000E+07;-3.011020544421383E-01;8.484099790375349E-01;3.927979597299022E+00;3.516483267663288E+01;-3.011020544421383E-01;8.484099790375349E-01;
9.650000000000000E+07;-2.531378768856575E-01;8.631201387322266E-01;4.123489225243793E+00;3.727847860194166E+01;-2.531378768856575E-01;8.631201387322266E-01;
9.700000000000000E+07;-2.043974399582482E-01;8.749119448429771E-01;4.348983283069294E+00;3.948080018011080E+01;-2.043974399582482E-01;8.749119448429771E-01;
9.750000000000000E+07;-1.548428385059209E-01;8.839543560077930E-01;4.601535708722612E+00;4.179379541971586E+01;-1.548428385059209E-01;8.839543560077930E-01;
9.800000000000000E+07;-1.049964308697189E-01;8.904021996080714E-01;4.870305879350068E+00;4.421429760608999E+01;-1.049964308697189E-01;8.904021996080714E-01;
9.850000000000000E+07;-5.459404410663742E-02;8.936962061598819E-01;5.189454618790777E+00;4.676928197013308E+01;-5.459404410663742E-02;8.936962061598819E-01;
9.900000000000000E+07;-4.404134608707770E-03;8.941896802300222E-01;5.540950662216102E+00;4.944637641467538E+01;-4.404134608707770E-03;8.941896802300222E-01;
9.950000000000000E+07;4.632535298595836E-02;8.920492906280693E-01;5.925886186802429E+00;5.231201988737434E+01;4.632535298595836E-02;8.920492906280693E-01;
1.000000000000000E+08;9.638065229330720E-02;8.866037290806389E-01;6.384791935247361E+00;5.532303720598608E+01;9.638065229330720E-02;8.866037290806389E-01;
1.005000000000000E+08;1.463944357504521E-01;8.790638808020302E-01;6.854134244020060E+00;5.854977753352239E+01;1.463944357504521E-01;8.790638808020302E-01;
1.010000000000000E+08;1.962901301507215E-01;8.691104508890056E-01;7.354486431007289E+00;6.202161430704849E+01;1.962901301507215E-01;8.691104508890056E-01;
1.015000000000000E+08;2.457252233044147E-01;8.551675963772849E-01;8.010335293819219E+00;6.576987661656499E+01;2.457252233044147E-01;8.551675963772849E-01;
1.020000000000000E+08;2.948954543729690E-01;8.385221608657626E-01;8.744425759170223E+00;6.985985714018264E+01;2.948954543729690E-01;8.385221608657626E-01;
1.025000000000000E+08;3.432352068631236E-01;8.180520864358773E-01;9.676095116177125E+00;7.433125927315105E+01;3.432352068631236E-01;8.180520864358773E-01;
1.030000000000000E+08;3.903447734674079E-01;7.943976087343187E-01;1.079850575315931E+01;7.922213323688690E+01;3.903447734674079E-01;7.943976087343187E-01;
1.035000000000000E+08;4.352727968451191E-01;7.673307225627385E-01;1.221427329088516E+01;8.453448498906084E+01;4.352727968451191E-01;7.673307225627385E-01;
1.040000000000000E+08;4.785517490497123E-01;7.368459157040446E-01;1.399314408064033E+01;9.042716465718016E+01;4.785517490497123E-01;7.368459157040446E-01;
1.045000000000000E+08;5.190725488781157E-01;7.036796846224771E-01;1.620184081474875E+01;9.686469415975084E+01;5.190725488781157E-01;7.036796846224771E-01;
1.050000000000000E+08;5.574172396238195E-01;6.676653888881130E-01;1.897502186856723E+01;1.040533859933907E+02;5.574172396238195E-01;6.676653888881130E-01;
1.055000000000000E+08;5.933938271608759E-01;6.292839203249805E-01;2.243661794447259E+01;1.121065098370156E+02;5.933938271608759E-01;6.292839203249805E-01;
1.060000000000000E+08;6.264020426263075E-01;5.876049728215987E-01;2.705353728801706E+01;1.211918876704265E+02;6.264020426263075E-01;5.876049728215987E-01;
1.065000000000000E+08;6.557238769716177E-01;5.429791283035442E-01;3.328877187359910E+01;1.313598641450697E+02;6.557238769716177E-01;5.429791283035442E-01;
1.070000000000000E+08;6.807000177768205E-01;4.951827045247026E-01;4.197530345603516E+01;1.426388413733317E+02;6.807000177768205E-01;4.951827045247026E-01;
1.075000000000000E+08;6.997816872901114E-01;4.453792736903059E-01;5.406406748600686E+01;1.543809182585220E+02;6.997816872901114E-01;4.453792736903059E-01;
1.080000000000000E+08;7.121766760746605E-01;3.955092435408001E-01;7.029236068191673E+01;1.652984196283664E+02;7.121766760746605E-01;3.955092435408001E-01;
1.085000000000000E+08;7.186465543665564E-01;3.466653294417701E-01;9.114489194983962E+01;1.739095121321593E+02;7.186465543665564E-01;3.466653294417701E-01;
1.090000000000000E+08;7.196147450698716E-01;2.998500760072256E-01;1.163751128639341E+02;1.779251560514239E+02;7.196147450698716E-01;2.998500760072256E-01;
1.095000000000000E+08;7.132063527703532E-01;2.548806272968780E-01;1.448131458843811E+02;1.731352744676708E+02;7.132063527703532E-01;2.548806272968780E-01;
1.100000000000000E+08;6.990273279335874E-01;2.181743222100003E-01;1.678048107198146E+02;1.578861516782073E+02;6.990273279335874E-01;2.181743222100003E-01;
1.105000000000000E+08;6.836324584028864E-01;1.943237379895758E-01;1.795010723805902E+02;1.409673888556062E+02;6.836324584028864E-01;1.943237379895758E-01;
1.110000000000000E+08;6.739042824793759E-01;1.807436361224746E-01;1.845899635211111E+02;1.300251451537773E+02;6.739042824793759E-01;1.807436361224746E-01;
1.115000000000000E+08;6.739931098465303E-01;1.726705015106009E-01;1.895425739566150E+02;1.268744239079043E+02;6.739931098465303E-01;1.726705015106009E-01;
1.120000000000000E+08;6.852000506652225E-01;1.638644103601242E-01;1.999393147763347E+02;1.301021760905122E+02;6.852000506652225E-01;1.638644103601242E-01;
1.125000000000000E+08;7.042279137503736E-01;1.490921134502236E-01;2.195954828810544E+02;1.358970713870763E+02;7.042279137503736E-01;1.490921134502236E-01;
1.130000000000000E+08;7.266085105457181E-01;1.259521353501155E-01;2.517338079759805E+02;1.390095115899784E+02;7.266085105457181E-01;1.259521353501155E-01;
1.135000000000000E+08;7.481215613033591E-01;9.578586922820043E-02;2.968555268249500E+02;1.319043357003955E+02;7.481215613033591E-01;9.578586922820043E-02;
1.140000000000000E+08;7.672364239748439E-01;6.042065704439675E-02;3.524994554432261E+02;1.044806149363476E+02;7.672364239748439E-01;6.042065704439675E-02;
1.145000000000000E+08;7.838600088572101E-01;2.112566686780708E-02;4.082850020219291E+02;4.479308170615944E+01;7.838600088572101E-01;2.112566686780708E-02;
1.150000000000000E+08;7.984509814000750E-01;-2.156485434390627E-02;4.405414707982102E+02;-5.248576966979528E+01;7.984509814000750E-01;-2.156485434390627E-02;
1.155000000000000E+08;8.107502327518905E-01;-6.912085478985344E-02;4.162108955095096E+02;-1.702770686513606E+02;8.107502327518905E-01;-6.912085478985344E-02;
1.160000000000000E+08;8.175017914078654E-01;-1.213295041216772E-01;3.299952498984038E+02;-2.526306180999585E+02;8.175017914078654E-01;-1.213295041216772E-01;
1.165000000000000E+08;8.172526883900356E-01;-1.756922527925115E-01;2.343681114920066E+02;-2.733899267257870E+02;8.172526883900356E-01;-1.756922527925115E-01;
1.170000000000000E+08;8.107372890920609E-01;-2.296211348061926E-01;1.637444937534629E+02;-2.593234186427714E+02;8.107372890920609E-01;-2.296211348061926E-01;
1.175000000000000E+08;7.988011916391720E-01;-2.820484649700906E-01;1.176205598485019E+02;-2.349771451822459E+02;7.988011916391720E-01;-2.820484649700906E-01;
1.180000000000000E+08;7.830817062706213E-01;-3.330373258288517E-01;8.731838641101859E+01;-2.108266085409686E+02;7.830817062706213E-01;-3.330373258288517E-01;
1.185000000000000E+08;7.633376929400094E-01;-3.824185710171414E-01;6.701299567359122E+01;-1.890792967913844E+02;7.633376929400094E-01;-3.824185710171414E-01;
1.190000000000000E+08;7.398644917332058E-01;-4.296316702120295E-01;5.312449281119659E+01;-1.703171873053301E+02;7.398644917332058E-01;-4.296316702120295E-01;
1.195000000000000E+08;7.135412435874079E-01;-4.740022937365228E-01;4.338910831569421E+01;-1.545306280946410E+02;7.135412435874079E-01;-4.740022937365228E-01;
1.200000000000000E+08;6.854967803861772E-01;-5.162677250767329E-01;3.606042775328986E+01;-1.412711173827637E+02;6.854967803861772E-01;-5.162677250767329E-01;
1.205000000000000E+08;6.557129027311629E-01;-5.571811034175360E-01;3.025632340480231E+01;-1.298837719614127E+02;6.557129027311629E-01;-5.571811034175360E-01;
1.210000000000000E+08;6.233222463013857E-01;-5.969047713230985E-01;2.561055598584234E+01;-1.198167430573896E+02;6.233222463013857E-01;-5.969047713230985E-01;
1.215000000000000E+08;5.882704484915864E-01;-6.346976859921794E-01;2.193511814136972E+01;-1.108908817903211E+02;5.882704484915864E-01;-6.346976859921794E-01;
1.220000000000000E+08;5.508489207417120E-01;-6.704662932917543E-01;1.896629265769768E+01;-1.029488222017395E+02;5.508489207417120E-01;-6.704662932917543E-01;
1.225000000000000E+08;5.112568625557358E-01;-7.040063268579421E-01;1.654140537063510E+01;-9.584906015030926E+01;5.112568625557358E-01;-7.040063268579421E-01;
1.230000000000000E+08;4.692512038684383E-01;-7.354114699445298E-01;1.452682147293634E+01;-8.940908575984325E+01;4.692512038684383E-01;-7.354114699445298E-01;
1.235000000000000E+08;4.249243159746663E-01;-7.640877672853211E-01;1.288126563634727E+01;-8.354866533017100E+01;4.249243159746663E-01;-7.640877672853211E-01;
1.240000000000000E+08;3.789093308457224E-01;-7.895164993166141E-01;1.154958597951583E+01;-7.824045034053400E+01;3.789093308457224E-01;-7.895164993166141E-01;
1.245000000000000E+08;3.315668427415913E-01;-8.120628008433219E-01;1.042339752012319E+01;-7.340688129223321E+01;3.315668427415913E-01;-8.120628008433219E-01;
1.250000000000000E+08;2.829424093545217E-01;-8.321094395317651E-01;9.429043491613895E+00;-6.896443007764645E+01;2.829424093545217E-01;-8.321094395317651E-01;
1.255000000000000E+08;2.330105915672439E-01;-8.491478768808134E-01;8.578999477000574E+00;-6.485387215103681E+01;2.330105915672439E-01;-8.491478768808134E-01;
1.260000000000000E+08;1.812343045443137E-01;-8.629751224547637E-01;7.859075050879921E+00;-6.098318805279606E+01;1.812343045443137E-01;-8.629751224547637E-01;
1.265000000000000E+08;1.285353503322814E-01;-8.734634932641923E-01;7.243226723265032E+00;-5.737452322189056E+01;1.285353503322814E-01;-8.734634932641923E-01;
1.270000000000000E+08;7.508197455578230E-02;-8.802510450291950E-01;6.732464595572812E+00;-5.399268894489354E+01;7.508197455578230E-02;-8.802510450291950E-01;
1.275000000000000E+08;2.139081621187157E-02;-8.835116061208058E-01;6.297923783172850E+00;-5.082710226609377E+01;2.139081621187157E-02;-8.835116061208058E-01;
1.280000000000000E+08;-3.206504176518597E-02;-8.834959110617920E-01;5.916564285580251E+00;-4.786719238396011E+01;-3.206504176518597E-02;-8.834959110617920E-01;
1.285000000000000E+08;-8.570088360246633E-02;-8.803282629993957E-01;5.570834954807037E+00;-4.505898203459861E+01;-8.570088360246633E-02;-8.803282629993957E-01;
1.290000000000000E+08;-1.389050687801682E-01;-8.736910471006479E-01;5.274826045172786E+00;-4.240311327917598E+01;-1.389050687801682E-01;-8.736910471006479E-01;
1.295000000000000E+08;-1.916317709949927E-01;-8.637793588235100E-01;5.012750508020194E+00;-3.987714956715020E+01;-1.916317709949927E-01;-8.637793588235100E-01;
1.300000000000000E+08;-2.436268255074761E-01;-8.506226000145689E-01;4.781304880298052E+00;-3.746961309752626E+01;-2.436268255074761E-01;-8.506226000145689E-01;
1.305000000000000E+08;-2.944497112080205E-01;-8.341862261286758E-01;4.584350823017177E+00;-3.517596181951563E+01;-2.944497112080205E-01;-8.341862261286758E-01;
1.310000000000000E+08;-3.443136783548499E-01;-8.148093416553204E-01;4.401570096208827E+00;-3.297363422601952E+01;-3.443136783548499E-01;-8.148093416553204E-01;
1.315000000000000E+08;-3.926286804507406E-01;-7.924989283005272E-01;4.241300509587993E+00;-3.086693037914625E+01;-3.926286804507406E-01;-7.924989283005272E-01;
1.320000000000000E+08;-4.395859616222098E-01;-7.674279942185425E-01;4.092249652631190E+00;-2.883600407363611E+01;-4.395859616222098E-01;-7.674279942185425E-01;
1.325000000000000E+08;-4.849070585180204E-01;-7.394023368000453E-01;3.963951747998065E+00;-2.687109054842602E+01;-4.849070585180204E-01;-7.394023368000453E-01;
1.330000000000000E+08;-5.282573224004873E-01;-7.084476528975046E-01;3.859886424501670E+00;-2.496759515788218E+01;-5.282573224004873E-01;-7.084476528975046E-01;
1.335000000000000E+08;-5.693428718743804E-01;-6.751196602950371E-01;3.769964344415229E+00;-2.313143973370252E+01;-5.693428718743804E-01;-6.751196602950371E-01;
1.340000000000000E+08;-6.081396848242656E-01;-6.394384531075608E-01;3.694239966908501E+00;-2.135023597093688E+01;-6.081396848242656E-01;-6.394384531075608E-01;
1.345000000000000E+08;-6.444270685651571E-01;-6.020809718242166E-01;3.623055207121309E+00;-1.963323385296608E+01;-6.444270685651571E-01;-6.020809718242166E-01;
1.350000000000000E+08;-6.783817670396514E-01;-5.627480156991918E-01;3.559950859158071E+00;-1.795822420074310E+01;-6.783817670396514E-01;-5.627480156991918E-01;
1.355000000000000E+08;-7.099403400523063E-01;-5.215512850777899E-01;3.503991833285764E+00;-1.631932708049227E+01;-7.099403400523063E-01;-5.215512850777899E-01;
1.360000000000000E+08;-7.388284164356749E-01;-4.790585644073295E-01;3.452720369610522E+00;-1.472657292800766E+01;-7.388284164356749E-01;-4.790585644073295E-01;
1.365000000000000E+08;-7.653154684739222E-01;-4.349604473990548E-01;3.404925851348077E+00;-1.315857185667597E+01;-7.653154684739222E-01;-4.349604473990548E-01;
1.370000000000000E+08;-7.890348468644861E-01;-3.895476539576444E-01;3.365903577313706E+00;-1.161998749007435E+01;-7.890348468644861E-01;-3.895476539576444E-01;
1.375000000000000E+08;-8.105519941898327E-01;-3.428835784818710E-01;3.319469660966090E+00;-1.009767773517513E+01;-8.105519941898327E-01;-3.428835784818710E-01;
1.380000000000000E+08;-8.289848602961677E-01;-2.953881877568197E-01;3.285271308912616E+00;-8.605779122480762E+00;-8.289848602961677E-01;-2.953881877568197E-01;
1.385000000000000E+08;-8.446735429193412E-01;-2.466163039534465E-01;3.258234100788339E+00;-7.120148114792001E+00;-8.446735429193412E-01;-2.466163039534465E-01;
1.390000000000000E+08;-8.573072353705005E-01;-1.973191425326119E-01;3.240473545217331E+00;-5.656234137200706E+00;-8.573072353705005E-01;-1.973191425326119E-01;
1.395000000000000E+08;-8.667862864274586E-01;-1.470717580570731E-01;3.237559713740150E+00;-4.194235600879765E+00;-8.667862864274586E-01;-1.470717580570731E-01;
1.400000000000000E+08;-8.733368758826203E-01;-9.654558239539414E-02;3.239276832880297E+00;-2.743776121803149E+00;-8.733368758826203E-01;-9.654558239539414E-02;
1.405000000000000E+08;-8.765281030189778E-01;-4.622094572238451E-02;3.257591788986866E+00;-1.311792909162085E+00;-8.765281030189778E-01;-4.622094572238451E-02;
1.410000000000000E+08;-8.768563940687321E-01;4.117105840518818E-03;3.280325081009135E+00;1.168766764836089E-01;-8.768563940687321E-01;4.117105840518818E-03;
1.415000000000000E+08;-8.740353939114570E-01;5.372856357028245E-02;3.316960308030822E+00;1.528596365144002E+00;-8.740353939114570E-01;5.372856357028245E-02;
1.420000000000000E+08;-8.684031161107924E-01;1.030553614579685E-01;3.359306297185084E+00;2.943134995968818E+00;-8.684031161107924E-01;1.030553614579685E-01;
