# Version 1.00
#
freq[Hz];re:Smith_S11;im:Smith_S11;re:Magnitude_Z<-S11[Ohm];im:Magnitude_Z<-S11[Ohm];re:Phase_S11;im:Phase_S11;
8.000000000000000E+07;-8.289577352308564E-01;-3.827289731727473E-01;2.382133367680753E+00;-1.096152181662078E+01;-8.289577352308564E-01;-3.827289731727473E-01;
8.050000000000000E+07;-8.488294145194507E-01;-3.337661713536684E-01;2.381150749172988E+00;-9.456284067827328E+00;-8.488294145194507E-01;-3.337661713536684E-01;
8.100000000000000E+07;-8.656564423246838E-01;-2.846362988236354E-01;2.381187249897881E+00;-7.991603881913425E+00;-8.656564423246838E-01;-2.846362988236354E-01;
8.150000000000000E+07;-8.793983922644918E-01;-2.350644592539327E-01;2.388965165031913E+00;-6.552513728903020E+00;-8.793983922644918E-01;-2.350644592539327E-01;
8.200000000000000E+07;-8.905177558813356E-01;-1.854917100818582E-01;2.391196436746815E+00;-5.140460908158068E+00;-8.905177558813356E-01;-1.854917100818582E-01;
8.250000000000000E+07;-8.990285225343505E-01;-1.351762714449182E-01;2.393035852423761E+00;-3.729430681093130E+00;-8.990285225343505E-01;-1.351762714449182E-01;
8.300000000000000E+07;-9.049400562032031E-01;-8.399095960847139E-02;2.393236255325966E+00;-2.310076989429828E+00;-9.049400562032031E-01;-8.399095960847139E-02;
8.350000000000000E+07;-9.076204565299710E-01;-3.159371551778428E-02;2.406954279830895E+00;-8.679558866140157E-01;-9.076204565299710E-01;-3.159371551778428E-02;
8.400000000000000E+07;-9.071870771974615E-01;2.039041352424737E-02;2.427248483043274E+00;5.605183095507321E-01;-9.071870771974615E-01;2.039041352424737E-02;
8.450000000000000E+07;-9.041367149680363E-01;7.169116626368804E-02;2.442897595298997E+00;1.974486632866201E+00;-9.041367149680363E-01;7.169116626368804E-02;
8.500000000000000E+07;-8.980862993274561E-01;1.227820583996244E-01;2.465106118719354E+00;3.393825520838325E+00;-8.980862993274561E-01;1.227820583996244E-01;
8.550000000000000E+07;-8.889246970181485E-01;1.732527188911601E-01;2.498523196407341E+00;4.815179713572681E+00;-8.889246970181485E-01;1.732527188911601E-01;
8.600000000000000E+07;-8.771669712343968E-01;2.232038772067411E-01;2.529093315099437E+00;6.245953329540481E+00;-8.771669712343968E-01;2.232038772067411E-01;
8.650000000000000E+07;-8.623695080163386E-01;2.725355891112910E-01;2.569274825704865E+00;7.692887057110873E+00;-8.623695080163386E-01;2.725355891112910E-01;
8.700000000000000E+07;-8.449315947836030E-01;3.208767799996673E-01;2.611100046647839E+00;9.150301519547018E+00;-8.449315947836030E-01;3.208767799996673E-01;
8.750000000000000E+07;-8.245886448035296E-01;3.681801335633122E-01;2.662539373786602E+00;1.062666965271603E+01;-8.245886448035296E-01;3.681801335633122E-01;
8.800000000000000E+07;-8.014093767943035E-01;4.143596316835939E-01;2.722587789481572E+00;1.212723345358164E+01;-8.014093767943035E-01;4.143596316835939E-01;
8.850000000000000E+07;-7.754864584948611E-01;4.592393901150464E-01;2.790749555229626E+00;1.365461928107968E+01;-7.754864584948611E-01;4.592393901150464E-01;
8.900000000000000E+07;-7.471509949564018E-01;5.024361160361547E-01;2.864214267244111E+00;1.520240126377858E+01;-7.471509949564018E-01;5.024361160361547E-01;
8.950000000000000E+07;-7.159403204504405E-01;5.439509476985988E-01;2.955664985117763E+00;1.678687994644406E+01;-7.159403204504405E-01;5.439509476985988E-01;
9.000000000000000E+07;-6.825335002380237E-01;5.835511488941874E-01;3.052484216060816E+00;1.840013177246894E+01;-6.825335002380237E-01;5.835511488941874E-01;
9.050000000000000E+07;-6.464630125749594E-01;6.211714073898272E-01;3.168405283544251E+00;2.005917708834548E+01;-6.464630125749594E-01;6.211714073898272E-01;
9.100000000000000E+07;-6.087184570171974E-01;6.569922075060525E-01;3.275635398995471E+00;2.175749097326323E+01;-6.087184570171974E-01;6.569922075060525E-01;
9.150000000000000E+07;-5.682405539576000E-01;6.904134885537472E-01;3.413292363737211E+00;2.351505157989051E+01;-5.682405539576000E-01;6.904134885537472E-01;
9.200000000000000E+07;-5.263108466297816E-01;7.213629320662016E-01;3.554967984641783E+00;2.531107527501139E+01;-5.263108466297816E-01;7.213629320662016E-01;
9.250000000000000E+07;-4.821946221629246E-01;7.497725778438266E-01;3.721003557914452E+00;2.717493014729575E+01;-4.821946221629246E-01;7.497725778438266E-01;
9.300000000000000E+07;-4.363153416897528E-01;7.756630948905410E-01;3.902488052342970E+00;2.910932543252876E+01;-4.363153416897528E-01;7.756630948905410E-01;
9.350000000000000E+07;-3.889454278598556E-01;7.982413862068505E-01;4.121250518988878E+00;3.110404568168892E+01;-3.889454278598556E-01;7.982413862068505E-01;
9.400000000000000E+07;-3.400407270397455E-01;8.189764072067556E-01;4.331155110134095E+00;3.320491184606424E+01;-3.400407270397455E-01;8.189764072067556E-01;
9.450000000000000E+07;-2.895512113559100E-01;8.362757005412274E-01;4.588813997719207E+00;3.540091953359257E+01;-2.895512113559100E-01;8.362757005412274E-01;
9.500000000000000E+07;-2.375902031145742E-01;8.501957980329959E-01;4.895135971649895E+00;3.771168664562055E+01;-2.375902031145742E-01;8.501957980329959E-01;
9.550000000000000E+07;-1.847331848563411E-01;8.606288630901835E-01;5.250997090133902E+00;4.013612804814520E+01;-1.847331848563411E-01;8.606288630901835E-01;
9.600000000000000E+07;-1.308615184194013E-01;8.674792646923212E-01;5.669947119983173E+00;4.270418968770074E+01;-1.308615184194013E-01;8.674792646923212E-01;
9.650000000000000E+07;-7.656916238515894E-02;8.708596872272225E-01;6.147409106102590E+00;4.541883312394744E+01;-7.656916238515894E-02;8.708596872272225E-01;
9.700000000000000E+07;-2.145187881898815E-02;8.702063501754832E-01;6.727691488420950E+00;4.832806947410547E+01;-2.145187881898815E-02;8.702063501754832E-01;
9.750000000000000E+07;3.380920097653400E-02;8.654170000432104E-01;7.426883367090941E+00;5.143725356897355E+01;3.380920097653400E-02;8.654170000432104E-01;
9.800000000000000E+07;8.860799501823734E-02;8.559913028024828E-01;8.297132266600121E+00;5.475342983674105E+01;8.860799501823734E-02;8.559913028024828E-01;
9.850000000000000E+07;1.418980165232904E-01;8.420079120905120E-01;9.371222816366997E+00;5.825769002342201E+01;1.418980165232904E-01;8.420079120905120E-01;
9.900000000000000E+07;1.954302518739376E-01;8.246924840956112E-01;1.061016560449643E+01;6.212605948737059E+01;1.954302518739376E-01;8.246924840956112E-01;
9.950000000000000E+07;2.470774836611410E-01;8.027142654972864E-01;1.216117016930554E+01;6.627196952156106E+01;2.470774836611410E-01;8.027142654972864E-01;
1.000000000000000E+08;2.968263884430264E-01;7.766247264024850E-01;1.406470410054112E+01;7.075668437553085E+01;2.968263884430264E-01;7.766247264024850E-01;
1.005000000000000E+08;3.451959864006184E-01;7.466192104682443E-01;1.639610041230905E+01;7.570601743186272E+01;3.451959864006184E-01;7.466192104682443E-01;
1.010000000000000E+08;3.918641880174607E-01;7.111125686814591E-01;1.946073003509327E+01;8.122264333803575E+01;3.918641880174607E-01;7.111125686814591E-01;
1.015000000000000E+08;4.357528869699882E-01;6.683088011993773E-01;2.375668781049708E+01;8.735931912237932E+01;4.357528869699882E-01;6.683088011993773E-01;
1.020000000000000E+08;4.728552321945019E-01;6.178633752831556E-01;2.991440173981566E+01;9.366721441293910E+01;4.728552321945019E-01;6.178633752831556E-01;
1.025000000000000E+08;5.002550759884369E-01;5.611995511443745E-01;3.849899770458843E+01;9.938189544751211E+01;5.002550759884369E-01;5.611995511443745E-01;
1.030000000000000E+08;5.147350173618919E-01;5.018750991790319E-01;4.956998259546839E+01;1.029781597235549E+02;5.147350173618919E-01;5.018750991790319E-01;
1.035000000000000E+08;5.149146899331696E-01;4.442091026285002E-01;6.212488445585858E+01;1.026765669312874E+02;5.149146899331696E-01;4.442091026285002E-01;
1.040000000000000E+08;5.022137138528165E-01;3.948822620647129E-01;7.329890912233742E+01;9.781015166404971E+01;5.022137138528165E-01;3.948822620647129E-01;
1.045000000000000E+08;4.828775343974748E-01;3.573924980765619E-01;8.086902541868098E+01;9.044590213409418E+01;4.828775343974748E-01;3.573924980765619E-01;
1.050000000000000E+08;4.607602557395845E-01;3.275595177102121E-01;8.546193486907677E+01;8.228593408793402E+01;4.607602557395845E-01;3.275595177102121E-01;
1.055000000000000E+08;4.312808853188114E-01;3.073301885586648E-01;8.609195147819725E+01;7.354274549494838E+01;4.312808853188114E-01;3.073301885586648E-01;
1.060000000000000E+08;3.973712651263128E-01;3.060581408638713E-01;8.191445545988232E+01;6.699563206122912E+01;3.973712651263128E-01;3.060581408638713E-01;
1.065000000000000E+08;3.723506666492216E-01;3.264084589819332E-01;7.540792808953303E+01;6.521827774959877E+01;3.723506666492216E-01;3.264084589819332E-01;
1.070000000000000E+08;3.674387098284841E-01;3.616232006141499E-01;6.914770838139067E+01;6.811446783131032E+01;3.674387098284841E-01;3.616232006141499E-01;
1.075000000000000E+08;3.886575155122269E-01;3.984679772546170E-01;6.480257281101379E+01;7.482736785414014E+01;3.886575155122269E-01;3.984679772546170E-01;
1.080000000000000E+08;4.300127570067097E-01;4.220032041291042E-01;6.332381524398183E+01;8.390190083194179E+01;4.300127570067097E-01;4.220032041291042E-01;
1.085000000000000E+08;4.789640392851379E-01;4.279267456406594E-01;6.461421514379225E+01;9.413263534315278E+01;4.789640392851379E-01;4.279267456406594E-01;
1.090000000000000E+08;5.272128994349379E-01;4.216930568714757E-01;6.779841721317305E+01;1.050679567819733E+02;5.272128994349379E-01;4.216930568714757E-01;
1.095000000000000E+08;5.761275086654392E-01;4.082160275733985E-01;7.239746968263474E+01;1.178765073939270E+02;5.761275086654392E-01;4.082160275733985E-01;
1.100000000000000E+08;6.264200532468268E-01;3.847225502546066E-01;7.990767723700129E+01;1.337823759509568E+02;6.264200532468268E-01;3.847225502546066E-01;
1.105000000000000E+08;6.737722698423316E-01;3.501907583048620E-01;9.242139064389782E+01;1.528829408962713E+02;6.737722698423316E-01;3.501907583048620E-01;
1.110000000000000E+08;7.146404612822624E-01;3.075424978451249E-01;1.121246290913886E+02;1.747276913083993E+02;7.146404612822624E-01;3.075424978451249E-01;
1.115000000000000E+08;7.483946904537538E-01;2.593087441684879E-01;1.427326880988605E+02;1.986336115134580E+02;7.483946904537538E-01;2.593087441684879E-01;
1.120000000000000E+08;7.752451332583338E-01;2.082128612658163E-01;1.894388218995227E+02;2.218160742348614E+02;7.752451332583338E-01;2.082128612658163E-01;
1.125000000000000E+08;7.960701484463294E-01;1.556115129744510E-01;2.599128250384888E+02;2.364832967170251E+02;7.960701484463294E-01;1.556115129744510E-01;
1.130000000000000E+08;8.119097170695077E-01;1.024776158731735E-01;3.599648125871672E+02;2.233619724063611E+02;8.119097170695077E-01;1.024776158731735E-01;
1.135000000000000E+08;8.233980386024501E-01;4.905137676412574E-02;4.756904064729132E+02;1.460110521147757E+02;8.233980386024501E-01;4.905137676412574E-02;
1.140000000000000E+08;8.312013803750486E-01;-5.106182200226048E-03;5.418802936439721E+02;-1.790446288473485E+01;8.312013803750486E-01;-5.106182200226048E-03;
1.145000000000000E+08;8.352530084553779E-01;-5.971719697323147E-02;4.865003303478448E+02;-1.944696871439279E+02;8.352530084553779E-01;-5.971719697323147E-02;
1.150000000000000E+08;8.354216511892388E-01;-1.155124985221668E-01;3.570782258139528E+02;-2.857157293017262E+02;8.354216511892388E-01;-1.155124985221668E-01;
1.155000000000000E+08;8.311158788404353E-01;-1.720971458569586E-01;2.404819918854662E+02;-2.960084191639335E+02;8.311158788404353E-01;-1.720971458569586E-01;
1.160000000000000E+08;8.214052597607256E-01;-2.287740623787400E-01;1.620230266393496E+02;-2.715946116729652E+02;8.214052597607256E-01;-2.287740623787400E-01;
1.165000000000000E+08;8.063421216042099E-01;-2.843215073852646E-01;1.136424308447135E+02;-2.402539106354752E+02;8.063421216042099E-01;-2.843215073852646E-01;
1.170000000000000E+08;7.867392260815825E-01;-3.373357231009485E-01;8.389423354755304E+01;-2.117937924678533E+02;7.867392260815825E-01;-3.373357231009485E-01;
1.175000000000000E+08;7.636205153421088E-01;-3.876191875644047E-01;6.467835122825869E+01;-1.880515536221647E+02;7.636205153421088E-01;-3.876191875644047E-01;
1.180000000000000E+08;7.379853279632771E-01;-4.359449084268915E-01;5.128141668188260E+01;-1.685139140396719E+02;7.379853279632771E-01;-4.359449084268915E-01;
1.185000000000000E+08;7.091376559930599E-01;-4.826052305832652E-01;4.160767350478704E+01;-1.519974768336438E+02;7.091376559930599E-01;-4.826052305832652E-01;
1.190000000000000E+08;6.769210817489977E-01;-5.268839041032585E-01;3.457859201182088E+01;-1.379325491244943E+02;6.769210817489977E-01;-5.268839041032585E-01;
1.195000000000000E+08;6.420740869735666E-01;-5.678468340032058E-01;2.944005896338202E+01;-1.260310704915434E+02;6.420740869735666E-01;-5.678468340032058E-01;
1.200000000000000E+08;6.056506850531441E-01;-6.058811061970675E-01;2.545863510164941E+01;-1.159351863300928E+02;6.056506850531441E-01;-6.058811061970675E-01;
1.205000000000000E+08;5.678530417539945E-01;-6.418751119490599E-01;2.217429646369779E+01;-1.072016908565360E+02;5.678530417539945E-01;-6.418751119490599E-01;
1.210000000000000E+08;5.279872568438018E-01;-6.758272544912951E-01;1.946077931812600E+01;-9.945385683339553E+01;5.279872568438018E-01;-6.758272544912951E-01;
1.215000000000000E+08;4.862072560392767E-01;-7.074611409482636E-01;1.720776054749971E+01;-9.254097010203508E+01;4.862072560392767E-01;-7.074611409482636E-01;
1.220000000000000E+08;4.425976269467394E-01;-7.366608829840432E-01;1.531803946314620E+01;-8.632407566214323E+01;4.425976269467394E-01;-7.366608829840432E-01;
1.225000000000000E+08;3.973451773022774E-01;-7.633976641864287E-01;1.370768298263075E+01;-8.070008659677418E+01;3.973451773022774E-01;-7.633976641864287E-01;
1.230000000000000E+08;3.502423082767672E-01;-7.873731653451066E-01;1.234831399109442E+01;-7.555337930806564E+01;3.502423082767672E-01;-7.873731653451066E-01;
1.235000000000000E+08;3.015317822283439E-01;-8.082602003944976E-01;1.120780509696008E+01;-7.082903925279200E+01;3.015317822283439E-01;-8.082602003944976E-01;
1.240000000000000E+08;2.518812374885278E-01;-8.257878578223725E-01;1.025405788297356E+01;-6.650958628179434E+01;2.518812374885278E-01;-8.257878578223725E-01;
1.245000000000000E+08;2.014514419522732E-01;-8.406087650042618E-01;9.402427890526424E+00;-6.253120244733537E+01;2.014514419522732E-01;-8.406087650042618E-01;
1.250000000000000E+08;1.502580134860780E-01;-8.528534130277402E-01;8.626330476039813E+00;-5.884099742429709E+01;1.502580134860780E-01;-8.528534130277402E-01;
1.255000000000000E+08;9.753505033642135E-02;-8.621851631565850E-01;7.931784194150617E+00;-5.534611047886728E+01;9.753505033642135E-02;-8.621851631565850E-01;
1.260000000000000E+08;4.332428933915405E-02;-8.679613456699611E-01;7.339013902420893E+00;-5.202544288051304E+01;4.345846643368926E-02;-8.678994201414292E-01;
1.265000000000000E+08;-1.141357124902129E-02;-8.698219503842919E-01;6.835431092081397E+00;-4.887882358785791E+01;-1.141357124902129E-02;-8.698219503842919E-01;
1.270000000000000E+08;-6.628190375461759E-02;-8.675624786830256E-01;6.428324993342507E+00;-4.591196505049339E+01;-6.628190375461759E-02;-8.675624786830256E-01;
1.275000000000000E+08;-1.206379167810810E-01;-8.614472081854148E-01;6.090211906382995E+00;-4.311718863847895E+01;-1.206379167810810E-01;-8.614472081854148E-01;
1.280000000000000E+08;-1.742560439575654E-01;-8.519938682910261E-01;5.790209522308390E+00;-4.047917544752794E+01;-1.742560439575654E-01;-8.519938682910261E-01;
1.285000000000000E+08;-2.272377227411943E-01;-8.394211001915340E-01;5.512525457344558E+00;-3.797013759463911E+01;-2.272377227411943E-01;-8.394211001915340E-01;
1.290000000000000E+08;-2.792807091529269E-01;-8.234722465296714E-01;5.268487528686085E+00;-3.557629319500955E+01;-2.792807091529269E-01;-8.234722465296714E-01;
1.295000000000000E+08;-3.302485603728164E-01;-8.040348289729062E-01;5.059199481757421E+00;-3.327912944802809E+01;-3.302485603728164E-01;-8.040348289729062E-01;
1.300000000000000E+08;-3.797042211006519E-01;-7.815065352016711E-01;4.873497818084591E+00;-3.108202214529522E+01;-3.797042211006519E-01;-7.815065352016711E-01;
1.305000000000000E+08;-4.275929089023243E-01;-7.558294151806831E-01;4.711727960831045E+00;-2.896675452104596E+01;-4.275929089023243E-01;-7.558294151806831E-01;
1.310000000000000E+08;-4.738741661851454E-01;-7.269866710669559E-01;4.571466097917173E+00;-2.691731043529563E+01;-4.738741661851454E-01;-7.269866710669559E-01;
1.315000000000000E+08;-5.180660943351347E-01;-6.953663090934146E-01;4.448851704622578E+00;-2.494087522638492E+01;-5.180660943351347E-01;-6.953663090934146E-01;
1.320000000000000E+08;-5.599546256275235E-01;-6.607174011274963E-01;4.353707626586825E+00;-2.302146476230725E+01;-5.599546256275235E-01;-6.607174011274963E-01;
1.325000000000000E+08;-5.993825396371455E-01;-6.236287517656722E-01;4.272702862492562E+00;-2.116192787046691E+01;-5.993825396371455E-01;-6.236287517656722E-01;
1.330000000000000E+08;-6.357688014587564E-01;-5.840026271663755E-01;4.222008044325628E+00;-1.935835621750665E+01;-6.357688014587564E-01;-5.840026271663755E-01;
1.335000000000000E+08;-6.689205236487146E-01;-5.423501550231045E-01;4.195595503129233E+00;-1.761197684742382E+01;-6.689205236487146E-01;-5.423501550231045E-01;
1.340000000000000E+08;-6.990896226975888E-01;-4.993085540376843E-01;4.176446808377500E+00;-1.592073952864409E+01;-6.990896226975888E-01;-4.993085540376843E-01;
1.345000000000000E+08;-7.263882702917329E-01;-4.549806596687707E-01;4.162494411247440E+00;-1.427424401601802E+01;-7.263882702917329E-01;-4.549806596687707E-01;
1.350000000000000E+08;-7.507512520865676E-01;-4.098239846269280E-01;4.151094164876795E+00;-1.267593963226278E+01;-7.507512520865676E-01;-4.098239846269280E-01;
1.355000000000000E+08;-7.723754416194858E-01;-3.637497836393580E-01;4.141005353534707E+00;-1.111151651106756E+01;-7.723754416194858E-01;-3.637497836393580E-01;
1.360000000000000E+08;-7.916389539756959E-01;-3.171168716250721E-01;4.119346273613318E+00;-9.579026927606682E+00;-7.916389539756959E-01;-3.171168716250721E-01;
1.365000000000000E+08;-8.084663803902560E-01;-2.698885149137413E-01;4.090792035976190E+00;-8.072300204965591E+00;-8.084663803902560E-01;-2.698885149137413E-01;
1.370000000000000E+08;-8.229105432960792E-01;-2.210201667023463E-01;4.062578393894588E+00;-6.554858181560526E+00;-8.229105432960792E-01;-2.210201667023463E-01;
1.375000000000000E+08;-8.345614775696565E-01;-1.711979415787268E-01;4.038357861902257E+00;-5.042761305828745E+00;-8.345614775696565E-01;-1.711979415787268E-01;
1.380000000000000E+08;-8.430236559534870E-01;-1.206743319034179E-01;4.027041636267024E+00;-3.537489675248751E+00;-8.430236559534870E-01;-1.206743319034179E-01;
1.385000000000000E+08;-8.477801653016112E-01;-6.940182046091174E-02;4.042752764035510E+00;-2.029822321385736E+00;-8.477801653016112E-01;-6.940182046091174E-02;
1.390000000000000E+08;-8.495164740444147E-01;-1.838642848635188E-02;4.062842703819532E+00;-5.374499795446523E-01;-8.495164740444147E-01;-1.838642848635188E-02;
1.395000000000000E+08;-8.473272292415698E-01;3.301071115301238E-02;4.114981312716157E+00;9.670046480601822E-01;-8.473272292415698E-01;3.301071115301238E-02;
1.400000000000000E+08;-8.418386491266753E-01;8.377376167031594E-02;4.181483177977507E+00;2.464378006644786E+00;-8.418386491266753E-01;8.377376167031594E-02;
1.405000000000000E+08;-8.328554353108818E-01;1.337027914390038E-01;4.270880560011983E+00;3.958941924678095E+00;-8.328554353108818E-01;1.337027914390038E-01;
1.410000000000000E+08;-8.207810229114056E-01;1.819331446461332E-01;4.378566138133960E+00;5.433527378838366E+00;-8.207810229114056E-01;1.819331446461332E-01;
1.415000000000000E+08;-8.058472653504883E-01;2.283871475563758E-01;4.503885052428013E+00;6.893155958817291E+00;-8.058472653504883E-01;2.283871475563758E-01;
1.420000000000000E+08;-7.891250834801233E-01;2.731816862641553E-01;4.619820258292005E+00;8.339905767002817E+00;-7.891250834801233E-01;2.731816862641553E-01;
