# Version 1.00
#
freq[Hz];re:Smith_S11;im:Smith_S11;re:Magnitude_Z<-S11[Ohm];im:Magnitude_Z<-S11[Ohm];re:Phase_S11;im:Phase_S11;
8.000000000000000E+07;-8.587955358462759E-01;-2.998206945010259E-01;2.434092124611480E+00;-8.457533716409738E+00;-8.587955358462759E-01;-2.998206945010259E-01;
8.050000000000000E+07;-8.741041279251530E-01;-2.485814902360804E-01;2.436294620863280E+00;-6.955159035769934E+00;-8.741041279251530E-01;-2.485814902360804E-01;
8.100000000000000E+07;-8.860870692326223E-01;-1.969564833619855E-01;2.447888711716359E+00;-5.476921977214606E+00;-8.860870692326223E-01;-1.969564833619855E-01;
8.150000000000000E+07;-8.951987086643687E-01;-1.456693632665053E-01;2.455021050568920E+00;-4.031814438050416E+00;-8.951987086643687E-01;-1.456693632665053E-01;
8.200000000000000E+07;-9.012623689622250E-01;-9.414031697894079E-02;2.467997741273388E+00;-2.597933888161842E+00;-9.012623689622250E-01;-9.414031697894079E-02;
8.250000000000000E+07;-9.046051124585022E-01;-4.216015714283674E-02;2.478607516514471E+00;-1.161661451531838E+00;-9.046051124585022E-01;-4.216015714283674E-02;
8.300000000000000E+07;-9.050713672108098E-01;1.019567971614349E-02;2.489968386530449E+00;2.809190853375211E-01;-9.050713672108098E-01;1.019567971614349E-02;
8.350000000000000E+07;-9.022105940013546E-01;6.379468183760781E-02;2.511353251497428E+00;1.761080021373872E+00;-9.022105940013546E-01;6.379468183760781E-02;
8.400000000000000E+07;-8.963303595132741E-01;1.165623786088466E-01;2.534938478169220E+00;3.229182804760112E+00;-8.963303595132741E-01;1.165623786088466E-01;
8.450000000000000E+07;-8.873773199643963E-01;1.684780023552024E-01;2.564721550328282E+00;4.692225125034262E+00;-8.873773199643963E-01;1.684780023552024E-01;
8.500000000000000E+07;-8.750796083292196E-01;2.196194545218436E-01;2.609354944522343E+00;6.161891892129965E+00;-8.750796083292196E-01;2.196194545218436E-01;
8.550000000000000E+07;-8.600008800656357E-01;2.701623682765307E-01;2.652596665783211E+00;7.647711548735929E+00;-8.600008800656357E-01;2.701623682765307E-01;
8.600000000000000E+07;-8.417202936795117E-01;3.196720718916551E-01;2.709072724719768E+00;9.148847706801233E+00;-8.417202936795117E-01;3.196720718916551E-01;
8.650000000000000E+07;-8.208038073532382E-01;3.682489516853417E-01;2.762640936162684E+00;1.067099438963475E+01;-8.208038073532382E-01;3.682489516853417E-01;
8.700000000000000E+07;-7.965675850663945E-01;4.155698434159797E-01;2.834731658460505E+00;1.222137221262417E+01;-7.965675850663945E-01;4.155698434159797E-01;
8.750000000000000E+07;-7.695034820867909E-01;4.613349972177516E-01;2.916208316909493E+00;1.379601626319831E+01;-7.695034820867909E-01;4.613349972177516E-01;
8.800000000000000E+07;-7.396192921174041E-01;5.054699739318501E-01;3.008484700931450E+00;1.540233400569715E+01;-7.396192921174041E-01;5.054699739318501E-01;
8.850000000000000E+07;-7.069888171052719E-01;5.477792725095540E-01;3.113139256222522E+00;1.704421053666337E+01;-7.069888171052719E-01;5.477792725095540E-01;
8.900000000000000E+07;-6.718335249935803E-01;5.879589793612771E-01;3.230847595194275E+00;1.872049719946027E+01;-6.718335249935803E-01;5.879589793612771E-01;
8.950000000000000E+07;-6.339676393355361E-01;6.260795433457589E-01;3.365792967710586E+00;2.044791493244961E+01;-6.339676393355361E-01;6.260795433457589E-01;
9.000000000000000E+07;-5.938680590606481E-01;6.619196865577768E-01;3.511487837894594E+00;2.222286032745681E+01;-5.938680590606481E-01;6.619196865577768E-01;
9.050000000000000E+07;-5.510475627122391E-01;6.952377113709534E-01;3.686110071761832E+00;2.406412878366742E+01;-5.510475627122391E-01;6.952377113709534E-01;
9.100000000000000E+07;-5.060448937954601E-01;7.261619235685024E-01;3.874240617938079E+00;2.597626562068969E+01;-5.060448937954601E-01;7.261619235685024E-01;
9.150000000000000E+07;-4.590216830264810E-01;7.542407939087600E-01;4.085446387671196E+00;2.795945426782695E+01;-4.590216830264810E-01;7.542407939087600E-01;
9.200000000000000E+07;-4.096958566195213E-01;7.789302801731249E-01;4.345009916964457E+00;3.002844450585454E+01;-4.096958566195213E-01;7.789302801731249E-01;
9.250000000000000E+07;-3.589531245151028E-01;8.001202972289426E-01;4.643449365208705E+00;3.217280431457559E+01;-3.589531245151028E-01;8.001202972289426E-01;
9.300000000000000E+07;-3.069141329233084E-01;8.182027464719467E-01;4.970556057858217E+00;3.441470163079874E+01;-3.069141329233084E-01;8.182027464719467E-01;
9.350000000000000E+07;-2.535015169269329E-01;8.332206178112839E-01;5.329463002184238E+00;3.677829561696000E+01;-2.535015169269329E-01;8.332206178112839E-01;
9.400000000000000E+07;-1.979891015858962E-01;8.443219091973980E-01;5.770814884145475E+00;3.930630156663415E+01;-1.979891015858962E-01;8.443219091973980E-01;
9.450000000000000E+07;-1.410476393968535E-01;8.513497767611290E-01;6.298373413773692E+00;4.200491371522930E+01;-1.410476393968535E-01;8.513497767611290E-01;
9.500000000000000E+07;-8.243668080395736E-02;8.535285339660112E-01;6.964951156684745E+00;4.491829601718428E+01;-8.243668080395736E-02;8.535285339660112E-01;
9.550000000000000E+07;-2.375942224996601E-02;8.511648467943976E-01;7.755819984784079E+00;4.801882414990899E+01;-2.375942224996601E-02;8.511648467943976E-01;
9.600000000000000E+07;3.496758075473909E-02;8.431141221328500E-01;8.767150648949730E+00;5.134274625549737E+01;3.496758075473909E-02;8.431141221328500E-01;
9.650000000000000E+07;9.374476389901835E-02;8.301296930170650E-01;1.000045815175116E+01;5.496041283103432E+01;9.374476389901835E-02;8.301296930170650E-01;
9.700000000000000E+07;1.522689572517165E-01;8.105605790572014E-01;1.162374989043085E+01;5.892173328102998E+01;1.522689572517165E-01;8.105605790572014E-01;
9.750000000000000E+07;2.091366843552134E-01;7.838068178117467E-01;1.378866672224471E+01;6.321951073840567E+01;2.091366843552134E-01;7.838068178117467E-01;
9.800000000000000E+07;2.623719307620660E-01;7.495297098083288E-01;1.669995204264570E+01;6.777615682440552E+01;2.623719307620660E-01;7.495297098083288E-01;
9.850000000000000E+07;3.096140963875603E-01;7.095717936109909E-01;2.043856916598761E+01;7.239606371012974E+01;3.096140963875603E-01;7.095717936109909E-01;
9.900000000000000E+07;3.526219618162444E-01;6.613305186551471E-01;2.558797550994929E+01;7.721706962493261E+01;3.526219618162444E-01;6.613305186551471E-01;
9.950000000000000E+07;3.868465546350464E-01;6.084512441381336E-01;3.217341795138119E+01;8.154323973151813E+01;3.868465546350464E-01;6.084512441381336E-01;
1.000000000000000E+08;4.114794003415330E-01;5.507479084726971E-01;4.058626118656373E+01;8.477221343452368E+01;4.114794003415330E-01;5.507479084726971E-01;
1.005000000000000E+08;4.256594217332298E-01;4.897930673369691E-01;5.080317935343040E+01;8.596414789606359E+01;4.256594217332298E-01;4.897930673369691E-01;
1.010000000000000E+08;4.269014738692191E-01;4.243082400169635E-01;6.270830687036754E+01;8.344649504916765E+01;4.269014738692191E-01;4.243082400169635E-01;
1.015000000000000E+08;4.043884631393316E-01;3.569200404321071E-01;7.353369100512137E+01;7.402752844693423E+01;4.043884631393316E-01;3.569200404321071E-01;
1.020000000000000E+08;3.527491932172557E-01;3.051368068144357E-01;7.640578477886842E+01;5.959213511377428E+01;3.527491932172557E-01;3.051368068144357E-01;
1.025000000000000E+08;2.832569243357993E-01;2.896078271757573E-01;6.993826563884114E+01;4.846235936734352E+01;2.832569243357993E-01;2.896078271757573E-01;
1.030000000000000E+08;2.222387905733645E-01;3.160131667132358E-01;6.035567386534124E+01;4.483875711501285E+01;2.222387905733645E-01;3.160131667132358E-01;
1.035000000000000E+08;1.897378433237290E-01;3.688828863901538E-01;5.222846641786779E+01;4.654090216696201E+01;1.897378433237290E-01;3.688828863901538E-01;
1.040000000000000E+08;1.911921739823983E-01;4.289847218145494E-01;4.649364884235229E+01;5.117940229303181E+01;1.911921739823983E-01;4.289847218145494E-01;
1.045000000000000E+08;2.192711189426908E-01;4.796783361626460E-01;4.298499475046473E+01;5.712980351078012E+01;2.192711189426908E-01;4.796783361626460E-01;
1.050000000000000E+08;2.617364241932126E-01;5.165530050674123E-01;4.093482518793900E+01;6.362586311369509E+01;2.617364241932126E-01;5.165530050674123E-01;
1.055000000000000E+08;3.135760574472103E-01;5.419130850232297E-01;3.974649643130037E+01;7.085242477154996E+01;3.135760574472103E-01;5.419130850232297E-01;
1.060000000000000E+08;3.733279586272311E-01;5.537470863308174E-01;3.960731265937048E+01;7.917983414477109E+01;3.733279586272311E-01;5.537470863308174E-01;
1.065000000000000E+08;4.346498871003134E-01;5.520089405555438E-01;4.055242080733479E+01;8.841555831344800E+01;4.346498871003134E-01;5.520089405555438E-01;
1.070000000000000E+08;4.954704813981867E-01;5.385510402068753E-01;4.264438547640329E+01;9.889159767284308E+01;4.954704813981867E-01;5.385510402068753E-01;
1.075000000000000E+08;5.536969363309776E-01;5.140817789747332E-01;4.629672555817282E+01;1.109210220907189E+02;5.536969363309776E-01;5.140817789747332E-01;
1.080000000000000E+08;6.062899484930632E-01;4.802387510534535E-01;5.209346917201976E+01;1.245313395942628E+02;6.062899484930632E-01;4.802387510534535E-01;
1.085000000000000E+08;6.520807740405703E-01;4.406291440190709E-01;6.037982411834003E+01;1.397926983888818E+02;6.520807740405703E-01;4.406291440190709E-01;
1.090000000000000E+08;6.922725683648245E-01;3.981037788458234E-01;7.154358142848861E+01;1.572396675981141E+02;6.922725683648245E-01;3.981037788458234E-01;
1.095000000000000E+08;7.289290407319953E-01;3.528502871729870E-01;8.691642546730868E+01;1.782227066126778E+02;7.289290407319953E-01;3.528502871729870E-01;
1.100000000000000E+08;7.617450598747350E-01;3.034041338017321E-01;1.100966031309965E+02;2.038739308910924E+02;7.617450598747350E-01;3.034041338017321E-01;
1.105000000000000E+08;7.895722998688905E-01;2.502933595558081E-01;1.467964322631980E+02;2.340796394631638E+02;7.895722998688905E-01;2.502933595558081E-01;
1.110000000000000E+08;8.117938421688610E-01;1.949782545209184E-01;2.062787099404360E+02;2.655002158850272E+02;8.117938421688610E-01;1.949782545209184E-01;
1.115000000000000E+08;8.285358929713379E-01;1.379289084722229E-01;3.040867349372193E+02;2.848339381385518E+02;8.285358929713379E-01;1.379289084722229E-01;
1.120000000000000E+08;8.399222160878064E-01;8.016763570088098E-02;4.494354452194143E+02;2.501193972701383E+02;8.399222160878064E-01;8.016763570088098E-02;
1.125000000000000E+08;8.461371641713398E-01;2.232469293058907E-02;5.865290041337410E+02;9.235703009220407E+01;8.461371641713398E-01;2.232469293058907E-02;
1.130000000000000E+08;8.475397724883310E-01;-3.515795976210764E-02;5.727898798138918E+02;-1.436179250950468E+02;8.475397724883310E-01;-3.515795976210764E-02;
1.135000000000000E+08;8.449931060333833E-01;-9.129000476880873E-02;4.289928731451020E+02;-2.820988186696983E+02;8.449931060333833E-01;-9.129000476880873E-02;
1.140000000000000E+08;8.388819768752387E-01;-1.466927703739919E-01;2.893545399469063E+02;-3.089713778653770E+02;8.388819768752387E-01;-1.466927703739919E-01;
1.145000000000000E+08;8.296626178841501E-01;-2.014856127863561E-01;1.946979744286377E+02;-2.894439301163036E+02;8.296626178841501E-01;-2.014856127863561E-01;
1.150000000000000E+08;8.170889890581670E-01;-2.558703680814977E-01;1.348966471239591E+02;-2.586480327949583E+02;8.170889890581670E-01;-2.558703680814977E-01;
1.155000000000000E+08;8.006493364122178E-01;-3.101907460709787E-01;9.662558865881086E+01;-2.281502349709784E+02;8.006493364122178E-01;-3.101907460709787E-01;
1.160000000000000E+08;7.797416949145962E-01;-3.633747197423457E-01;7.198965269830713E+01;-2.012544128291805E+02;7.797416949145962E-01;-3.633747197423457E-01;
1.165000000000000E+08;7.544840338919403E-01;-4.147365124210065E-01;5.569624912110341E+01;-1.785468148217073E+02;7.544840338919403E-01;-4.147365124210065E-01;
1.170000000000000E+08;7.252220483042076E-01;-4.636879080906832E-01;4.458487497676222E+01;-1.596120159726238E+02;7.252220483042076E-01;-4.636879080906832E-01;
1.175000000000000E+08;6.929979027410429E-01;-5.095451647700426E-01;3.675155534295880E+01;-1.439854514218493E+02;6.929979027410429E-01;-5.095451647700426E-01;
1.180000000000000E+08;6.583565568812280E-01;-5.529091199368885E-01;3.087599471463948E+01;-1.308881407278931E+02;6.583565568812280E-01;-5.529091199368885E-01;
1.185000000000000E+08;6.208561079076628E-01;-5.936137872232130E-01;2.642066883404283E+01;-1.196494618398310E+02;6.208561079076628E-01;-5.936137872232130E-01;
1.190000000000000E+08;5.809294848680421E-01;-6.311535711838064E-01;2.301198978681041E+01;-1.099618714016916E+02;5.809294848680421E-01;-6.311535711838064E-01;
1.195000000000000E+08;5.396030868768988E-01;-6.653996415750415E-01;2.031945049747589E+01;-1.016308663743440E+02;5.396030868768988E-01;-6.653996415750415E-01;
1.200000000000000E+08;4.973865634599184E-01;-6.972837409741535E-01;1.802876415958995E+01;-9.437740362371810E+01;4.973865634599184E-01;-6.972837409741535E-01;
1.205000000000000E+08;4.535548767944027E-01;-7.273669314258705E-01;1.602250576279963E+01;-8.788181169962817E+01;4.535548767944027E-01;-7.273669314258705E-01;
1.210000000000000E+08;4.075540775385215E-01;-7.550828842846135E-01;1.431643635524808E+01;-8.197244411482332E+01;4.075540775385215E-01;-7.550828842846135E-01;
1.215000000000000E+08;3.596549427042824E-01;-7.798639358597976E-01;1.288808420029350E+01;-7.659018884325390E+01;3.596549427042824E-01;-7.798639358597976E-01;
1.220000000000000E+08;3.100636371867201E-01;-8.018566118403747E-01;1.165727121797648E+01;-7.165920403524213E+01;3.100636371867201E-01;-8.018566118403747E-01;
1.225000000000000E+08;2.590950519793103E-01;-8.204122839662610E-01;1.062970292762711E+01;-6.713594393981755E+01;2.590950519793103E-01;-8.204122839662610E-01;
1.230000000000000E+08;2.070350661853224E-01;-8.358579539006208E-01;9.735869195233553E+00;-6.296709888519769E+01;2.070350661853224E-01;-8.358579539006208E-01;
1.235000000000000E+08;1.540466457321899E-01;-8.480111008480300E-01;8.961318298773692E+00;-5.910473926930648E+01;1.540466457321899E-01;-8.480111008480300E-01;
1.240000000000000E+08;1.002780732100159E-01;-8.566627877565901E-01;8.295906480663932E+00;-5.550596498042241E+01;1.002780732100159E-01;-8.566627877565901E-01;
1.245000000000000E+08;4.591872807890313E-02;-8.619967037102174E-01;7.707364231023067E+00;-5.213765243162704E+01;4.591872807890313E-02;-8.619967037102174E-01;
1.250000000000000E+08;-8.697977921450609E-03;-8.639499924828107E-01;7.186276367253064E+00;-4.898005559544759E+01;-8.697977921450609E-03;-8.639499924828107E-01;
1.255000000000000E+08;-6.400464886374706E-02;-8.623558443042230E-01;6.723816818839590E+00;-4.597359137218631E+01;-6.400464886374706E-02;-8.623558443042230E-01;
1.260000000000000E+08;-1.196448866330589E-01;-8.568446662034919E-01;6.326187404348152E+00;-4.310544693338218E+01;-1.196448866330589E-01;-8.568446662034919E-01;
1.265000000000000E+08;-1.749688553102946E-01;-8.473851562481175E-01;5.987865486985155E+00;-4.037833507608874E+01;-1.749688553102946E-01;-8.473851562481175E-01;
1.270000000000000E+08;-2.296559308549297E-01;-8.338272238774779E-01;5.708056318795303E+00;-3.777552141403967E+01;-2.296559308549297E-01;-8.338272238774779E-01;
1.275000000000000E+08;-2.830459895568023E-01;-8.167268180209094E-01;5.465088178779296E+00;-3.530647018751940E+01;-2.830459895568023E-01;-8.167268180209094E-01;
1.280000000000000E+08;-3.350405711627465E-01;-7.962155081540123E-01;5.251613458082670E+00;-3.295195100141532E+01;-3.350405711627465E-01;-7.962155081540123E-01;
1.285000000000000E+08;-3.857750643806457E-01;-7.724558413244326E-01;5.055293014581125E+00;-3.068880641458841E+01;-3.857750643806457E-01;-7.724558413244326E-01;
1.290000000000000E+08;-4.347109784063626E-01;-7.454677542706013E-01;4.883180782641603E+00;-2.851699202212072E+01;-4.347109784063626E-01;-7.454677542706013E-01;
1.295000000000000E+08;-4.819334429573002E-01;-7.150420467935095E-01;4.736165779788768E+00;-2.641053834017344E+01;-4.819334429573002E-01;-7.150420467935095E-01;
1.300000000000000E+08;-5.270730972076809E-01;-6.814007068351423E-01;4.611286212713170E+00;-2.436829585601572E+01;-5.270730972076809E-01;-6.814007068351423E-01;
1.305000000000000E+08;-5.695987167163806E-01;-6.449236151349053E-01;4.508158145697332E+00;-2.239655144418697E+01;-5.695987167163806E-01;-6.449236151349053E-01;
1.310000000000000E+08;-6.093773346385106E-01;-6.056089022573840E-01;4.428639481389765E+00;-2.048150418067819E+01;-6.093773346385106E-01;-6.056089022573840E-01;
1.315000000000000E+08;-6.467163310307199E-01;-5.638998479482091E-01;4.353213689710748E+00;-1.861265863315996E+01;-6.467163310307199E-01;-5.638998479482091E-01;
1.320000000000000E+08;-6.810764505727617E-01;-5.195628911071174E-01;4.298972830921866E+00;-1.678194427063001E+01;-6.810764505727617E-01;-5.195628911071174E-01;
1.325000000000000E+08;-7.123430733051157E-01;-4.729597672182607E-01;4.260022410728111E+00;-1.498695440692381E+01;-7.123430733051157E-01;-4.729597672182607E-01;
1.330000000000000E+08;-7.397612708867533E-01;-4.243680273862701E-01;4.251280875887050E+00;-1.323314263499160E+01;-7.397612708867533E-01;-4.243680273862701E-01;
1.335000000000000E+08;-7.636829383549155E-01;-3.743325714212197E-01;4.255441796975948E+00;-1.151543658998039E+01;-7.636829383549155E-01;-3.743325714212197E-01;
1.340000000000000E+08;-7.836716320368713E-01;-3.225179076944367E-01;4.289161098253377E+00;-9.816395761085325E+00;-7.836716320368713E-01;-3.225179076944367E-01;
1.345000000000000E+08;-7.997766946215898E-01;-2.703370924532990E-01;4.336518095404536E+00;-8.161666033260968E+00;-7.997766946215898E-01;-2.703370924532990E-01;
1.350000000000000E+08;-8.119146284963823E-01;-2.175640814398533E-01;4.405826028385979E+00;-6.532732491190820E+00;-8.119146284963823E-01;-2.175640814398533E-01;
1.355000000000000E+08;-8.205065262456106E-01;-1.650807312960973E-01;4.481786346952155E+00;-4.940324576051093E+00;-8.205065262456106E-01;-1.650807312960973E-01;
1.360000000000000E+08;-8.262593873525708E-01;-1.129960179238601E-01;4.547910729412707E+00;-3.375039023030028E+00;-8.262593873525708E-01;-1.129960179238601E-01;
1.365000000000000E+08;-8.293219469109003E-01;-6.035373419306428E-02;4.605625122973408E+00;-1.801571008145003E+00;-8.293219469109003E-01;-6.035373419306428E-02;
1.370000000000000E+08;-8.287524974906694E-01;-7.471532006542476E-03;4.681172526581236E+00;-2.234048244626976E-01;-8.287524974906694E-01;-7.471532006542476E-03;
1.375000000000000E+08;-8.243233293304075E-01;4.528814243835950E-02;4.781085209706485E+00;1.359919894690865E+00;-8.243233293304075E-01;4.528814243835950E-02;
1.380000000000000E+08;-8.161752344686338E-01;9.760961760972647E-02;4.902182233627821E+00;2.950696007773628E+00;-8.161752344686338E-01;9.760961760972647E-02;
1.385000000000000E+08;-8.040149270083913E-01;1.489610028259305E-01;5.056531558416098E+00;4.546124330944078E+00;-8.040149270083913E-01;1.489610028259305E-01;
1.390000000000000E+08;-7.882882435963018E-01;1.988000932229408E-01;5.236765304198685E+00;6.140550401273752E+00;-7.882882435963018E-01;1.988000932229408E-01;
1.395000000000000E+08;-7.688141961001863E-01;2.472205701987663E-01;5.451820782727450E+00;7.750294396489120E+00;-7.688141961001863E-01;2.472205701987663E-01;
1.400000000000000E+08;-7.459390312147023E-01;2.934182063352450E-01;5.702543082573335E+00;9.361231971673870E+00;-7.459390312147023E-01;2.934182063352450E-01;
1.405000000000000E+08;-7.200772736428455E-01;3.374641606992192E-01;5.982114416750757E+00;1.098320264170827E+01;-7.200772736428455E-01;3.374641606992192E-01;
1.410000000000000E+08;-6.914777099154024E-01;3.790880554188966E-01;6.292436175696049E+00;1.261606348079174E+01;-6.914777099154024E-01;3.790880554188966E-01;
1.415000000000000E+08;-6.601737081625442E-01;4.188750746249015E-01;6.629655514602111E+00;1.428811398652687E+01;-6.601737081625442E-01;4.188750746249015E-01;
1.420000000000000E+08;-6.249985860737235E-01;4.554866320732414E-01;7.055762113622879E+00;1.599271356186097E+01;-6.249985860737235E-01;4.554866320732414E-01;
