# Version 1.00
#
freq[Hz];re:Smith_S11;im:Smith_S11;re:Magnitude_Z<-S11[Ohm];im:Magnitude_Z<-S11[Ohm];re:Phase_S11;im:Phase_S11;
8.000000000000000E+07;-8.892188335148526E-01;-1.846991241748538E-01;2.430799102089459E+00;-5.125887219707044E+00;-8.892188335148526E-01;-1.846991241748538E-01;
8.050000000000000E+07;-8.977692205390548E-01;-1.304823913783474E-01;2.445518132212887E+00;-3.605926657944124E+00;-8.977692205390548E-01;-1.304823913783474E-01;
8.100000000000000E+07;-9.030264563244811E-01;-7.658995279371023E-02;2.462898971324572E+00;-2.111442508999893E+00;-9.030264563244811E-01;-7.658995279371023E-02;
8.150000000000000E+07;-9.051188167076230E-01;-2.314718308611205E-02;2.482416878935898E+00;-6.376610748078207E-01;-9.051188167076230E-01;-2.314718308611205E-02;
8.200000000000000E+07;-9.041617440230065E-01;2.989868579875146E-02;2.503602633626762E+00;8.243988323852911E-01;-9.041617440230065E-01;2.989868579875146E-02;
8.250000000000000E+07;-9.004684326625053E-01;8.295195354812837E-02;2.518549825004764E+00;2.292338157595966E+00;-9.004684326625053E-01;8.295195354812837E-02;
8.300000000000000E+07;-8.935639305544073E-01;1.363901334029552E-01;2.537899010587520E+00;3.784213957152756E+00;-8.935639305544073E-01;1.363901334029552E-01;
8.350000000000000E+07;-8.832579163845323E-01;1.907715528755771E-01;2.560129700926570E+00;5.324272089952096E+00;-8.832579163845323E-01;1.907715528755771E-01;
8.400000000000000E+07;-8.695531264095980E-01;2.436556978728150E-01;2.595361185568804E+00;6.854664493623423E+00;-8.695531264095980E-01;2.436556978728150E-01;
8.450000000000000E+07;-8.527268065090948E-01;2.952843179967618E-01;2.637432831541127E+00;8.389260845233894E+00;-8.527268065090948E-01;2.952843179967618E-01;
8.500000000000000E+07;-8.325763215629158E-01;3.460401130975509E-01;2.689313115213107E+00;9.949171368683242E+00;-8.325763215629158E-01;3.460401130975509E-01;
8.550000000000000E+07;-8.093459105736336E-01;3.954643222265318E-01;2.748692626217796E+00;1.152915308004834E+01;-8.093459105736336E-01;3.954643222265318E-01;
8.600000000000000E+07;-7.829090078339754E-01;4.434198265384074E-01;2.820897540992173E+00;1.313686403642355E+01;-7.829090078339754E-01;4.434198265384074E-01;
8.650000000000000E+07;-7.535870101218775E-01;4.897153795685773E-01;2.900330765213775E+00;1.477320795059347E+01;-7.535870101218775E-01;4.897153795685773E-01;
8.700000000000000E+07;-7.213301972667610E-01;5.342257481881496E-01;2.990504614808616E+00;1.644593932045369E+01;-7.213301972667610E-01;5.342257481881496E-01;
8.750000000000000E+07;-6.861738599464393E-01;5.768663450260750E-01;3.091834206537321E+00;1.816354355678861E+01;-6.861738599464393E-01;5.768663450260750E-01;
8.800000000000000E+07;-6.482483787319381E-01;6.172399711926017E-01;3.208644324269974E+00;1.992569961766127E+01;-6.482483787319381E-01;6.172399711926017E-01;
8.850000000000000E+07;-6.073875870550113E-01;6.555077108168141E-01;3.341590036652089E+00;2.175319994869297E+01;-6.073875870550113E-01;6.555077108168141E-01;
8.900000000000000E+07;-5.637061648044405E-01;6.910380116861254E-01;3.501917585153346E+00;2.364373792314305E+01;-5.637061648044405E-01;6.910380116861254E-01;
8.950000000000000E+07;-5.179239833577811E-01;7.231389814958424E-01;3.693368354293609E+00;2.557952053627518E+01;-5.179239833577811E-01;7.231389814958424E-01;
9.000000000000000E+07;-4.699202637668795E-01;7.524496936741556E-01;3.905508315405553E+00;2.759413841627896E+01;-4.699202637668795E-01;7.524496936741556E-01;
9.050000000000000E+07;-4.197604151233262E-01;7.789034691388801E-01;4.139523547283478E+00;2.970181606651019E+01;-4.197604151233262E-01;7.789034691388801E-01;
9.100000000000000E+07;-3.675412139492888E-01;8.026082179833121E-01;4.389476385276763E+00;3.192111526391714E+01;-3.675412139492888E-01;8.026082179833121E-01;
9.150000000000000E+07;-3.133057641830186E-01;8.226766173559527E-01;4.685326462083359E+00;3.425579984476734E+01;-3.133057641830186E-01;8.226766173559527E-01;
9.200000000000000E+07;-2.572862155137833E-01;8.385534411686559E-01;5.048991632394448E+00;3.671520517493724E+01;-2.572862155137833E-01;8.385534411686559E-01;
9.250000000000000E+07;-1.992583325245443E-01;8.507438792631586E-01;5.470225108979831E+00;3.935011599500256E+01;-1.992583325245443E-01;8.507438792631586E-01;
9.300000000000000E+07;-1.401991371143867E-01;8.583122366913759E-01;5.981191399022656E+00;4.214118397242986E+01;-1.401991371143867E-01;8.583122366913759E-01;
9.350000000000000E+07;-7.988697468307487E-02;8.619783695215262E-01;6.563384474926072E+00;4.514955274705948E+01;-7.988697468307487E-02;8.619783695215262E-01;
9.400000000000000E+07;-1.837994192212016E-02;8.600876748354531E-01;7.313830278950292E+00;4.840523363755129E+01;-1.837994192212016E-02;8.600876748354531E-01;
9.450000000000000E+07;4.412102451881083E-02;8.530106955294833E-01;8.238007641650462E+00;5.197064134572886E+01;4.412102451881083E-02;8.530106955294833E-01;
9.500000000000000E+07;1.075768061288755E-01;8.393366793608993E-01;9.458997343881977E+00;5.592203086101033E+01;1.075768061288755E-01;8.393366793608993E-01;
9.550000000000000E+07;1.700345696524419E-01;8.183067112395807E-01;1.109567037634625E+01;6.023744516167301E+01;1.700345696524419E-01;8.183067112395807E-01;
9.600000000000000E+07;2.302715538049520E-01;7.897045753989914E-01;1.329404055731050E+01;6.493665872773484E+01;2.302715538049520E-01;7.897045753989914E-01;
9.650000000000000E+07;2.878322395356805E-01;7.535510886299056E-01;1.624679801889734E+01;7.009633057924228E+01;2.878322395356805E-01;7.535510886299056E-01;
9.700000000000000E+07;3.410197662514061E-01;7.090686599009822E-01;2.032623330022950E+01;7.567165970732573E+01;3.410197662514061E-01;7.090686599009822E-01;
9.750000000000000E+07;3.873686169635225E-01;6.556843416977872E-01;2.608067364539996E+01;8.142727877872687E+01;3.873686169635225E-01;6.556843416977872E-01;
9.800000000000000E+07;4.237189752639676E-01;5.952508636124121E-01;3.395416243893644E+01;8.671773935038779E+01;4.237189752639676E-01;5.952508636124121E-01;
9.850000000000000E+07;4.466352842824358E-01;5.296048786154525E-01;4.431916303040718E+01;9.026937834851972E+01;4.466352842824358E-01;5.296048786154525E-01;
9.900000000000000E+07;4.578795424976984E-01;4.610001272744285E-01;5.705048227445499E+01;9.103195658891580E+01;4.578795424976984E-01;4.610001272744285E-01;
9.950000000000000E+07;4.523572454243856E-01;3.937073267370879E-01;7.038272820193961E+01;8.654467115598268E+01;4.523572454243856E-01;3.937073267370879E-01;
1.000000000000000E+08;4.307007146930756E-01;3.309426158926302E-01;8.128848443716286E+01;7.632005800391804E+01;4.307007146930756E-01;3.309426158926302E-01;
1.005000000000000E+08;3.921056801005890E-01;2.775843270235936E-01;8.611954505102987E+01;6.215661352782526E+01;3.921056801005890E-01;2.775843270235936E-01;
1.010000000000000E+08;3.354815414660276E-01;2.399496036281353E-01;8.312718722259137E+01;4.807062226181379E+01;3.354815414660276E-01;2.399496036281353E-01;
1.015000000000000E+08;2.632205864390323E-01;2.312038538676468E-01;7.355869413131340E+01;3.877313309277140E+01;2.632205864390323E-01;2.312038538676468E-01;
1.020000000000000E+08;1.940592915731828E-01;2.653796967193708E-01;6.194136985622417E+01;3.685999040895103E+01;1.940592915731828E-01;2.653796967193708E-01;
1.025000000000000E+08;1.554131621366273E-01;3.356194887233004E-01;5.225426217596288E+01;4.063350463534766E+01;1.554131621366273E-01;3.356194887233004E-01;
1.030000000000000E+08;1.621918355805178E-01;4.162979393032976E-01;4.572472606280172E+01;4.756459520531065E+01;1.621918355805178E-01;4.162979393032976E-01;
1.035000000000000E+08;2.071081133974356E-01;4.813199424783864E-01;4.215960666019318E+01;5.594489907897040E+01;2.071081133974356E-01;4.813199424783864E-01;
1.040000000000000E+08;2.709135794443615E-01;5.194944482142219E-01;4.097188370226147E+01;6.482000925335873E+01;2.709135794443615E-01;5.194944482142219E-01;
1.045000000000000E+08;3.374064486539652E-01;5.342876629188250E-01;4.145610445234203E+01;7.374636865728105E+01;3.374064486539652E-01;5.342876629188250E-01;
1.050000000000000E+08;4.003902567373093E-01;5.342818938172652E-01;4.296433830974470E+01;8.283581660853555E+01;4.003902567373093E-01;5.342818938172652E-01;
1.055000000000000E+08;4.617040993901860E-01;5.258120122372096E-01;4.506484683866617E+01;9.286015062093874E+01;4.617040993901860E-01;5.258120122372096E-01;
1.060000000000000E+08;5.229421201571843E-01;5.074212656049549E-01;4.835016855615776E+01;1.046098788215578E+02;5.229421201571843E-01;5.074212656049549E-01;
1.065000000000000E+08;5.807694614490755E-01;4.787163966522524E-01;5.353323553180727E+01;1.182238718077434E+02;5.807694614490755E-01;4.787163966522524E-01;
1.070000000000000E+08;6.345730387039745E-01;4.414985965399021E-01;6.125535094296408E+01;1.344155919001348E+02;6.345730387039745E-01;4.414985965399021E-01;
1.075000000000000E+08;6.821023088078954E-01;3.963678878208586E-01;7.313671969758597E+01;1.535319156194409E+02;6.821023088078954E-01;3.963678878208586E-01;
1.080000000000000E+08;7.218961825488338E-01;3.457455969803656E-01;9.125423807951066E+01;1.756107892311936E+02;7.218961825488338E-01;3.457455969803656E-01;
1.085000000000000E+08;7.537782879893811E-01;2.926568158111345E-01;1.183300887950923E+02;2.000755635630242E+02;7.537782879893811E-01;2.926568158111345E-01;
1.090000000000000E+08;7.805459421429811E-01;2.394114140528664E-01;1.580568913294346E+02;2.269777785976372E+02;7.805459421429811E-01;2.394114140528664E-01;
1.095000000000000E+08;8.035614017764597E-01;1.844727827754229E-01;2.205082821203483E+02;2.540306030373612E+02;8.035614017764597E-01;1.844727827754229E-01;
1.100000000000000E+08;8.224175034696041E-01;1.264710466679194E-01;3.236182312430786E+02;2.660841562808023E+02;8.224175034696041E-01;1.264710466679194E-01;
1.105000000000000E+08;8.351266903010667E-01;6.646554063074972E-02;4.717365110777702E+02;2.103281564427131E+02;8.351266903010667E-01;6.646554063074972E-02;
1.110000000000000E+08;8.418030731850253E-01;5.917697627066884E-03;5.812402395150307E+02;2.361290413597108E+01;8.418030731850253E-01;5.917697627066884E-03;
1.115000000000000E+08;8.428966721786957E-01;-5.414906263525825E-02;5.189350934694925E+02;-1.960957952890567E+02;8.428966721786957E-01;-5.414906263525825E-02;
1.120000000000000E+08;8.390046287373620E-01;-1.132372634293710E-01;3.655557083367991E+02;-2.922841249749229E+02;8.390046287373620E-01;-1.132372634293710E-01;
1.125000000000000E+08;8.309141130777350E-01;-1.708510567222531E-01;2.426367836524223E+02;-2.956917613461337E+02;8.309141130777350E-01;-1.708510567222531E-01;
1.130000000000000E+08;8.189371866487896E-01;-2.269926500651848E-01;1.647599216762096E+02;-2.692376355299156E+02;8.189371866487896E-01;-2.269926500651848E-01;
1.135000000000000E+08;8.036909934604578E-01;-2.819080701473052E-01;1.163503328753929E+02;-2.388861424950350E+02;8.036909934604578E-01;-2.819080701473052E-01;
1.140000000000000E+08;7.849591781436543E-01;-3.358464398144460E-01;8.521570701565756E+01;-2.111771775060380E+02;7.849591781436543E-01;-3.358464398144460E-01;
1.145000000000000E+08;7.625485653384623E-01;-3.887228176637491E-01;6.444070663089150E+01;-1.873465788926497E+02;7.625485653384623E-01;-3.887228176637491E-01;
1.150000000000000E+08;7.362147929495440E-01;-4.403132131840902E-01;5.012405978913063E+01;-1.671281986421454E+02;7.362147929495440E-01;-4.403132131840902E-01;
1.155000000000000E+08;7.059597561201535E-01;-4.901312245415465E-01;4.000636380874661E+01;-1.500302432347987E+02;7.059597561201535E-01;-4.901312245415465E-01;
1.160000000000000E+08;6.715594806533792E-01;-5.372874272015549E-01;3.282429178056426E+01;-1.354901360194433E+02;6.715594806533792E-01;-5.372874272015549E-01;
1.165000000000000E+08;6.335035903837092E-01;-5.812737336741109E-01;2.761485873427459E+01;-1.230993743493827E+02;6.335035903837092E-01;-5.812737336741109E-01;
1.170000000000000E+08;5.926656096747221E-01;-6.214289097057547E-01;2.377973830398145E+01;-1.125582897530611E+02;5.926656096747221E-01;-6.214289097057547E-01;
1.175000000000000E+08;5.500388283091479E-01;-6.580919998316117E-01;2.079869014431920E+01;-1.035468269572045E+02;5.500388283091479E-01;-6.580919998316117E-01;
1.180000000000000E+08;5.058644754423629E-01;-6.920413312999536E-01;1.833654989039458E+01;-9.570596448197308E+01;5.058644754423629E-01;-6.920413312999536E-01;
1.185000000000000E+08;4.595375326213489E-01;-7.229580367504260E-01;1.633329565624103E+01;-8.873176602145659E+01;4.595375326213489E-01;-7.229580367504260E-01;
1.190000000000000E+08;4.114246182848552E-01;-7.503362160219618E-01;1.471947789120445E+01;-8.250662472883685E+01;4.114246182848552E-01;-7.503362160219618E-01;
1.195000000000000E+08;3.624426208468920E-01;-7.740377804126436E-01;1.339981785419232E+01;-7.697166701389546E+01;3.624426208468920E-01;-7.740377804126436E-01;
1.200000000000000E+08;3.129586705594551E-01;-7.948935573211117E-01;1.223868184154388E+01;-7.200895359859570E+01;3.129586705594551E-01;-7.948935573211117E-01;
1.205000000000000E+08;2.626091443048998E-01;-8.131734338962049E-01;1.119444939451342E+01;-6.748347930435921E+01;2.626091443048998E-01;-8.131734338962049E-01;
1.210000000000000E+08;2.111867390915816E-01;-8.287393047054754E-01;1.025913309819496E+01;-6.330916902745978E+01;2.111867390915816E-01;-8.287393047054754E-01;
1.215000000000000E+08;1.587152386978858E-01;-8.411570590043889E-01;9.441930479731422E+00;-5.943290752882031E+01;1.587152386978858E-01;-8.411570590043889E-01;
1.220000000000000E+08;1.054193785690443E-01;-8.505561902347083E-01;8.710290143787768E+00;-5.582101771039603E+01;1.054193785690443E-01;-8.505561902347083E-01;
1.225000000000000E+08;5.145547524535884E-02;-8.566604716745232E-01;8.064536748996550E+00;-5.243991414301260E+01;5.145547524535884E-02;-8.566604716745232E-01;
1.230000000000000E+08;-2.998742748790436E-03;-8.595044784466690E-01;7.486528049888739E+00;-4.926220363329465E+01;-2.998742748790436E-03;-8.595044784466690E-01;
1.235000000000000E+08;-5.792131286258438E-02;-8.585791786410849E-01;6.989148526163501E+00;-4.625078986323800E+01;-5.792131286258438E-02;-8.585791786410849E-01;
1.240000000000000E+08;-1.126753820933747E-01;-8.541044451307902E-01;6.551575468758883E+00;-4.340974264762060E+01;-1.126753820933747E-01;-8.541044451307902E-01;
1.245000000000000E+08;-1.671179789498694E-01;-8.464186972471743E-01;6.149531522536797E+00;-4.072083043833062E+01;-1.671179789498694E-01;-8.464186972471743E-01;
1.250000000000000E+08;-2.211910328673743E-01;-8.350527070291390E-01;5.797293232018670E+00;-3.815429323035006E+01;-2.211910328673743E-01;-8.350527070291390E-01;
1.255000000000000E+08;-2.754351502249139E-01;-8.200183679211706E-01;5.473842899204777E+00;-3.566592163349078E+01;-2.754351502249139E-01;-8.200183679211706E-01;
1.260000000000000E+08;-3.289730095728845E-01;-8.007850521011207E-01;5.203068827097516E+00;-3.326312274848699E+01;-3.289730095728845E-01;-8.007850521011207E-01;
1.265000000000000E+08;-3.811253787877825E-01;-7.773929117200049E-01;4.984453697913079E+00;-3.094905445664276E+01;-3.811253787877825E-01;-7.773929117200049E-01;
1.270000000000000E+08;-4.313727936305418E-01;-7.503288919764626E-01;4.803622008876964E+00;-2.872818399315712E+01;-4.313727936305418E-01;-7.503288919764626E-01;
1.275000000000000E+08;-4.793157177915068E-01;-7.198603183855735E-01;4.656395441533608E+00;-2.659673641748964E+01;-4.793157177915068E-01;-7.198603183855735E-01;
1.280000000000000E+08;-5.249057818656174E-01;-6.867789285030711E-01;4.519277042838374E+00;-2.455410105694140E+01;-5.249057818656174E-01;-6.867789285030711E-01;
1.285000000000000E+08;-5.679903424676954E-01;-6.506892718245498E-01;4.406511143702873E+00;-2.257777497716931E+01;-5.679903424676954E-01;-6.506892718245498E-01;
1.290000000000000E+08;-6.089156187198134E-01;-6.120929509871816E-01;4.295326193295695E+00;-2.065601579584984E+01;-6.089156187198134E-01;-6.120929509871816E-01;
1.295000000000000E+08;-6.471203506870261E-01;-5.708181923901081E-01;4.202293291338756E+00;-1.878408889007735E+01;-6.471203506870261E-01;-5.708181923901081E-01;
1.300000000000000E+08;-6.822442750106386E-01;-5.272407693028757E-01;4.127506628609318E+00;-1.696437827683141E+01;-6.822442750106386E-01;-5.272407693028757E-01;
1.305000000000000E+08;-7.145218830060949E-01;-4.813589746693159E-01;4.063833234940716E+00;-1.517864052399000E+01;-7.145218830060949E-01;-4.813589746693159E-01;
1.310000000000000E+08;-7.438338352203283E-01;-4.333922754942367E-01;4.008974526368908E+00;-1.342276534285497E+01;-7.438338352203283E-01;-4.333922754942367E-01;
1.315000000000000E+08;-7.698827420713705E-01;-3.838017748227530E-01;3.963315674533276E+00;-1.170202739361542E+01;-7.698827420713705E-01;-3.838017748227530E-01;
1.320000000000000E+08;-7.923334793705720E-01;-3.321945301004922E-01;3.940253190335260E+00;-9.997390144359537E+00;-7.923334793705720E-01;-3.321945301004922E-01;
1.325000000000000E+08;-8.108809262774360E-01;-2.792144970475542E-01;3.939405040427745E+00;-8.316760992323784E+00;-8.108809262774360E-01;-2.792144970475542E-01;
1.330000000000000E+08;-8.258342661068986E-01;-2.255109143209659E-01;3.946528955604850E+00;-6.662998550881970E+00;-8.258342661068986E-01;-2.255109143209659E-01;
1.335000000000000E+08;-8.364676430474950E-01;-1.714275976747243E-01;3.981986995457583E+00;-5.039022812829473E+00;-8.364676430474950E-01;-1.714275976747243E-01;
1.340000000000000E+08;-8.435670131967919E-01;-1.169239900339002E-01;4.025357890664196E+00;-3.426433843938397E+00;-8.435670131967919E-01;-1.169239900339002E-01;
1.345000000000000E+08;-8.472095222806313E-01;-6.284308878581099E-02;4.073126408882979E+00;-1.839597643284326E+00;-8.472095222806313E-01;-6.284308878581099E-02;
1.350000000000000E+08;-8.471485520484139E-01;-9.036587002466833E-03;4.136201769943534E+00;-2.648441549190417E-01;-8.471485520484139E-01;-9.036587002466833E-03;
1.355000000000000E+08;-8.439955425394460E-01;4.424427315721664E-02;4.198863859020458E+00;1.300431200656225E+00;-8.439955425394460E-01;4.424427315721664E-02;
1.360000000000000E+08;-8.378850824682563E-01;9.669143598099351E-02;4.260183069601316E+00;2.854637141156490E+00;-8.378850824682563E-01;9.669143598099351E-02;
1.365000000000000E+08;-8.288176943472420E-01;1.489678963931554E-01;4.319721514898573E+00;4.424658986922530E+00;-8.288176943472420E-01;1.489678963931554E-01;
1.370000000000000E+08;-8.163995102057177E-01;2.006928128650327E-01;4.389980392861291E+00;6.009513928728731E+00;-8.163995102057177E-01;2.006928128650327E-01;
1.375000000000000E+08;-8.004931684780170E-01;2.517568447904226E-01;4.475266441541701E+00;7.617091493900649E+00;-8.004931684780170E-01;2.517568447904226E-01;
1.380000000000000E+08;-7.811191928353649E-01;3.016679768387480E-01;4.578817064740188E+00;9.244008704415885E+00;-7.811191928353649E-01;3.016679768387480E-01;
1.385000000000000E+08;-7.580753722629645E-01;3.496969066019839E-01;4.715573834403570E+00;1.088341672644819E+01;-7.580753722629645E-01;3.496969066019839E-01;
1.390000000000000E+08;-7.324581769316570E-01;3.957256578211233E-01;4.859170966045781E+00;1.253085460135545E+01;-7.324581769316570E-01;3.957256578211233E-01;
1.395000000000000E+08;-7.034988042177432E-01;4.403326685202655E-01;5.026107459524027E+00;1.422354549116432E+01;-7.034988042177432E-01;4.403326685202655E-01;
1.400000000000000E+08;-6.715950904956964E-01;4.826294632718404E-01;5.219887537305532E+00;1.594330160191971E+01;-6.715950904956964E-01;4.826294632718404E-01;
1.405000000000000E+08;-6.372294391878285E-01;5.225564180484055E-01;5.431930743015803E+00;1.769227359419263E+01;-6.372294391878285E-01;5.225564180484055E-01;
1.410000000000000E+08;-6.001047940206847E-01;5.601454646574269E-01;5.673280126904966E+00;1.948943311851932E+01;-6.001047940206847E-01;5.601454646574269E-01;
1.415000000000000E+08;-5.601940531397468E-01;5.948419509907934E-01;5.960197602786802E+00;2.133546981087644E+01;-5.601940531397468E-01;5.948419509907934E-01;
1.420000000000000E+08;-5.181625752187400E-01;6.262113130157070E-01;6.291661016747555E+00;2.321917002337752E+01;-5.181625752187400E-01;6.262113130157070E-01;
