# Version 1.00
#
freq[Hz];re:Smith_S11;im:Smith_S11;re:Magnitude_Z<-S11[Ohm];im:Magnitude_Z<-S11[Ohm];re:Phase_S11;im:Phase_S11;
8.000000000000000E+07;-8.901568421688381E-01;-1.981400098465236E-01;2.330613979003898E+00;-5.485676181864842E+00;-8.901568421688381E-01;-1.981400098465236E-01;
8.050000000000000E+07;-8.995765557330216E-01;-1.443943878779983E-01;2.340879113124029E+00;-3.978638911775483E+00;-8.995765557330216E-01;-1.443943878779983E-01;
8.100000000000000E+07;-9.055938889930513E-01;-9.066199822935810E-02;2.358562283294188E+00;-2.491051167008157E+00;-9.055938889930513E-01;-9.066199822935810E-02;
8.150000000000000E+07;-9.082204458328965E-01;-3.759915275909857E-02;2.384509031517889E+00;-1.032172756343530E+00;-9.082204458328965E-01;-3.759915275909857E-02;
8.200000000000000E+07;-9.082574016130143E-01;1.535645712996471E-02;2.400438387018534E+00;4.216858192198926E-01;-9.082574016130143E-01;1.535645712996471E-02;
8.250000000000000E+07;-9.057569661819781E-01;6.817442670834840E-02;2.405524622852170E+00;1.874696858472366E+00;-9.057569661819781E-01;6.817442670834840E-02;
8.300000000000000E+07;-8.996592427913738E-01;1.214052601869455E-01;2.426889811995187E+00;3.350548379963642E+00;-8.996592427913738E-01;1.214052601869455E-01;
8.350000000000000E+07;-8.902126782806793E-01;1.754607245871153E-01;2.452137950570482E+00;4.868917787241621E+00;-8.902126782806793E-01;1.754607245871153E-01;
8.400000000000000E+07;-8.776370189746051E-01;2.279407422193257E-01;2.484939013451716E+00;6.371548831411292E+00;-8.776370189746051E-01;2.279407422193257E-01;
8.450000000000000E+07;-8.620809945562670E-01;2.795288429543779E-01;2.519826423645552E+00;7.884085791802429E+00;-8.620809945562670E-01;2.795288429543779E-01;
8.500000000000000E+07;-8.434872964327781E-01;3.300203403284801E-01;2.560555735330510E+00;9.409369147915005E+00;-8.434872964327781E-01;3.300203403284801E-01;
8.550000000000000E+07;-8.216546982215917E-01;3.794357659524281E-01;2.612525926971767E+00;1.095875859090181E+01;-8.216546982215917E-01;3.794357659524281E-01;
8.600000000000000E+07;-7.971037400251684E-01;4.273461654848416E-01;2.666908894277688E+00;1.252404135756451E+01;-7.971037400251684E-01;4.273461654848416E-01;
8.650000000000000E+07;-7.694579111836717E-01;4.739195570581332E-01;2.731788829426950E+00;1.412332322061713E+01;-7.694579111836717E-01;4.739195570581332E-01;
8.700000000000000E+07;-7.391950238632351E-01;5.190437992510990E-01;2.795579003389836E+00;1.575626513046872E+01;-7.391950238632351E-01;5.190437992510990E-01;
8.750000000000000E+07;-7.054443948374732E-01;5.623238862531917E-01;2.886117150921148E+00;1.743775816741399E+01;-7.054443948374732E-01;5.623238862531917E-01;
8.800000000000000E+07;-6.693093978332857E-01;6.032972541799646E-01;2.984505404789493E+00;1.914888076846817E+01;-6.693093978332857E-01;6.032972541799646E-01;
8.850000000000000E+07;-6.302767354739104E-01;6.418672959302486E-01;3.107008085339037E+00;2.090911986471632E+01;-6.302767354739104E-01;6.418672959302486E-01;
8.900000000000000E+07;-5.891142588544750E-01;6.782528809378091E-01;3.231110815059526E+00;2.271967170684117E+01;-5.891142588544750E-01;6.782528809378091E-01;
8.950000000000000E+07;-5.453578753402784E-01;7.118331787545188E-01;3.383235115518587E+00;2.458974620109409E+01;-5.453578753402784E-01;7.118331787545188E-01;
9.000000000000000E+07;-4.997460007414530E-01;7.430001351578814E-01;3.537743811422704E+00;2.652352522911823E+01;-4.997460007414530E-01;7.430001351578814E-01;
9.050000000000000E+07;-4.516123933234752E-01;7.711232327576695E-01;3.727413055828321E+00;2.854099113087736E+01;-4.516123933234752E-01;7.711232327576695E-01;
9.100000000000000E+07;-4.016375432716104E-01;7.965356976868078E-01;3.928697454499617E+00;3.064710478002412E+01;-4.016375432716104E-01;7.965356976868078E-01;
9.150000000000000E+07;-3.497825179503311E-01;8.183954014035099E-01;4.171499419858206E+00;3.284507350092694E+01;-3.497825179503311E-01;8.183954014035099E-01;
9.200000000000000E+07;-2.963162435277193E-01;8.369259980414462E-01;4.446916160450598E+00;3.515194681496689E+01;-2.963162435277193E-01;8.369259980414462E-01;
9.250000000000000E+07;-2.414011905895514E-01;8.517136709701510E-01;4.771893823602115E+00;3.757848075877313E+01;-2.414011905895514E-01;8.517136709701510E-01;
9.300000000000000E+07;-1.854464340102356E-01;8.627703577393335E-01;5.145868368931748E+00;4.013527664810422E+01;-1.854464340102356E-01;8.627703577393335E-01;
9.350000000000000E+07;-1.288324125515787E-01;8.686638727844586E-01;5.639314522890921E+00;4.281579966620475E+01;-1.288324125515787E-01;8.686638727844586E-01;
9.400000000000000E+07;-7.044729216709321E-02;8.736316486291568E-01;6.071085241762022E+00;4.576168765957332E+01;-7.044729216709321E-02;8.736316486291568E-01;
9.450000000000000E+07;-1.158494395261456E-02;8.725975604612691E-01;6.679979778732045E+00;4.889239640979911E+01;-1.158494395261456E-02;8.725975604612691E-01;
9.500000000000000E+07;4.803088132800139E-02;8.669253345966502E-01;7.423476750063725E+00;5.229357320403197E+01;4.803088132800139E-02;8.669253345966502E-01;
9.550000000000000E+07;1.072925455884906E-01;8.558954128584747E-01;8.366593767942803E+00;5.595976556854013E+01;1.072925455884906E-01;8.558954128584747E-01;
9.600000000000000E+07;1.659179301354541E-01;8.400530609871050E-01;9.518535513729184E+00;5.994461426547349E+01;1.659179301354541E-01;8.400530609871050E-01;
9.650000000000000E+07;2.239601551704727E-01;8.185571516427163E-01;1.099629934611986E+01;6.433813596835901E+01;2.239601551704727E-01;8.185571516427163E-01;
9.700000000000000E+07;2.807245638423472E-01;7.916417023891723E-01;1.287077365802839E+01;6.919619910147600E+01;2.807245638423472E-01;7.916417023891723E-01;
9.750000000000000E+07;3.350970983574099E-01;7.575151899902242E-01;1.544802179900202E+01;7.456407626598882E+01;3.350970983574099E-01;7.575151899902242E-01;
9.800000000000000E+07;3.853567481216742E-01;7.170889774958709E-01;1.890596791609623E+01;8.039087702552085E+01;3.853567481216742E-01;7.170889774958709E-01;
9.850000000000000E+07;4.309054020038153E-01;6.712553987247242E-01;2.348347622729089E+01;8.667483456759084E+01;4.309054020038153E-01;6.712553987247242E-01;
9.900000000000000E+07;4.697916326896580E-01;6.184764272576165E-01;2.989469560676357E+01;9.319540946961985E+01;4.697916326896580E-01;6.184764272576165E-01;
9.950000000000000E+07;5.012016300289419E-01;5.613392070763155E-01;3.845487251069532E+01;9.954560998278988E+01;5.012016300289419E-01;5.613392070763155E-01;
1.000000000000000E+08;5.237039307422861E-01;5.005164981717602E-01;4.977404725240815E+01;1.048477196484659E+02;5.237039307422861E-01;5.005164981717602E-01;
1.005000000000000E+08;5.374854532913457E-01;4.368535450034720E-01;6.426863263713982E+01;1.079288372775842E+02;5.374854532913457E-01;4.368535450034720E-01;
1.010000000000000E+08;5.402402343478983E-01;3.675409076474316E-01;8.270006688368869E+01;1.060830169819860E+02;5.402402343478983E-01;3.675409076474316E-01;
1.015000000000000E+08;5.219177506909060E-01;2.930016823396936E-01;1.020556791934052E+02;9.319017779337783E+01;5.219177506909060E-01;2.930016823396936E-01;
1.020000000000000E+08;4.728301047805559E-01;2.282736389585673E-01;1.097402469648518E+02;6.917027659105599E+01;4.728301047805559E-01;2.282736389585673E-01;
1.025000000000000E+08;3.985805339186404E-01;1.950291111561415E-01;1.004520102313984E+02;4.878877968195812E+01;3.985805339186404E-01;1.950291111561415E-01;
1.030000000000000E+08;3.217176157656588E-01;2.083062682580599E-01;8.472458844267277E+01;4.137506282545623E+01;3.217176157656588E-01;2.083062682580599E-01;
1.035000000000000E+08;2.725377176564368E-01;2.602120758420584E-01;7.187100477850568E+01;4.359306029751713E+01;2.725377176564368E-01;2.602120758420584E-01;
1.040000000000000E+08;2.637340842472148E-01;3.250839802896133E-01;6.366213624882712E+01;5.018531874073011E+01;2.637340842472148E-01;3.250839802896133E-01;
1.045000000000000E+08;2.876877415288188E-01;3.803058988023277E-01;5.924677237438731E+01;5.832721740359545E+01;2.876877415288188E-01;3.803058988023277E-01;
1.050000000000000E+08;3.294878134816582E-01;4.197510124160909E-01;5.714865611001471E+01;6.707671804555923E+01;3.294878134816582E-01;4.197510124160909E-01;
1.055000000000000E+08;3.830055516820354E-01;4.458925891304960E-01;5.646970594719470E+01;7.694405189249244E+01;3.830055516820354E-01;4.458925891304960E-01;
1.060000000000000E+08;4.454054267095705E-01;4.549591546131765E-01;5.777972809830109E+01;8.841661339942881E+01;4.454054267095705E-01;4.549591546131765E-01;
1.065000000000000E+08;5.082535350970911E-01;4.464144175918622E-01;6.148174992819909E+01;1.012047142548238E+02;5.082535350970911E-01;4.464144175918622E-01;
1.070000000000000E+08;5.684393437972344E-01;4.258107324489441E-01;6.741249981917626E+01;1.158481474807447E+02;5.684393437972344E-01;4.258107324489441E-01;
1.075000000000000E+08;6.248361391329312E-01;3.931846863367091E-01;7.702687336898143E+01;1.331285514721067E+02;6.248361391329312E-01;3.931846863367091E-01;
1.080000000000000E+08;6.739397883122554E-01;3.505473577631048E-01;9.226092690354895E+01;1.529447330627605E+02;6.739397883122554E-01;3.505473577631048E-01;
1.085000000000000E+08;7.137592049827571E-01;3.021942098449973E-01;1.152134570197782E+02;1.744215044429455E+02;7.137592049827571E-01;3.021942098449973E-01;
1.090000000000000E+08;7.469053388153239E-01;2.520095718792422E-01;1.484033310013184E+02;1.975527190934090E+02;7.469053388153239E-01;2.520095718792422E-01;
1.095000000000000E+08;7.759097684147812E-01;1.992596290065959E-01;1.992083619433043E+02;2.215945130445379E+02;7.759097684147812E-01;1.992596290065959E-01;
1.100000000000000E+08;8.002142709681654E-01;1.428446380397738E-01;2.812156485327109E+02;2.368156106897160E+02;8.002142709681654E-01;1.428446380397738E-01;
1.105000000000000E+08;8.180051483412963E-01;8.288285640768363E-02;4.050816277959546E+02;2.072501769507236E+02;8.180051483412963E-01;8.288285640768363E-02;
1.110000000000000E+08;8.285696901569023E-01;2.171893087496033E-02;5.241123497268238E+02;7.273571662788416E+01;8.285696901569023E-01;2.171893087496033E-02;
1.115000000000000E+08;8.328626711532022E-01;-3.948829031436984E-02;5.166784051489695E+02;-1.338848809646711E+02;8.328626711532022E-01;-3.948829031436984E-02;
1.120000000000000E+08;8.310525078098163E-01;-9.999629732147786E-02;3.883406063768691E+02;-2.594441446576564E+02;8.310525078098163E-01;-9.999629732147786E-02;
1.125000000000000E+08;8.236489198984879E-01;-1.585995513480137E-01;2.634934072130972E+02;-2.819371092365146E+02;8.236489198984879E-01;-1.585995513480137E-01;
1.130000000000000E+08;8.122038160809858E-01;-2.150772779168051E-01;1.803522902965000E+02;-2.638154968060384E+02;8.122038160809858E-01;-2.150772779168051E-01;
1.135000000000000E+08;7.975374670182452E-01;-2.693574330799923E-01;1.283111694703813E+02;-2.372263064710429E+02;7.975374670182452E-01;-2.693574330799923E-01;
1.140000000000000E+08;7.800966877693799E-01;-3.225012379672526E-01;9.432711705380450E+01;-2.116642694007378E+02;7.800966877693799E-01;-3.225012379672526E-01;
1.145000000000000E+08;7.595020668283334E-01;-3.746399662680065E-01;7.134448878717521E+01;-1.890265524801258E+02;7.595020668283334E-01;-3.746399662680065E-01;
1.150000000000000E+08;7.355970690876076E-01;-4.259846078312249E-01;5.518400836386049E+01;-1.694639631957852E+02;7.355970690876076E-01;-4.259846078312249E-01;
1.155000000000000E+08;7.075254263504339E-01;-4.763698187723263E-01;4.360097492078502E+01;-1.524531821810677E+02;7.075254263504339E-01;-4.763698187723263E-01;
1.160000000000000E+08;6.749395909094038E-01;-5.245346635372689E-01;3.536230449143343E+01;-1.377451280223448E+02;6.749395909094038E-01;-5.245346635372689E-01;
1.165000000000000E+08;6.383691969946248E-01;-5.696276849087816E-01;2.943520871108109E+01;-1.251234509402852E+02;6.383691969946248E-01;-5.696276849087816E-01;
1.170000000000000E+08;5.986643653940834E-01;-6.112014642140707E-01;2.506686652079165E+01;-1.143207200539817E+02;5.986643653940834E-01;-6.112014642140707E-01;
1.175000000000000E+08;5.569601034939297E-01;-6.492942915711829E-01;2.170468569345328E+01;-1.050863442927587E+02;5.569601034939297E-01;-6.492942915711829E-01;
1.180000000000000E+08;5.132550354808659E-01;-6.847180934973539E-01;1.896753712497584E+01;-9.701861133802252E+01;5.132550354808659E-01;-6.847180934973539E-01;
1.185000000000000E+08;4.669666617263990E-01;-7.168110217224168E-01;1.680096428621144E+01;-8.983240638780394E+01;4.669666617263990E-01;-7.168110217224168E-01;
1.190000000000000E+08;4.188263405455704E-01;-7.451598656570384E-01;1.507913860596367E+01;-8.344211990994093E+01;4.188263405455704E-01;-7.451598656570384E-01;
1.195000000000000E+08;3.697249029407400E-01;-7.698234332315040E-01;1.367220245070575E+01;-7.776977659551261E+01;3.697249029407400E-01;-7.698234332315040E-01;
1.200000000000000E+08;3.201131790534337E-01;-7.914862595093792E-01;1.244961436088393E+01;-7.270035269912061E+01;3.201131790534337E-01;-7.914862595093792E-01;
1.205000000000000E+08;2.694260756178672E-01;-8.104052863322905E-01;1.136724071054599E+01;-6.807296923649810E+01;2.694260756178672E-01;-8.104052863322905E-01;
1.210000000000000E+08;2.175529934054534E-01;-8.264768987766642E-01;1.040721289053719E+01;-6.380645021674095E+01;2.175529934054534E-01;-8.264768987766642E-01;
1.215000000000000E+08;1.646900593047775E-01;-8.389646363982006E-01;9.596699727528877E+00;-5.985745060788426E+01;1.646900593047775E-01;-8.389646363982006E-01;
1.220000000000000E+08;1.114795052143767E-01;-8.482951040835333E-01;8.878552970344078E+00;-5.621298384604692E+01;1.114795052143767E-01;-8.482951040835333E-01;
1.225000000000000E+08;5.769773605092946E-02;-8.544776181356398E-01;8.236346490499310E+00;-5.280859076956775E+01;5.769773605092946E-02;-8.544776181356398E-01;
1.230000000000000E+08;3.354967571547222E-03;-8.575438982417003E-01;7.653434102873682E+00;-4.960677976503988E+01;3.354967571547222E-03;-8.575438982417003E-01;
1.235000000000000E+08;-5.118136123254907E-02;-8.570730851968185E-01;7.143194323050632E+00;-4.659128829970147E+01;-5.118136123254907E-02;-8.570730851968185E-01;
1.240000000000000E+08;-1.057173539207640E-01;-8.529730356313044E-01;6.698398693672822E+00;-4.373830715208413E+01;-1.057173539207640E-01;-8.529730356313044E-01;
1.245000000000000E+08;-1.598557895228911E-01;-8.454617868297050E-01;6.301736270094754E+00;-4.104041810931501E+01;-1.598557895228911E-01;-8.454617868297050E-01;
1.250000000000000E+08;-2.136301247124197E-01;-8.348193850996070E-01;5.932256773557401E+00;-3.847410447066721E+01;-2.136301247124197E-01;-8.348193850996070E-01;
1.255000000000000E+08;-2.674453170609901E-01;-8.203764940313669E-01;5.603480365816231E+00;-3.599034030456338E+01;-2.674453170609901E-01;-8.203764940313669E-01;
1.260000000000000E+08;-3.209377179103092E-01;-8.017524226944579E-01;5.322984482038096E+00;-3.357867387520056E+01;-3.209377179103092E-01;-8.017524226944579E-01;
1.265000000000000E+08;-3.730245227730424E-01;-7.794296141382759E-01;5.081668160034775E+00;-3.126840245603178E+01;-3.730245227730424E-01;-7.794296141382759E-01;
1.270000000000000E+08;-4.236172253861833E-01;-7.530721558240708E-01;4.885311421115722E+00;-2.903350637933091E+01;-4.236172253861833E-01;-7.530721558240708E-01;
1.275000000000000E+08;-4.717947583657406E-01;-7.234166229412898E-01;4.723499101685427E+00;-2.689769663239580E+01;-4.717947583657406E-01;-7.234166229412898E-01;
1.280000000000000E+08;-5.177333992802924E-01;-6.906211590764729E-01;4.585453807266277E+00;-2.483826829861279E+01;-5.177333992802924E-01;-6.906211590764729E-01;
1.285000000000000E+08;-5.612435763244777E-01;-6.550919321388461E-01;4.462739893686736E+00;-2.285236080235797E+01;-5.612435763244777E-01;-6.550919321388461E-01;
1.290000000000000E+08;-6.022112288919955E-01;-6.167389397219066E-01;4.359275185552820E+00;-2.092450804078663E+01;-6.022112288919955E-01;-6.167389397219066E-01;
1.295000000000000E+08;-6.403520447798814E-01;-5.759500918040387E-01;4.271844968154975E+00;-1.905558882390877E+01;-6.403520447798814E-01;-5.759500918040387E-01;
1.300000000000000E+08;-6.757313946803791E-01;-5.330389986463538E-01;4.192095943631243E+00;-1.723814487694193E+01;-6.757313946803791E-01;-5.330389986463538E-01;
1.305000000000000E+08;-7.080740837722762E-01;-4.879853543027744E-01;4.127543478397649E+00;-1.546387755237799E+01;-7.080740837722762E-01;-4.879853543027744E-01;
1.310000000000000E+08;-7.378815134756967E-01;-4.412052662304227E-01;4.057190773604745E+00;-1.372378787736645E+01;-7.378815134756967E-01;-4.412052662304227E-01;
1.315000000000000E+08;-7.643666929896583E-01;-3.923382992202731E-01;4.007050742916325E+00;-1.200942781257942E+01;-7.643666929896583E-01;-3.923382992202731E-01;
1.320000000000000E+08;-7.875581283474568E-01;-3.414976335215220E-01;3.972415106522868E+00;-1.031096653139785E+01;-7.875581283474568E-01;-3.414976335215220E-01;
1.325000000000000E+08;-8.071016410633735E-01;-2.894717199132411E-01;3.952831202325708E+00;-8.642468407662911E+00;-8.071016410633735E-01;-2.894717199132411E-01;
1.330000000000000E+08;-8.226015737857595E-01;-2.362889256605938E-01;3.959698691111395E+00;-6.995538364541535E+00;-8.226015737857595E-01;-2.362889256605938E-01;
1.335000000000000E+08;-8.342946546849973E-01;-1.825293090442269E-01;3.982330163005602E+00;-5.371741884589884E+00;-8.342946546849973E-01;-1.825293090442269E-01;
1.340000000000000E+08;-8.424768105109198E-01;-1.293144545273406E-01;4.008722900596518E+00;-3.790608653398589E+00;-8.424768105109198E-01;-1.293144545273406E-01;
1.345000000000000E+08;-8.472644366041588E-01;-7.597807438496419E-02;4.042678262278131E+00;-2.222777934556168E+00;-8.472644366041588E-01;-7.597807438496419E-02;
1.350000000000000E+08;-8.487913046871024E-01;-2.272131706575518E-02;4.081224881165093E+00;-6.646486570518172E-01;-8.487913046871024E-01;-2.272131706575518E-02;
1.355000000000000E+08;-8.472445533837294E-01;3.023594729000978E-02;4.120184255063851E+00;8.858464546365901E-01;-8.472445533837294E-01;3.023594729000978E-02;
1.360000000000000E+08;-8.428460183228129E-01;8.252063754688099E-02;4.155303905225958E+00;2.425015525101519E+00;-8.428460183228129E-01;8.252063754688099E-02;
1.365000000000000E+08;-8.357050086874103E-01;1.348997721196070E-01;4.182383179559695E+00;3.981680667225583E+00;-8.357050086874103E-01;1.348997721196070E-01;
1.370000000000000E+08;-8.251228476566939E-01;1.868432647459751E-01;4.222567551563150E+00;5.550925822473129E+00;-8.251228476566939E-01;1.868432647459751E-01;
1.375000000000000E+08;-8.114353128853126E-01;2.382970813759452E-01;4.265729770463434E+00;7.138739612202702E+00;-8.114353128853126E-01;2.382970813759452E-01;
1.380000000000000E+08;-7.941199353566847E-01;2.892740966469664E-01;4.325360474148530E+00;8.759124329698663E+00;-7.941199353566847E-01;2.892740966469664E-01;
1.385000000000000E+08;-7.731115440382483E-01;3.390121547624691E-01;4.409054809339022E+00;1.040280346237789E+01;-7.731115440382483E-01;3.390121547624691E-01;
1.390000000000000E+08;-7.486277187858393E-01;3.866314801073686E-01;4.522234236646857E+00;1.205517440631236E+01;-7.486277187858393E-01;3.866314801073686E-01;
1.395000000000000E+08;-7.209430250240352E-01;4.329181287151408E-01;4.649367896973287E+00;1.374752199311918E+01;-7.209430250240352E-01;4.329181287151408E-01;
1.400000000000000E+08;-6.901416565319307E-01;4.768662483797383E-01;4.803906838081426E+00;1.546268820097261E+01;-6.901416565319307E-01;4.768662483797383E-01;
1.405000000000000E+08;-6.562188034209692E-01;5.184579860189655E-01;4.989910849828109E+00;1.721388404217859E+01;-6.562188034209692E-01;5.184579860189655E-01;
1.410000000000000E+08;-6.195527531172469E-01;5.574281308696897E-01;5.205553302338020E+00;1.900100403134043E+01;-6.195527531172469E-01;5.574281308696897E-01;
1.415000000000000E+08;-5.807627827544608E-01;5.937048989594355E-01;5.440140740096172E+00;2.082227865906707E+01;-5.807627827544608E-01;5.937048989594355E-01;
1.420000000000000E+08;-5.396055252922864E-01;6.270158175640667E-01;5.711473797174675E+00;2.268891265767762E+01;-5.396055252922864E-01;6.270158175640667E-01;
