# Version 1.00
#
# Ref Impedances: Z01: 50, Z02: 50
# 
freq[Hz];re:SMag2_S11;im:SMag2_S11;re:ZPh2_S12;im:ZPh2_S12;re:SPh2_S11;im:SPh2_S11;re:ZMag2_S12;im:ZMag2_S12;
5.000000000000000E+07;5.829456936700416E-01;6.272150571051788E-01;-1.103452701139479E-03;-6.978144693936674E-03;5.829456936700416E-01;6.272150571051788E-01;-1.103452701139479E-03;-6.978144693936674E-03;
5.025025025025025E+07;5.639567652714834E-01;6.094769223880283E-01;-2.228326262798642E-03;-7.112995295523304E-03;5.639567652714834E-01;6.094769223880283E-01;-2.228326262798642E-03;-7.112995295523304E-03;
5.050050050050050E+07;5.370428846623976E-01;5.952981047174593E-01;-3.334709365084288E-03;-7.016653292140466E-03;5.370428846623976E-01;5.952981047174593E-01;-3.334709365084288E-03;-7.016653292140466E-03;
5.075075075075075E+07;5.034036190875062E-01;5.876035968850001E-01;-4.461235159581626E-03;-6.544256524511898E-03;5.034036190875062E-01;5.876035968850001E-01;-4.461235159581626E-03;-6.544256524511898E-03;
5.100100100100100E+07;4.661608945204184E-01;5.894565070630682E-01;-5.491468348237830E-03;-5.758917937306789E-03;4.661608945204184E-01;5.894565070630682E-01;-5.491468348237830E-03;-5.758917937306789E-03;
5.125125125125125E+07;4.301577079732737E-01;6.020181354143634E-01;-6.158014952057263E-03;-4.754263931950683E-03;4.301577079732737E-01;6.020181354143634E-01;-6.158014952057263E-03;-4.754263931950683E-03;
5.150150150150150E+07;3.993122061068065E-01;6.231167634952254E-01;-6.482444577459834E-03;-3.676370291570692E-03;3.993122061068065E-01;6.231167634952254E-01;-6.482444577459834E-03;-3.676370291570692E-03;
5.175175175175175E+07;3.761897454914658E-01;6.501464709801573E-01;-6.494801366202110E-03;-2.550750517454170E-03;3.761897454914658E-01;6.501464709801573E-01;-6.494801366202110E-03;-2.550750517454170E-03;
5.200200200200200E+07;3.615040572837399E-01;6.791169182627984E-01;-6.253669766110687E-03;-1.617789343131627E-03;3.615040572837399E-01;6.791169182627984E-01;-6.253669766110687E-03;-1.617789343131627E-03;
5.225225225225225E+07;3.547259275640210E-01;7.064058000741071E-01;-5.934183944978385E-03;-8.694658325277716E-04;3.547259275640210E-01;7.064058000741071E-01;-5.934183944978385E-03;-8.694658325277716E-04;
5.250250250250250E+07;3.534307345496083E-01;7.303127414651959E-01;-5.359893628418715E-03;-2.330713673736401E-04;3.534307345496083E-01;7.303127414651959E-01;-5.359893628418715E-03;-2.330713673736401E-04;
5.275275275275275E+07;3.545621836096073E-01;7.498099316042505E-01;-4.976807372278608E-03;1.234576699329897E-04;3.545621836096073E-01;7.498099316042505E-01;-4.976807372278608E-03;1.234576699329897E-04;
5.300300300300300E+07;3.573502039576775E-01;7.657650627276676E-01;-4.500858252996377E-03;3.862122923057844E-04;3.573502039576775E-01;7.657650627276676E-01;-4.500858252996377E-03;3.862122923057844E-04;
5.325325325325325E+07;3.609429586037188E-01;7.785206877767102E-01;-4.127238151162128E-03;4.726274884364390E-04;3.609429586037188E-01;7.785206877767102E-01;-4.127238151162128E-03;4.726274884364390E-04;
5.350350350350350E+07;3.644987003123742E-01;7.885401692268377E-01;-3.733416071430209E-03;6.120361455786031E-04;3.644987003123742E-01;7.885401692268377E-01;-3.733416071430209E-03;6.120361455786031E-04;
5.375375375375375E+07;3.673812752274599E-01;7.966474481271455E-01;-3.446354714095742E-03;5.894386701858008E-04;3.673812752274599E-01;7.966474481271455E-01;-3.446354714095742E-03;5.894386701858008E-04;
5.400400400400400E+07;3.695332618149078E-01;8.031598645380037E-01;-3.126867762647307E-03;6.353688135522841E-04;3.695332618149078E-01;8.031598645380037E-01;-3.126867762647307E-03;6.353688135522841E-04;
5.425425425425425E+07;3.708001929297149E-01;8.089906788959482E-01;-2.931101792112647E-03;6.526943550542375E-04;3.708001929297149E-01;8.089906788959482E-01;-2.931101792112647E-03;6.526943550542375E-04;
5.450450450450450E+07;3.716996116877442E-01;8.139841191692065E-01;-2.694810535849683E-03;6.219629532078191E-04;3.716996116877442E-01;8.139841191692065E-01;-2.694810535849683E-03;6.219629532078191E-04;
5.475475475475475E+07;3.719379620485608E-01;8.183368657957236E-01;-2.572929209662355E-03;6.466522055936365E-04;3.719379620485608E-01;8.183368657957236E-01;-2.572929209662355E-03;6.466522055936365E-04;
5.500500500500500E+07;3.721263511526304E-01;8.222941027912677E-01;-2.392414507800466E-03;6.061523411164703E-04;3.721263511526304E-01;8.222941027912677E-01;-2.392414507800466E-03;6.061523411164703E-04;
5.525525525525525E+07;3.721937328960787E-01;8.258232790979220E-01;-2.315269988463984E-03;5.586441896065568E-04;3.721937328960787E-01;8.258232790979220E-01;-2.315269988463984E-03;5.586441896065568E-04;
5.550550550550550E+07;3.717123891243910E-01;8.288714347699000E-01;-2.168066616502655E-03;5.449883956774425E-04;3.717123891243910E-01;8.288714347699000E-01;-2.168066616502655E-03;5.449883956774425E-04;
5.575575575575575E+07;3.711443761379807E-01;8.315225735837056E-01;-2.096192817920109E-03;4.881381689249116E-04;3.711443761379807E-01;8.315225735837056E-01;-2.096192817920109E-03;4.881381689249116E-04;
5.600600600600600E+07;3.702870932856399E-01;8.338534293090603E-01;-1.952065954401796E-03;4.565718440885200E-04;3.702870932856399E-01;8.338534293090603E-01;-1.952065954401796E-03;4.565718440885200E-04;
5.625625625625625E+07;3.692221326323760E-01;8.357854659027093E-01;-1.882651436685973E-03;4.390671264657035E-04;3.692221326323760E-01;8.357854659027093E-01;-1.882651436685973E-03;4.390671264657035E-04;
5.650650650650650E+07;3.676976781756557E-01;8.374205489228160E-01;-1.844315769837420E-03;3.426857051364491E-04;3.676976781756557E-01;8.374205489228160E-01;-1.844315769837420E-03;3.426857051364491E-04;
5.675675675675675E+07;3.662589297180286E-01;8.389243210470438E-01;-1.727851967271135E-03;3.843904726092040E-04;3.662589297180286E-01;8.389243210470438E-01;-1.727851967271135E-03;3.843904726092040E-04;
5.700700700700700E+07;3.644207339568781E-01;8.400345872596525E-01;-1.708402190158133E-03;3.623336417151071E-04;3.644207339568781E-01;8.400345872596525E-01;-1.708402190158133E-03;3.623336417151071E-04;
5.725725725725726E+07;3.622319268921111E-01;8.412246182001002E-01;-1.633441952682217E-03;2.844509569591736E-04;3.622319268921111E-01;8.412246182001002E-01;-1.633441952682217E-03;2.844509569591736E-04;
5.750750750750751E+07;3.597609924030347E-01;8.422523902227366E-01;-1.559760027908865E-03;2.388335928387795E-04;3.597609924030347E-01;8.422523902227366E-01;-1.559760027908865E-03;2.388335928387795E-04;
5.775775775775776E+07;3.572455533597490E-01;8.430480503561643E-01;-1.530786268233354E-03;2.111012874953597E-04;3.572455533597490E-01;8.430480503561643E-01;-1.530786268233354E-03;2.111012874953597E-04;
5.800800800800801E+07;3.543499388250038E-01;8.436119198548193E-01;-1.533220994960812E-03;1.782101706971828E-04;3.543499388250038E-01;8.436119198548193E-01;-1.533220994960812E-03;1.782101706971828E-04;
5.825825825825826E+07;3.512104556566947E-01;8.442171000856061E-01;-1.449646873925987E-03;1.574897056008521E-04;3.512104556566947E-01;8.442171000856061E-01;-1.449646873925987E-03;1.574897056008521E-04;
5.850850850850851E+07;3.482268921844446E-01;8.447570354570474E-01;-1.437269313191276E-03;1.376297340168535E-04;3.482268921844446E-01;8.447570354570474E-01;-1.437269313191276E-03;1.376297340168535E-04;
5.875875875875876E+07;3.449104592419791E-01;8.449677434683904E-01;-1.498681284547946E-03;3.764145235890013E-05;3.449104592419791E-01;8.449677434683904E-01;-1.498681284547946E-03;3.764145235890013E-05;
5.900900900900901E+07;3.412643333386177E-01;8.454562116674600E-01;-1.402240264386488E-03;6.698858928141192E-06;3.412643333386177E-01;8.454562116674600E-01;-1.402240264386488E-03;6.698858928141192E-06;
5.925925925925926E+07;3.373540298942835E-01;8.458976466001028E-01;-1.410521288666823E-03;2.471204677306901E-05;3.373540298942835E-01;8.458976466001028E-01;-1.410521288666823E-03;2.471204677306901E-05;
5.950950950950951E+07;3.332742117038925E-01;8.464464385376307E-01;-1.341708558557371E-03;5.116910857839904E-06;3.332742117038925E-01;8.464464385376307E-01;-1.341708558557371E-03;5.116910857839904E-06;
5.975975975975976E+07;3.290673485831547E-01;8.473312001812918E-01;-1.416071808140875E-03;-1.726726143359528E-06;3.290673485831547E-01;8.473312001812918E-01;-1.416071808140875E-03;-1.726726143359528E-06;
6.001001001001001E+07;3.249990883817832E-01;8.485547343764293E-01;-1.369503246413023E-03;-2.913050776364679E-05;3.249990883817832E-01;8.485547343764293E-01;-1.369503246413023E-03;-2.913050776364679E-05;
6.026026026026026E+07;3.211262881351693E-01;8.499522733007566E-01;-1.357199795663954E-03;-2.774225894011176E-05;3.211262881351693E-01;8.499522733007566E-01;-1.357199795663954E-03;-2.774225894011176E-05;
6.051051051051051E+07;3.174001930968442E-01;8.516622479998913E-01;-1.355076198126545E-03;-8.201814119371102E-05;3.174001930968442E-01;8.516622479998913E-01;-1.355076198126545E-03;-8.201814119371102E-05;
6.076076076076076E+07;3.139068177840316E-01;8.531963044667341E-01;-1.324036772826960E-03;-1.073093682390625E-04;3.139068177840316E-01;8.531963044667341E-01;-1.324036772826960E-03;-1.073093682390625E-04;
6.101101101101101E+07;3.108283053729954E-01;8.550723921421272E-01;-1.364734542474133E-03;-1.615807515372698E-04;3.108283053729954E-01;8.550723921421272E-01;-1.364734542474133E-03;-1.615807515372698E-04;
6.126126126126126E+07;3.078809982616174E-01;8.566937575889684E-01;-1.344951274762721E-03;-1.428845586619457E-04;3.078809982616174E-01;8.566937575889684E-01;-1.344951274762721E-03;-1.428845586619457E-04;
6.151151151151151E+07;3.052174606814463E-01;8.583731736139303E-01;-1.338319069006582E-03;-7.848243592513301E-05;3.052174606814463E-01;8.583731736139303E-01;-1.338319069006582E-03;-7.848243592513301E-05;
6.176176176176176E+07;3.027097066995014E-01;8.597710934787767E-01;-1.266118262349139E-03;-1.282797258240331E-04;3.027097066995014E-01;8.597710934787767E-01;-1.266118262349139E-03;-1.282797258240331E-04;
6.201201201201201E+07;3.002464546827254E-01;8.609434993775613E-01;-1.248217383347952E-03;-9.523883351174793E-05;3.002464546827254E-01;8.609434993775613E-01;-1.248217383347952E-03;-9.523883351174793E-05;
6.226226226226226E+07;2.978246519796787E-01;8.623109600269329E-01;-1.235837002423199E-03;-1.840726100722487E-04;2.978246519796787E-01;8.623109600269329E-01;-1.235837002423199E-03;-1.840726100722487E-04;
6.251251251251251E+07;2.955902454243485E-01;8.634377377271025E-01;-1.373307510725575E-03;-1.652902623692595E-04;2.955902454243485E-01;8.634377377271025E-01;-1.373307510725575E-03;-1.652902623692595E-04;
6.276276276276276E+07;2.933943238819034E-01;8.644160230216817E-01;-1.206779850151490E-03;-1.134162536013653E-04;2.933943238819034E-01;8.644160230216817E-01;-1.206779850151490E-03;-1.134162536013653E-04;
6.301301301301301E+07;2.911276602855734E-01;8.653840081405074E-01;-1.244570172087949E-03;-1.991205369238161E-04;2.911276602855734E-01;8.653840081405074E-01;-1.244570172087949E-03;-1.991205369238161E-04;
6.326326326326326E+07;2.891004182662544E-01;8.662637588516666E-01;-1.246824744164664E-03;-1.990902109768078E-04;2.891004182662544E-01;8.662637588516666E-01;-1.246824744164664E-03;-1.990902109768078E-04;
6.351351351351351E+07;2.870585594100761E-01;8.670841954793581E-01;-1.184304247382788E-03;-1.691236331919374E-04;2.870585594100761E-01;8.670841954793581E-01;-1.184304247382788E-03;-1.691236331919374E-04;
6.376376376376376E+07;2.850339892910315E-01;8.678498059410967E-01;-1.216918595005086E-03;-2.267456742265826E-04;2.850339892910315E-01;8.678498059410967E-01;-1.216918595005086E-03;-2.267456742265826E-04;
6.401401401401401E+07;2.833639025874299E-01;8.687313739715462E-01;-1.201264310410679E-03;-3.045403294168578E-04;2.833639025874299E-01;8.687313739715462E-01;-1.201264310410679E-03;-3.045403294168578E-04;
6.426426426426426E+07;2.816359989996068E-01;8.694522438892934E-01;-1.209163544630743E-03;-2.663719448352620E-04;2.816359989996068E-01;8.694522438892934E-01;-1.209163544630743E-03;-2.663719448352620E-04;
6.451451451451451E+07;2.802980486816659E-01;8.700574695172848E-01;-1.141023187579401E-03;-2.917936846502912E-04;2.802980486816659E-01;8.700574695172848E-01;-1.141023187579401E-03;-2.917936846502912E-04;
6.476476476476476E+07;2.789131287407644E-01;8.706584013557560E-01;-1.191557250602216E-03;-2.424120440838495E-04;2.789131287407644E-01;8.706584013557560E-01;-1.191557250602216E-03;-2.424120440838495E-04;
6.501501501501501E+07;2.777039762015447E-01;8.710236211193270E-01;-1.201744934315055E-03;-2.879526667046627E-04;2.777039762015447E-01;8.710236211193270E-01;-1.201744934315055E-03;-2.879526667046627E-04;
6.526526526526526E+07;2.765239760471103E-01;8.712729320029816E-01;-1.183494746419030E-03;-3.578493371692659E-04;2.765239760471103E-01;8.712729320029816E-01;-1.183494746419030E-03;-3.578493371692659E-04;
6.551551551551551E+07;2.753927843714849E-01;8.715610392355805E-01;-1.159328703116095E-03;-2.993685320932420E-04;2.753927843714849E-01;8.715610392355805E-01;-1.159328703116095E-03;-2.993685320932420E-04;
6.576576576576576E+07;2.764664508541971E-01;8.721881736344015E-01;-1.164283321047524E-03;-3.234820973268132E-04;2.764664508541971E-01;8.721881736344015E-01;-1.164283321047524E-03;-3.234820973268132E-04;
6.601601601601601E+07;2.752809023193832E-01;8.721110927354270E-01;-1.164721373788400E-03;-3.481650348429928E-04;2.752809023193832E-01;8.721110927354270E-01;-1.164721373788400E-03;-3.481650348429928E-04;
6.626626626626626E+07;2.743237070818421E-01;8.720880152632625E-01;-1.153586016106743E-03;-3.682230765047252E-04;2.743237070818421E-01;8.720880152632625E-01;-1.153586016106743E-03;-3.682230765047252E-04;
6.651651651651651E+07;2.729794496460066E-01;8.721116070911659E-01;-1.162030869634107E-03;-3.911066927525648E-04;2.729794496460066E-01;8.721116070911659E-01;-1.162030869634107E-03;-3.911066927525648E-04;
6.676676676676676E+07;2.715314644849962E-01;8.720422724595371E-01;-1.160398190506204E-03;-4.110827236490067E-04;2.715314644849962E-01;8.720422724595371E-01;-1.160398190506204E-03;-4.110827236490067E-04;
6.701701701701702E+07;2.715118151496324E-01;8.713943509716331E-01;-1.143572545318816E-03;-4.448149474371888E-04;2.715118151496324E-01;8.713943509716331E-01;-1.143572545318816E-03;-4.448149474371888E-04;
6.726726726726727E+07;2.704444843924552E-01;8.713256071173234E-01;-1.123450966566681E-03;-4.507585948375786E-04;2.704444843924552E-01;8.713256071173234E-01;-1.123450966566681E-03;-4.507585948375786E-04;
6.751751751751752E+07;2.691794838440282E-01;8.714179922621887E-01;-1.122549075415666E-03;-4.817692246055363E-04;2.691794838440282E-01;8.714179922621887E-01;-1.122549075415666E-03;-4.817692246055363E-04;
6.776776776776777E+07;2.679627121690217E-01;8.715617202772751E-01;-1.087832274011889E-03;-4.560925663757463E-04;2.679627121690217E-01;8.715617202772751E-01;-1.087832274011889E-03;-4.560925663757463E-04;
6.801801801801802E+07;2.665309199380622E-01;8.716870583728851E-01;-1.129208981737089E-03;-4.867942569281774E-04;2.665309199380622E-01;8.716870583728851E-01;-1.129208981737089E-03;-4.867942569281774E-04;
6.826826826826827E+07;2.653966651997029E-01;8.715904796689330E-01;-1.110677491653016E-03;-5.018641196181295E-04;2.653966651997029E-01;8.715904796689330E-01;-1.110677491653016E-03;-5.018641196181295E-04;
6.851851851851852E+07;2.644571459302018E-01;8.713295029014072E-01;-1.091700737246060E-03;-5.214739264177450E-04;2.644571459302018E-01;8.713295029014072E-01;-1.091700737246060E-03;-5.214739264177450E-04;
6.876876876876877E+07;2.643826343569458E-01;8.702464432725747E-01;-1.105426663316961E-03;-5.636780037686067E-04;2.643826343569458E-01;8.702464432725747E-01;-1.105426663316961E-03;-5.636780037686067E-04;
6.901901901901902E+07;2.647227820531215E-01;8.694015337983086E-01;-1.144562783085445E-03;-5.695641542041180E-04;2.647227820531215E-01;8.694015337983086E-01;-1.144562783085445E-03;-5.695641542041180E-04;
6.926926926926927E+07;2.655461368836041E-01;8.682364431089221E-01;-1.061131850610193E-03;-5.920724446829519E-04;2.655461368836041E-01;8.682364431089221E-01;-1.061131850610193E-03;-5.920724446829519E-04;
6.951951951951952E+07;2.666822560256465E-01;8.669259450904138E-01;-1.067353474532076E-03;-6.204346115021221E-04;2.666822560256465E-01;8.669259450904138E-01;-1.067353474532076E-03;-6.204346115021221E-04;
6.976976976976977E+07;2.676393597860333E-01;8.655824889357187E-01;-1.068722581270893E-03;-6.682529267425242E-04;2.676393597860333E-01;8.655824889357187E-01;-1.068722581270893E-03;-6.682529267425242E-04;
7.002002002002002E+07;2.684618539495859E-01;8.643265566378233E-01;-1.100094861647924E-03;-6.482972058750714E-04;2.684618539495859E-01;8.643265566378233E-01;-1.100094861647924E-03;-6.482972058750714E-04;
7.027027027027027E+07;2.688703334083695E-01;8.633362496670807E-01;-1.085412373790633E-03;-7.032960769419195E-04;2.688703334083695E-01;8.633362496670807E-01;-1.085412373790633E-03;-7.032960769419195E-04;
7.052052052052052E+07;2.694428040923970E-01;8.624015658843870E-01;-1.046756728795143E-03;-7.150551053505959E-04;2.694428040923970E-01;8.624015658843870E-01;-1.046756728795143E-03;-7.150551053505959E-04;
7.077077077077077E+07;2.698757465932187E-01;8.615728652838069E-01;-1.082354035460221E-03;-7.603630791258772E-04;2.698757465932187E-01;8.615728652838069E-01;-1.082354035460221E-03;-7.603630791258772E-04;
7.102102102102102E+07;2.701839492095675E-01;8.605343040673599E-01;-1.063707863794832E-03;-7.991553375933974E-04;2.701839492095675E-01;8.605343040673599E-01;-1.063707863794832E-03;-7.991553375933974E-04;
7.127127127127127E+07;2.705683852805955E-01;8.595889853912282E-01;-1.044226090139510E-03;-7.513901049145093E-04;2.705683852805955E-01;8.595889853912282E-01;-1.044226090139510E-03;-7.513901049145093E-04;
7.152152152152152E+07;2.706562286939076E-01;8.586290350723580E-01;-1.049444413981859E-03;-8.212546288783806E-04;2.706562286939076E-01;8.586290350723580E-01;-1.049444413981859E-03;-8.212546288783806E-04;
7.177177177177177E+07;2.706330007156657E-01;8.577138247872494E-01;-1.050417476168681E-03;-8.436022396094353E-04;2.706330007156657E-01;8.577138247872494E-01;-1.050417476168681E-03;-8.436022396094353E-04;
7.202202202202202E+07;2.705418174705056E-01;8.570149351718611E-01;-1.067035286057378E-03;-8.629338904853344E-04;2.705418174705056E-01;8.570149351718611E-01;-1.067035286057378E-03;-8.629338904853344E-04;
7.227227227227227E+07;2.707197145111748E-01;8.562939299716293E-01;-1.038916440378366E-03;-8.990283920317549E-04;2.707197145111748E-01;8.562939299716293E-01;-1.038916440378366E-03;-8.990283920317549E-04;
7.252252252252252E+07;2.712053653339178E-01;8.554711096860536E-01;-1.074546534110396E-03;-9.347590983191203E-04;2.712053653339178E-01;8.554711096860536E-01;-1.074546534110396E-03;-9.347590983191203E-04;
7.277277277277277E+07;2.720217324023517E-01;8.542266542127486E-01;-1.082350983475459E-03;-9.403609729902498E-04;2.720217324023517E-01;8.542266542127486E-01;-1.082350983475459E-03;-9.403609729902498E-04;
7.302302302302302E+07;2.733851314118613E-01;8.531251130260744E-01;-1.076892657602649E-03;-9.708959323197713E-04;2.733851314118613E-01;8.531251130260744E-01;-1.076892657602649E-03;-9.708959323197713E-04;
7.327327327327327E+07;2.753473298042211E-01;8.517269142201120E-01;-1.058051204121345E-03;-1.002920722252911E-03;2.753473298042211E-01;8.517269142201120E-01;-1.058051204121345E-03;-1.002920722252911E-03;
7.352352352352352E+07;2.777227555003529E-01;8.501752720159844E-01;-1.064986080210265E-03;-1.040916059154441E-03;2.777227555003529E-01;8.501752720159844E-01;-1.064986080210265E-03;-1.040916059154441E-03;
7.377377377377377E+07;2.800483414595050E-01;8.484675949020042E-01;-1.051917305932146E-03;-1.068686709712170E-03;2.800483414595050E-01;8.484675949020042E-01;-1.051917305932146E-03;-1.068686709712170E-03;
7.402402402402402E+07;2.822663786214868E-01;8.472792691052754E-01;-1.065282124020087E-03;-1.116597617996119E-03;2.822663786214868E-01;8.472792691052754E-01;-1.065282124020087E-03;-1.116597617996119E-03;
