# Version 1.00
#
# Ref Impedances: Z01: 50, Z02: 50
# 
freq[Hz];re:ZMag1_S12;im:ZMag1_S12;re:SMag1_S11;im:SMag1_S11;re:ZPh1_S12;im:ZPh1_S12;re:SPh1_S11;im:SPh1_S11;
5.000000000000000E+07;-8.961020275113101E-03;-7.787658017927342E-04;4.304719627390406E-01;6.342775562013150E-01;-8.961020275113101E-03;-7.787658017927342E-04;4.304719627390406E-01;6.342775562013150E-01;
5.025025025025025E+07;-7.809819485825658E-03;1.288596112330683E-04;4.354234461796572E-01;6.590741738387269E-01;-7.809819485825658E-03;1.288596112330683E-04;4.354234461796572E-01;6.590741738387269E-01;
5.050050050050050E+07;-6.817995727088707E-03;5.025643558770779E-04;4.408550250854751E-01;6.736576358889401E-01;-6.817995727088707E-03;5.025643558770779E-04;4.408550250854751E-01;6.736576358889401E-01;
5.075075075075075E+07;-6.093865364825249E-03;6.177080758635948E-04;4.436091513849748E-01;6.814612456085982E-01;-6.093865364825249E-03;6.177080758635948E-04;4.436091513849748E-01;6.814612456085982E-01;
5.100100100100100E+07;-5.610371590650705E-03;6.207547168935920E-04;4.421477347591503E-01;6.861258436669789E-01;-5.610371590650705E-03;6.207547168935920E-04;4.421477347591503E-01;6.861258436669789E-01;
5.125125125125125E+07;-5.296574483936260E-03;6.370570260886167E-04;4.360996601444729E-01;6.909538744518879E-01;-5.296574483936260E-03;6.370570260886167E-04;4.360996601444729E-01;6.909538744518879E-01;
5.150150150150150E+07;-5.065371955644323E-03;6.928255305012450E-04;4.287780944805098E-01;6.963458444900614E-01;-5.065371955644323E-03;6.928255305012450E-04;4.287780944805098E-01;6.963458444900614E-01;
5.175175175175175E+07;-4.881543025705292E-03;7.233862144963813E-04;4.196643194683002E-01;7.048294973855498E-01;-4.881543025705292E-03;7.233862144963813E-04;4.196643194683002E-01;7.048294973855498E-01;
5.200200200200200E+07;-4.745395762558727E-03;8.481968334373851E-04;4.115314199799491E-01;7.159540334775556E-01;-4.745395762558727E-03;8.481968334373851E-04;4.115314199799491E-01;7.159540334775556E-01;
5.225225225225225E+07;-4.530373148377997E-03;9.903760824392376E-04;4.052027098474712E-01;7.282360476737736E-01;-4.530373148377997E-03;9.903760824392376E-04;4.052027098474712E-01;7.282360476737736E-01;
5.250250250250250E+07;-4.329043642709213E-03;1.071339722257872E-03;4.012078988285480E-01;7.407242736878745E-01;-4.329043642709213E-03;1.071339722257872E-03;4.012078988285480E-01;7.407242736878745E-01;
5.275275275275275E+07;-4.122739685570398E-03;1.166856269369959E-03;3.990283309267770E-01;7.528087238536214E-01;-4.122739685570398E-03;1.166856269369959E-03;3.990283309267770E-01;7.528087238536214E-01;
5.300300300300300E+07;-3.904922448031677E-03;1.220067743119645E-03;3.984255274974135E-01;7.635621512618035E-01;-3.904922448031677E-03;1.220067743119645E-03;3.984255274974135E-01;7.635621512618035E-01;
5.325325325325325E+07;-3.714878175273249E-03;1.262099173035462E-03;3.986969887971979E-01;7.731822867704147E-01;-3.714878175273249E-03;1.262099173035462E-03;3.986969887971979E-01;7.731822867704147E-01;
5.350350350350350E+07;-3.525320271799452E-03;1.276057306842039E-03;3.996548124003758E-01;7.812002067694254E-01;-3.525320271799452E-03;1.276057306842039E-03;3.996548124003758E-01;7.812002067694254E-01;
5.375375375375375E+07;-3.358966373199834E-03;1.272273887531738E-03;4.003143653574209E-01;7.886453468009853E-01;-3.358966373199834E-03;1.272273887531738E-03;4.003143653574209E-01;7.886453468009853E-01;
5.400400400400400E+07;-3.215752836728539E-03;1.255413494866211E-03;4.014954894356682E-01;7.949066869395638E-01;-3.215752836728539E-03;1.255413494866211E-03;4.014954894356682E-01;7.949066869395638E-01;
5.425425425425425E+07;-3.068046428320380E-03;1.238545316138762E-03;4.024281707750286E-01;8.001642781264080E-01;-3.068046428320380E-03;1.238545316138762E-03;4.024281707750286E-01;8.001642781264080E-01;
5.450450450450450E+07;-2.930714413840301E-03;1.215339780437061E-03;4.036051145212955E-01;8.044920410375921E-01;-2.930714413840301E-03;1.215339780437061E-03;4.036051145212955E-01;8.044920410375921E-01;
5.475475475475475E+07;-2.813033498404319E-03;1.183405310892738E-03;4.043156994033521E-01;8.085999801402001E-01;-2.813033498404319E-03;1.183405310892738E-03;4.043156994033521E-01;8.085999801402001E-01;
5.500500500500500E+07;-2.733142824041443E-03;1.127813591447646E-03;4.048650690289516E-01;8.119035250523012E-01;-2.733142824041443E-03;1.127813591447646E-03;4.048650690289516E-01;8.119035250523012E-01;
5.525525525525525E+07;-2.623140903908109E-03;1.100475862938954E-03;4.052851746750676E-01;8.148691515676296E-01;-2.623140903908109E-03;1.100475862938954E-03;4.052851746750676E-01;8.148691515676296E-01;
5.550550550550550E+07;-2.534214610934082E-03;1.049016568909142E-03;4.055994258021394E-01;8.173865488602764E-01;-2.534214610934082E-03;1.049016568909142E-03;4.055994258021394E-01;8.173865488602764E-01;
5.575575575575575E+07;-2.447138143542877E-03;1.008604386155213E-03;4.056135333859047E-01;8.195445993892583E-01;-2.447138143542877E-03;1.008604386155213E-03;4.056135333859047E-01;8.195445993892583E-01;
5.600600600600600E+07;-2.401652989888700E-03;9.607893235991241E-04;4.054261536705215E-01;8.212918934847604E-01;-2.401652989888700E-03;9.607893235991241E-04;4.054261536705215E-01;8.212918934847604E-01;
5.625625625625625E+07;-2.335944873172455E-03;9.072438669305720E-04;4.051501490816662E-01;8.227664203353305E-01;-2.335944873172455E-03;9.072438669305720E-04;4.051501490816662E-01;8.227664203353305E-01;
5.650650650650650E+07;-2.282557911756172E-03;8.729859081078491E-04;4.047228518457696E-01;8.239650498491851E-01;-2.282557911756172E-03;8.729859081078491E-04;4.047228518457696E-01;8.239650498491851E-01;
5.675675675675675E+07;-2.226432000854395E-03;8.184617409587186E-04;4.041626650646633E-01;8.250554634022809E-01;-2.226432000854395E-03;8.184617409587186E-04;4.041626650646633E-01;8.250554634022809E-01;
5.700700700700700E+07;-2.184851607413645E-03;7.799767022179618E-04;4.032870727265969E-01;8.259692974944833E-01;-2.184851607413645E-03;7.799767022179618E-04;4.032870727265969E-01;8.259692974944833E-01;
5.725725725725726E+07;-2.138617330715256E-03;7.332877404150846E-04;4.020972523580391E-01;8.264799796789681E-01;-2.138617330715256E-03;7.332877404150846E-04;4.020972523580391E-01;8.264799796789681E-01;
5.750750750750751E+07;-2.094915997402112E-03;6.994016359635764E-04;4.011712716847075E-01;8.271204966924609E-01;-2.094915997402112E-03;6.994016359635764E-04;4.011712716847075E-01;8.271204966924609E-01;
5.775775775775776E+07;-2.071617631556577E-03;6.475113840180640E-04;4.000764548973499E-01;8.274967118891731E-01;-2.071617631556577E-03;6.475113840180640E-04;4.000764548973499E-01;8.274967118891731E-01;
5.800800800800801E+07;-2.060905639576580E-03;6.012332001088417E-04;4.045290779523797E-01;8.245541449814366E-01;-2.060905639576580E-03;6.012332001088417E-04;4.045290779523797E-01;8.245541449814366E-01;
5.825825825825826E+07;-2.030625191618087E-03;5.605331084000315E-04;4.032305070397242E-01;8.246081780920260E-01;-2.030625191618087E-03;5.605331084000315E-04;4.032305070397242E-01;8.246081780920260E-01;
5.850850850850851E+07;-2.016546298037397E-03;5.094833485324978E-04;4.020570997606842E-01;8.244816665013215E-01;-2.016546298037397E-03;5.094833485324978E-04;4.020570997606842E-01;8.244816665013215E-01;
5.875875875875876E+07;-1.972678814440119E-03;4.642388739557982E-04;4.006077318737966E-01;8.239774864980942E-01;-1.972678814440119E-03;4.642388739557982E-04;4.006077318737966E-01;8.239774864980942E-01;
5.900900900900901E+07;-1.981249637004819E-03;4.260363963920678E-04;3.989575020018148E-01;8.232223434249508E-01;-1.981249637004819E-03;4.260363963920678E-04;3.989575020018148E-01;8.232223434249508E-01;
5.925925925925926E+07;-1.955060688200326E-03;3.716985897716253E-04;3.972240781593852E-01;8.223096314959090E-01;-1.955060688200326E-03;3.716985897716253E-04;3.972240781593852E-01;8.223096314959090E-01;
5.950950950950951E+07;-1.948042363673025E-03;3.323614678576158E-04;3.949754752469414E-01;8.211418032127205E-01;-1.948042363673025E-03;3.323614678576158E-04;3.949754752469414E-01;8.211418032127205E-01;
5.975975975975976E+07;-1.950409721715225E-03;2.657100615776391E-04;3.920254784749228E-01;8.200151185486376E-01;-1.950409721715225E-03;2.657100615776391E-04;3.920254784749228E-01;8.200151185486376E-01;
6.001001001001001E+07;-1.957169404401487E-03;2.400161809614135E-04;3.888539013242024E-01;8.191786335581211E-01;-1.957169404401487E-03;2.400161809614135E-04;3.888539013242024E-01;8.191786335581211E-01;
6.026026026026026E+07;-1.961078132263901E-03;1.924226440193257E-04;3.852675432297406E-01;8.190728956045742E-01;-1.961078132263901E-03;1.924226440193257E-04;3.852675432297406E-01;8.190728956045742E-01;
6.051051051051051E+07;-1.993037538636644E-03;1.592473364331257E-04;3.816414940578615E-01;8.195827891483844E-01;-1.993037538636644E-03;1.592473364331257E-04;3.816414940578615E-01;8.195827891483844E-01;
6.076076076076076E+07;-2.012717091918001E-03;1.468038325802200E-04;3.783391437335247E-01;8.208657949328851E-01;-2.012717091918001E-03;1.468038325802200E-04;3.783391437335247E-01;8.208657949328851E-01;
6.101101101101101E+07;-2.010797173563302E-03;1.178390515163805E-04;3.756673518432514E-01;8.227965590071099E-01;-2.010797173563302E-03;1.178390515163805E-04;3.756673518432514E-01;8.227965590071099E-01;
6.126126126126126E+07;-2.010825020883178E-03;1.026728636538716E-04;3.736484871167270E-01;8.249485120387448E-01;-2.010825020883178E-03;1.026728636538716E-04;3.736484871167270E-01;8.249485120387448E-01;
6.151151151151151E+07;-2.044003849682553E-03;8.944611549105045E-05;3.727207744014051E-01;8.268596321700408E-01;-2.044003849682553E-03;8.944611549105045E-05;3.727207744014051E-01;8.268596321700408E-01;
6.176176176176176E+07;-2.050024613100179E-03;6.653433081118763E-05;3.721850153963172E-01;8.285265977415540E-01;-2.050024613100179E-03;6.653433081118763E-05;3.721850153963172E-01;8.285265977415540E-01;
6.201201201201201E+07;-2.065680840853537E-03;5.110514322855259E-05;3.719694179401745E-01;8.297622107185751E-01;-2.065680840853537E-03;5.110514322855259E-05;3.719694179401745E-01;8.297622107185751E-01;
6.226226226226226E+07;-2.062578095593280E-03;4.551981972113949E-05;3.720633952848444E-01;8.308499712439212E-01;-2.062578095593280E-03;4.551981972113949E-05;3.720633952848444E-01;8.308499712439212E-01;
6.251251251251251E+07;-2.056828321067114E-03;7.926062219693571E-06;3.724251305637487E-01;8.315206595818381E-01;-2.056828321067114E-03;7.926062219693571E-06;3.724251305637487E-01;8.315206595818381E-01;
6.276276276276276E+07;-2.053210390324720E-03;1.972486283852574E-05;3.731156646451296E-01;8.318106996100523E-01;-2.053210390324720E-03;1.972486283852574E-05;3.731156646451296E-01;8.318106996100523E-01;
6.301301301301301E+07;-2.051313017433548E-03;-3.625649757634549E-05;3.737305485516463E-01;8.318727444681180E-01;-2.051313017433548E-03;-3.625649757634549E-05;3.737305485516463E-01;8.318727444681180E-01;
6.326326326326326E+07;-2.052855583561753E-03;-5.956450907245596E-05;3.744645332582042E-01;8.317212242692144E-01;-2.052855583561753E-03;-5.956450907245596E-05;3.744645332582042E-01;8.317212242692144E-01;
6.351351351351351E+07;-2.056581315824869E-03;-6.589395251591818E-05;3.753067912491522E-01;8.314085328354899E-01;-2.056581315824869E-03;-6.589395251591818E-05;3.753067912491522E-01;8.314085328354899E-01;
6.376376376376376E+07;-2.070356975508269E-03;-1.019088862909849E-04;3.761958078803360E-01;8.308586864809332E-01;-2.070356975508269E-03;-1.019088862909849E-04;3.761958078803360E-01;8.308586864809332E-01;
6.401401401401401E+07;-2.090395673694229E-03;-1.349510177231072E-04;3.772107101286446E-01;8.302927989754414E-01;-2.090395673694229E-03;-1.349510177231072E-04;3.772107101286446E-01;8.302927989754414E-01;
6.426426426426426E+07;-2.081319539758905E-03;-1.544100910484102E-04;3.783482523084728E-01;8.295199094964437E-01;-2.081319539758905E-03;-1.544100910484102E-04;3.783482523084728E-01;8.295199094964437E-01;
6.451451451451451E+07;-2.086894808267714E-03;-1.727208306238399E-04;3.796508509124739E-01;8.286261133648660E-01;-2.086894808267714E-03;-1.727208306238399E-04;3.796508509124739E-01;8.286261133648660E-01;
6.476476476476476E+07;-2.111861901099345E-03;-2.226062248587581E-04;3.809441713858696E-01;8.276146615556361E-01;-2.111861901099345E-03;-2.226062248587581E-04;3.809441713858696E-01;8.276146615556361E-01;
6.501501501501501E+07;-2.104515953898962E-03;-2.411049891896678E-04;3.825840212876201E-01;8.264874249983004E-01;-2.104515953898962E-03;-2.411049891896678E-04;3.825840212876201E-01;8.264874249983004E-01;
6.526526526526526E+07;-2.116752219171313E-03;-2.679016788882835E-04;3.840811500996062E-01;8.251671398997779E-01;-2.116752219171313E-03;-2.679016788882835E-04;3.840811500996062E-01;8.251671398997779E-01;
6.551551551551551E+07;-2.126885158484821E-03;-3.007950829561074E-04;3.859945947069522E-01;8.236811382381851E-01;-2.126885158484821E-03;-3.007950829561074E-04;3.859945947069522E-01;8.236811382381851E-01;
6.576576576576576E+07;-2.146124443441472E-03;-3.203966790769583E-04;3.806956086608352E-01;8.262393289221913E-01;-2.146124443441472E-03;-3.203966790769583E-04;3.806956086608352E-01;8.262393289221913E-01;
6.601601601601601E+07;-2.155610852816850E-03;-3.483514235531155E-04;3.827764645707411E-01;8.244922349234713E-01;-2.155610852816850E-03;-3.483514235531155E-04;3.827764645707411E-01;8.244922349234713E-01;
6.626626626626626E+07;-2.172270098817455E-03;-3.799400415178958E-04;3.848154094395466E-01;8.228159380250655E-01;-2.172270098817455E-03;-3.799400415178958E-04;3.848154094395466E-01;8.228159380250655E-01;
6.651651651651651E+07;-2.184080903313889E-03;-4.060083905379983E-04;3.868967390150659E-01;8.210848154740807E-01;-2.184080903313889E-03;-4.060083905379983E-04;3.868967390150659E-01;8.210848154740807E-01;
6.676676676676676E+07;-2.196011300364760E-03;-4.311135825525224E-04;3.890674916506316E-01;8.193198338651648E-01;-2.196011300364760E-03;-4.311135825525224E-04;3.890674916506316E-01;8.193198338651648E-01;
6.701701701701702E+07;-2.220319835851945E-03;-4.809491501703324E-04;3.925355834703148E-01;8.164956793839564E-01;-2.220319835851945E-03;-4.809491501703324E-04;3.925355834703148E-01;8.164956793839564E-01;
6.726726726726727E+07;-2.231753338676208E-03;-4.951959211901675E-04;3.951060828072130E-01;8.144464603701134E-01;-2.231753338676208E-03;-4.951959211901675E-04;3.951060828072130E-01;8.144464603701134E-01;
6.751751751751752E+07;-2.251016566516901E-03;-5.316952172893636E-04;3.977915279130907E-01;8.122517553666642E-01;-2.251016566516901E-03;-5.316952172893636E-04;3.977915279130907E-01;8.122517553666642E-01;
6.776776776776777E+07;-2.274197231741907E-03;-5.713288125518174E-04;4.004235199827534E-01;8.101195158069447E-01;-2.274197231741907E-03;-5.713288125518174E-04;4.004235199827534E-01;8.101195158069447E-01;
6.801801801801802E+07;-2.308544069078151E-03;-6.004676182374365E-04;4.032424150461449E-01;8.078303818437709E-01;-2.308544069078151E-03;-6.004676182374365E-04;4.032424150461449E-01;8.078303818437709E-01;
6.826826826826827E+07;-2.309139256882180E-03;-6.362764401482506E-04;4.062752648950596E-01;8.053864077156601E-01;-2.309139256882180E-03;-6.362764401482506E-04;4.062752648950596E-01;8.053864077156601E-01;
6.851851851851852E+07;-2.358305445755805E-03;-6.942714776250287E-04;4.099376803728951E-01;8.025219521645718E-01;-2.358305445755805E-03;-6.942714776250287E-04;4.099376803728951E-01;8.025219521645718E-01;
6.876876876876877E+07;-2.361074340356117E-03;-7.368776087583798E-04;4.181163167580999E-01;7.980022704288714E-01;-2.361074340356117E-03;-7.368776087583798E-04;4.181163167580999E-01;7.980022704288714E-01;
6.901901901901902E+07;-2.386756352462526E-03;-7.801424119826210E-04;4.232333727845052E-01;7.939734898904870E-01;-2.386756352462526E-03;-7.801424119826210E-04;4.232333727845052E-01;7.939734898904870E-01;
6.926926926926927E+07;-2.425591334880773E-03;-8.372871030759586E-04;4.289357948752534E-01;7.892899053285213E-01;-2.425591334880773E-03;-8.372871030759586E-04;4.289357948752534E-01;7.892899053285213E-01;
6.951951951951952E+07;-2.453378448497718E-03;-8.802578674189075E-04;4.349661108377696E-01;7.842331231032704E-01;-2.453378448497718E-03;-8.802578674189075E-04;4.349661108377696E-01;7.842331231032704E-01;
6.976976976976977E+07;-2.483377037568711E-03;-9.313145661095456E-04;4.408735015586509E-01;7.789683368305939E-01;-2.483377037568711E-03;-9.313145661095456E-04;4.408735015586509E-01;7.789683368305939E-01;
7.002002002002002E+07;-2.517716127340247E-03;-9.766405796970416E-04;4.466914764316336E-01;7.735904205731144E-01;-2.517716127340247E-03;-9.766405796970416E-04;4.466914764316336E-01;7.735904205731144E-01;
7.027027027027027E+07;-2.561513167097998E-03;-1.027661628546969E-03;4.525596909922155E-01;7.681332299362928E-01;-2.561513167097998E-03;-1.027661628546969E-03;4.525596909922155E-01;7.681332299362928E-01;
7.052052052052052E+07;-2.582727897911296E-03;-1.070788161076719E-03;4.583664060848353E-01;7.625789197043850E-01;-2.582727897911296E-03;-1.070788161076719E-03;4.583664060848353E-01;7.625789197043850E-01;
7.077077077077077E+07;-2.628956242399642E-03;-1.122198719549952E-03;4.644242113705946E-01;7.568802181089366E-01;-2.628956242399642E-03;-1.122198719549952E-03;4.644242113705946E-01;7.568802181089366E-01;
7.102102102102102E+07;-2.678371073577023E-03;-1.165396029861724E-03;4.704779720486109E-01;7.509456140942310E-01;-2.678371073577023E-03;-1.165396029861724E-03;4.704779720486109E-01;7.509456140942310E-01;
7.127127127127127E+07;-2.722931434867687E-03;-1.195574143793069E-03;4.768357325627643E-01;7.445506177216348E-01;-2.722931434867687E-03;-1.195574143793069E-03;4.768357325627643E-01;7.445506177216348E-01;
7.152152152152152E+07;-2.768226928614612E-03;-1.250173709234185E-03;4.833579834016779E-01;7.381148006484002E-01;-2.768226928614612E-03;-1.250173709234185E-03;4.833579834016779E-01;7.381148006484002E-01;
7.177177177177177E+07;-2.824685551238642E-03;-1.304840554141558E-03;4.899935608178828E-01;7.313701507794825E-01;-2.824685551238642E-03;-1.304840554141558E-03;4.899935608178828E-01;7.313701507794825E-01;
7.202202202202202E+07;-2.869711983800566E-03;-1.343530702884031E-03;4.968522067010108E-01;7.242684859172922E-01;-2.869711983800566E-03;-1.343530702884031E-03;4.968522067010108E-01;7.242684859172922E-01;
7.227227227227227E+07;-2.926618661692327E-03;-1.418046319068869E-03;5.042196238553347E-01;7.165173646990632E-01;-2.926618661692327E-03;-1.418046319068869E-03;5.042196238553347E-01;7.165173646990632E-01;
7.252252252252252E+07;-2.996335198495473E-03;-1.484838221099016E-03;5.120627235255255E-01;7.079902560083687E-01;-2.996335198495473E-03;-1.484838221099016E-03;5.120627235255255E-01;7.079902560083687E-01;
7.277277277277277E+07;-3.050683398240270E-03;-1.539956724517667E-03;5.204489524161864E-01;6.985954571722860E-01;-3.050683398240270E-03;-1.539956724517667E-03;5.204489524161864E-01;6.985954571722860E-01;
7.302302302302302E+07;-3.129578921998603E-03;-1.597617671987533E-03;5.293625348020493E-01;6.883794880088420E-01;-3.129578921998603E-03;-1.597617671987533E-03;5.293625348020493E-01;6.883794880088420E-01;
7.327327327327327E+07;-3.178301995661933E-03;-1.680540299047224E-03;5.388884783277907E-01;6.773012489777911E-01;-3.178301995661933E-03;-1.680540299047224E-03;5.388884783277907E-01;6.773012489777911E-01;
7.352352352352352E+07;-3.254835032695560E-03;-1.746963192980214E-03;5.485558984170003E-01;6.653538544986478E-01;-3.254835032695560E-03;-1.746963192980214E-03;5.485558984170003E-01;6.653538544986478E-01;
7.377377377377377E+07;-3.348364340461837E-03;-1.815908753576922E-03;5.584088682570787E-01;6.528098794907893E-01;-3.348364340461837E-03;-1.815908753576922E-03;5.584088682570787E-01;6.528098794907893E-01;
7.402402402402402E+07;-3.429837140053680E-03;-1.862178825436833E-03;5.683803615701828E-01;6.394535571448812E-01;-3.429837140053680E-03;-1.862178825436833E-03;5.683803615701828E-01;6.394535571448812E-01;
