# Version 1.00
#
# Ref Impedances: Z01: 50, Z02: 50
# 
freq[Hz];re:SMag2_S11;im:SMag2_S11;re:ZPh2_S12;im:ZPh2_S12;re:SPh2_S11;im:SPh2_S11;re:ZMag2_S12;im:ZMag2_S12;
5.000000000000000E+07;5.830516953661423E-01;6.291815957776529E-01;-1.524228179415634E-03;-6.778976630858844E-03;5.830516953661423E-01;6.291815957776529E-01;-1.524228179415634E-03;-6.778976630858844E-03;
5.025025025025025E+07;5.636803025484060E-01;6.126513123220916E-01;-2.553575377642849E-03;-6.932973923388898E-03;5.636803025484060E-01;6.126513123220916E-01;-2.553575377642849E-03;-6.932973923388898E-03;
5.050050050050050E+07;5.367757474001530E-01;5.989571775860669E-01;-3.622736789077035E-03;-6.726075413311944E-03;5.367757474001530E-01;5.989571775860669E-01;-3.622736789077035E-03;-6.726075413311944E-03;
5.075075075075075E+07;5.033454801092402E-01;5.922347163614249E-01;-4.746560322660540E-03;-6.248623926442334E-03;5.033454801092402E-01;5.922347163614249E-01;-4.746560322660540E-03;-6.248623926442334E-03;
5.100100100100100E+07;4.665388067085148E-01;5.954613918551558E-01;-5.711551378888537E-03;-5.416057824678396E-03;4.665388067085148E-01;5.954613918551558E-01;-5.711551378888537E-03;-5.416057824678396E-03;
5.125125125125125E+07;4.309089616967791E-01;6.093238994974125E-01;-6.177831616954448E-03;-4.372222090776008E-03;4.309089616967791E-01;6.093238994974125E-01;-6.177831616954448E-03;-4.372222090776008E-03;
5.150150150150150E+07;4.022047287841256E-01;6.352871291146059E-01;-6.475434135670676E-03;-3.176075044018871E-03;4.022047287841256E-01;6.352871291146059E-01;-6.475434135670676E-03;-3.176075044018871E-03;
5.175175175175175E+07;3.795998378850972E-01;6.600702407102568E-01;-6.433500358356314E-03;-2.114597210174898E-03;3.795998378850972E-01;6.600702407102568E-01;-6.433500358356314E-03;-2.114597210174898E-03;
5.200200200200200E+07;3.672882980873558E-01;6.893754486020275E-01;-6.158656293172923E-03;-1.273158318870538E-03;3.672882980873558E-01;6.893754486020275E-01;-6.158656293172923E-03;-1.273158318870538E-03;
5.225225225225225E+07;3.621874143809262E-01;7.160481545373837E-01;-5.761471970000383E-03;-5.155453118083213E-04;3.621874143809262E-01;7.160481545373837E-01;-5.761471970000383E-03;-5.155453118083213E-04;
5.250250250250250E+07;3.620443654897566E-01;7.388761500161198E-01;-5.248244932794944E-03;-1.566700962221107E-04;3.620443654897566E-01;7.388761500161198E-01;-5.248244932794944E-03;-1.566700962221107E-04;
5.275275275275275E+07;3.646653689998542E-01;7.573571994689642E-01;-4.820657471722265E-03;2.282826086508772E-04;3.646653689998542E-01;7.573571994689642E-01;-4.820657471722265E-03;2.282826086508772E-04;
5.300300300300300E+07;3.680815733183113E-01;7.721528118862276E-01;-4.335744083950906E-03;4.500519451714380E-04;3.680815733183113E-01;7.721528118862276E-01;-4.335744083950906E-03;4.500519451714380E-04;
5.325325325325325E+07;3.721573059088881E-01;7.839493733884624E-01;-3.950486063759107E-03;6.237855851397208E-04;3.721573059088881E-01;7.839493733884624E-01;-3.950486063759107E-03;6.237855851397208E-04;
5.350350350350350E+07;3.756687544274954E-01;7.930920815980026E-01;-3.618603577106427E-03;6.555598210507334E-04;3.756687544274954E-01;7.930920815980026E-01;-3.618603577106427E-03;6.555598210507334E-04;
5.375375375375375E+07;3.786002713520724E-01;8.005539877871529E-01;-3.305654096529804E-03;6.648167583087679E-04;3.786002713520724E-01;8.005539877871529E-01;-3.305654096529804E-03;6.648167583087679E-04;
5.400400400400400E+07;3.805307518143722E-01;8.064630270762784E-01;-3.115763073914389E-03;7.524591489608134E-04;3.805307518143722E-01;8.064630270762784E-01;-3.115763073914389E-03;7.524591489608134E-04;
5.425425425425425E+07;3.819043050252049E-01;8.119456082280547E-01;-2.836569530884051E-03;7.102340132942124E-04;3.819043050252049E-01;8.119456082280547E-01;-2.836569530884051E-03;7.102340132942124E-04;
5.450450450450450E+07;3.827399072812644E-01;8.162894116913318E-01;-2.713323080025509E-03;6.767775260259478E-04;3.827399072812644E-01;8.162894116913318E-01;-2.713323080025509E-03;6.767775260259478E-04;
5.475475475475475E+07;3.831933008729452E-01;8.204407471799753E-01;-2.563912635637178E-03;6.619200755014409E-04;3.831933008729452E-01;8.204407471799753E-01;-2.563912635637178E-03;6.619200755014409E-04;
5.500500500500500E+07;3.832567986029053E-01;8.239151933125812E-01;-2.427191957034075E-03;5.823541108635671E-04;3.832567986029053E-01;8.239151933125812E-01;-2.427191957034075E-03;5.823541108635671E-04;
5.525525525525525E+07;3.832620959574643E-01;8.272317172283247E-01;-2.240142641520553E-03;5.848838779355631E-04;3.832620959574643E-01;8.272317172283247E-01;-2.240142641520553E-03;5.848838779355631E-04;
5.550550550550550E+07;3.826514807550527E-01;8.298612421913459E-01;-2.172701496288442E-03;5.703429665224615E-04;3.826514807550527E-01;8.298612421913459E-01;-2.172701496288442E-03;5.703429665224615E-04;
5.575575575575575E+07;3.819933992784622E-01;8.324524670922722E-01;-2.013983382688436E-03;5.362499464576523E-04;3.819933992784622E-01;8.324524670922722E-01;-2.013983382688436E-03;5.362499464576523E-04;
5.600600600600600E+07;3.809983033668992E-01;8.343805105593293E-01;-1.951989614215235E-03;5.515394079138666E-04;3.809983033668992E-01;8.343805105593293E-01;-1.951989614215235E-03;5.515394079138666E-04;
5.625625625625625E+07;3.797338316264925E-01;8.364134165412714E-01;-1.843916056239248E-03;4.390064066084355E-04;3.797338316264925E-01;8.364134165412714E-01;-1.843916056239248E-03;4.390064066084355E-04;
5.650650650650650E+07;3.782787717523358E-01;8.381041120535722E-01;-1.816174667184389E-03;4.243432253592656E-04;3.782787717523358E-01;8.381041120535722E-01;-1.816174667184389E-03;4.243432253592656E-04;
5.675675675675675E+07;3.768028279910759E-01;8.395524685881107E-01;-1.758572414480062E-03;3.947802550151852E-04;3.768028279910759E-01;8.395524685881107E-01;-1.758572414480062E-03;3.947802550151852E-04;
5.700700700700700E+07;3.748904221568806E-01;8.408165569411434E-01;-1.684067799089102E-03;3.472682421848250E-04;3.748904221568806E-01;8.408165569411434E-01;-1.684067799089102E-03;3.472682421848250E-04;
5.725725725725726E+07;3.726699406434865E-01;8.418495408851193E-01;-1.630547904960190E-03;3.352061993008371E-04;3.726699406434865E-01;8.418495408851193E-01;-1.630547904960190E-03;3.352061993008371E-04;
5.750750750750751E+07;3.703125786113353E-01;8.427910711913165E-01;-1.607110452351835E-03;2.348187091070289E-04;3.703125786113353E-01;8.427910711913165E-01;-1.607110452351835E-03;2.348187091070289E-04;
5.775775775775776E+07;3.676232547760723E-01;8.438014451825516E-01;-1.539859021930182E-03;2.544495061091368E-04;3.676232547760723E-01;8.438014451825516E-01;-1.539859021930182E-03;2.544495061091368E-04;
5.800800800800801E+07;3.651515308892188E-01;8.445930808758574E-01;-1.543604918119633E-03;2.243317675390814E-04;3.651515308892188E-01;8.445930808758574E-01;-1.543604918119633E-03;2.243317675390814E-04;
5.825825825825826E+07;3.623114883745011E-01;8.452271168941868E-01;-1.481044614849855E-03;1.665561408882027E-04;3.623114883745011E-01;8.452271168941868E-01;-1.481044614849855E-03;1.665561408882027E-04;
5.850850850850851E+07;3.593055637414194E-01;8.456108686229987E-01;-1.435486688124658E-03;1.010659938937595E-04;3.593055637414194E-01;8.456108686229987E-01;-1.435486688124658E-03;1.010659938937595E-04;
5.875875875875876E+07;3.562260986903635E-01;8.462156980342452E-01;-1.445755239323115E-03;8.187208396418366E-05;3.562260986903635E-01;8.462156980342452E-01;-1.445755239323115E-03;8.187208396418366E-05;
5.900900900900901E+07;3.529945237799548E-01;8.465893127761113E-01;-1.406957914144395E-03;1.143011629058600E-04;3.529945237799548E-01;8.465893127761113E-01;-1.406957914144395E-03;1.143011629058600E-04;
5.925925925925926E+07;3.492330628070212E-01;8.471947636873389E-01;-1.375412742347109E-03;2.343857668470993E-05;3.492330628070212E-01;8.471947636873389E-01;-1.375412742347109E-03;2.343857668470993E-05;
5.950950950950951E+07;3.454348158800781E-01;8.479301181205973E-01;-1.380005355238694E-03;3.870795210243040E-05;3.454348158800781E-01;8.479301181205973E-01;-1.380005355238694E-03;3.870795210243040E-05;
5.975975975975976E+07;3.415620858851299E-01;8.487900360955906E-01;-1.437318297163275E-03;-1.320906733900336E-05;3.415620858851299E-01;8.487900360955906E-01;-1.437318297163275E-03;-1.320906733900336E-05;
6.001001001001001E+07;3.379778165463313E-01;8.499350774511011E-01;-1.347587084430146E-03;4.979206152861772E-06;3.379778165463313E-01;8.499350774511011E-01;-1.347587084430146E-03;4.979206152861772E-06;
6.026026026026026E+07;3.345653784458794E-01;8.515001852852253E-01;-1.341763557903281E-03;-1.983731646585653E-05;3.345653784458794E-01;8.515001852852253E-01;-1.341763557903281E-03;-1.983731646585653E-05;
6.051051051051051E+07;3.312034612756835E-01;8.529762423562500E-01;-1.362939662110956E-03;-8.716160915703631E-05;3.312034612756835E-01;8.529762423562500E-01;-1.362939662110956E-03;-8.716160915703631E-05;
6.076076076076076E+07;3.283245688818455E-01;8.547861688857027E-01;-1.362536635042765E-03;-8.969519001108502E-05;3.283245688818455E-01;8.547861688857027E-01;-1.362536635042765E-03;-8.969519001108502E-05;
6.101101101101101E+07;3.256847629901597E-01;8.564880579531630E-01;-1.370485324581562E-03;-5.968852026903341E-05;3.256847629901597E-01;8.564880579531630E-01;-1.370485324581562E-03;-5.968852026903341E-05;
6.126126126126126E+07;3.231514327099165E-01;8.580329941782183E-01;-1.329160692008582E-03;-7.016536897896600E-05;3.231514327099165E-01;8.580329941782183E-01;-1.329160692008582E-03;-7.016536897896600E-05;
6.151151151151151E+07;3.207450222752306E-01;8.595506783604270E-01;-1.335351435644274E-03;-4.900953346099580E-05;3.207450222752306E-01;8.595506783604270E-01;-1.335351435644274E-03;-4.900953346099580E-05;
6.176176176176176E+07;3.186963805295282E-01;8.606909431811535E-01;-1.312718565541791E-03;-1.469491882438130E-04;3.186963805295282E-01;8.606909431811535E-01;-1.312718565541791E-03;-1.469491882438130E-04;
6.201201201201201E+07;3.165492825904749E-01;8.618473215548864E-01;-1.288086580663501E-03;-1.158065254599037E-04;3.165492825904749E-01;8.618473215548864E-01;-1.288086580663501E-03;-1.158065254599037E-04;
6.226226226226226E+07;3.146444799708324E-01;8.628708016838034E-01;-1.298256696219792E-03;-9.906526302971769E-05;3.146444799708324E-01;8.628708016838034E-01;-1.298256696219792E-03;-9.906526302971769E-05;
6.251251251251251E+07;3.126528852048030E-01;8.638811410963204E-01;-1.332605988915319E-03;-1.877796521129028E-04;3.126528852048030E-01;8.638811410963204E-01;-1.332605988915319E-03;-1.877796521129028E-04;
6.276276276276276E+07;3.110154798237493E-01;8.647030122042336E-01;-1.342141368053579E-03;-1.895299193587227E-04;3.110154798237493E-01;8.647030122042336E-01;-1.342141368053579E-03;-1.895299193587227E-04;
6.301301301301301E+07;3.090937003026141E-01;8.654788513030508E-01;-1.246997280061671E-03;-2.171276716491687E-04;3.090937003026141E-01;8.654788513030508E-01;-1.246997280061671E-03;-2.171276716491687E-04;
6.326326326326326E+07;3.074410831154517E-01;8.662590795181651E-01;-1.227699853575322E-03;-1.720718785526239E-04;3.074410831154517E-01;8.662590795181651E-01;-1.227699853575322E-03;-1.720718785526239E-04;
6.351351351351351E+07;3.055911214639478E-01;8.668147878766552E-01;-1.281399866735322E-03;-1.858656568160943E-04;3.055911214639478E-01;8.668147878766552E-01;-1.281399866735322E-03;-1.858656568160943E-04;
6.376376376376376E+07;3.042358725696904E-01;8.675678574203772E-01;-1.232462390544924E-03;-2.428217985962744E-04;3.042358725696904E-01;8.675678574203772E-01;-1.232462390544924E-03;-2.428217985962744E-04;
6.401401401401401E+07;3.027505941531901E-01;8.678916882318254E-01;-1.242836466252246E-03;-2.670343023513558E-04;3.027505941531901E-01;8.678916882318254E-01;-1.242836466252246E-03;-2.670343023513558E-04;
6.426426426426426E+07;3.014724060394807E-01;8.686665671639091E-01;-1.207440227407438E-03;-2.543970253124312E-04;3.014724060394807E-01;8.686665671639091E-01;-1.207440227407438E-03;-2.543970253124312E-04;
6.451451451451451E+07;3.003969255054058E-01;8.690711015436720E-01;-1.212224736735489E-03;-2.710387637064229E-04;3.003969255054058E-01;8.690711015436720E-01;-1.212224736735489E-03;-2.710387637064229E-04;
6.476476476476476E+07;2.992991377155136E-01;8.693477035920029E-01;-1.259974215451321E-03;-2.965308476899337E-04;2.992991377155136E-01;8.693477035920029E-01;-1.259974215451321E-03;-2.965308476899337E-04;
6.501501501501501E+07;2.982989930519823E-01;8.695835115606786E-01;-1.249683877991785E-03;-2.841688934081828E-04;2.982989930519823E-01;8.695835115606786E-01;-1.249683877991785E-03;-2.841688934081828E-04;
6.526526526526526E+07;2.974495083277143E-01;8.697011879615822E-01;-1.209428020200011E-03;-2.880950969173275E-04;2.974495083277143E-01;8.697011879615822E-01;-1.209428020200011E-03;-2.880950969173275E-04;
6.551551551551551E+07;2.966432200749599E-01;8.697056975311189E-01;-1.198005706788570E-03;-3.468260550759783E-04;2.966432200749599E-01;8.697056975311189E-01;-1.198005706788570E-03;-3.468260550759783E-04;
6.576576576576576E+07;2.980401223166352E-01;8.702448817427566E-01;-1.145051219818369E-03;-3.131040457128133E-04;2.980401223166352E-01;8.702448817427566E-01;-1.145051219818369E-03;-3.131040457128133E-04;
6.601601601601601E+07;2.974119908563686E-01;8.701232072224032E-01;-1.212160989870434E-03;-3.433612285790393E-04;2.974119908563686E-01;8.701232072224032E-01;-1.212160989870434E-03;-3.433612285790393E-04;
6.626626626626626E+07;2.965574769357587E-01;8.700679298100170E-01;-1.185974866354977E-03;-3.520919541454072E-04;2.965574769357587E-01;8.700679298100170E-01;-1.185974866354977E-03;-3.520919541454072E-04;
6.651651651651651E+07;2.956724106187515E-01;8.699249106130633E-01;-1.168507876841796E-03;-3.624651084979063E-04;2.956724106187515E-01;8.699249106130633E-01;-1.168507876841796E-03;-3.624651084979063E-04;
6.676676676676676E+07;2.946796314261255E-01;8.698968858696438E-01;-1.128716593542445E-03;-3.997355334540742E-04;2.946796314261255E-01;8.698968858696438E-01;-1.128716593542445E-03;-3.997355334540742E-04;
6.701701701701702E+07;2.950024380199849E-01;8.690549802842309E-01;-1.159238275338205E-03;-4.127241955400681E-04;2.950024380199849E-01;8.690549802842309E-01;-1.159238275338205E-03;-4.127241955400681E-04;
6.726726726726727E+07;2.943189397578242E-01;8.689701052146261E-01;-1.169329286289116E-03;-4.045002305941031E-04;2.943189397578242E-01;8.689701052146261E-01;-1.169329286289116E-03;-4.045002305941031E-04;
6.751751751751752E+07;2.936654050941413E-01;8.688151627698611E-01;-1.144972316455776E-03;-4.446569946790428E-04;2.936654050941413E-01;8.688151627698611E-01;-1.144972316455776E-03;-4.446569946790428E-04;
6.776776776776777E+07;2.928806490604453E-01;8.688262088758287E-01;-1.146454793331140E-03;-4.554625049893378E-04;2.928806490604453E-01;8.688262088758287E-01;-1.146454793331140E-03;-4.554625049893378E-04;
6.801801801801802E+07;2.920387775843736E-01;8.689488971877090E-01;-1.168582967389346E-03;-4.767856886512368E-04;2.920387775843736E-01;8.689488971877090E-01;-1.168582967389346E-03;-4.767856886512368E-04;
6.826826826826827E+07;2.913062010092591E-01;8.687521309210272E-01;-1.141441536898047E-03;-4.896252005563988E-04;2.913062010092591E-01;8.687521309210272E-01;-1.141441536898047E-03;-4.896252005563988E-04;
6.851851851851852E+07;2.910379990740958E-01;8.684525424440663E-01;-1.136640396709218E-03;-4.882783225867448E-04;2.910379990740958E-01;8.684525424440663E-01;-1.136640396709218E-03;-4.882783225867448E-04;
6.876876876876877E+07;2.916210449355630E-01;8.672645278194624E-01;-1.121823758569960E-03;-5.362725189501973E-04;2.916210449355630E-01;8.672645278194624E-01;-1.121823758569960E-03;-5.362725189501973E-04;
6.901901901901902E+07;2.925839000816163E-01;8.661942811588250E-01;-1.152652559897361E-03;-5.262854268014216E-04;2.925839000816163E-01;8.661942811588250E-01;-1.152652559897361E-03;-5.262854268014216E-04;
6.926926926926927E+07;2.940924052986728E-01;8.648192608973340E-01;-1.117122045034018E-03;-5.639885467501562E-04;2.940924052986728E-01;8.648192608973340E-01;-1.117122045034018E-03;-5.639885467501562E-04;
6.951951951951952E+07;2.955005006716852E-01;8.632495187190450E-01;-1.098958493219145E-03;-6.113992059593802E-04;2.955005006716852E-01;8.632495187190450E-01;-1.098958493219145E-03;-6.113992059593802E-04;
6.976976976976977E+07;2.972394850596214E-01;8.616660571384660E-01;-1.122858425556065E-03;-6.410309752872515E-04;2.972394850596214E-01;8.616660571384660E-01;-1.122858425556065E-03;-6.410309752872515E-04;
7.002002002002002E+07;2.985051304469844E-01;8.600893757834764E-01;-1.119365181994288E-03;-6.327016597684290E-04;2.985051304469844E-01;8.600893757834764E-01;-1.119365181994288E-03;-6.327016597684290E-04;
7.027027027027027E+07;2.997785259196660E-01;8.588697196655096E-01;-1.136065595715177E-03;-7.182372724206297E-04;2.997785259196660E-01;8.588697196655096E-01;-1.136065595715177E-03;-7.182372724206297E-04;
7.052052052052052E+07;3.008065038297961E-01;8.577510192108071E-01;-1.144060351776577E-03;-7.063278721877019E-04;3.008065038297961E-01;8.577510192108071E-01;-1.144060351776577E-03;-7.063278721877019E-04;
7.077077077077077E+07;3.019052672363366E-01;8.565003309927183E-01;-1.131811159176354E-03;-7.315642612105933E-04;3.019052672363366E-01;8.565003309927183E-01;-1.131811159176354E-03;-7.315642612105933E-04;
7.102102102102102E+07;3.029177709540796E-01;8.551789693862935E-01;-1.109301091998203E-03;-7.850362846078114E-04;3.029177709540796E-01;8.551789693862935E-01;-1.109301091998203E-03;-7.850362846078114E-04;
7.127127127127127E+07;3.040348759728536E-01;8.541842451716598E-01;-1.135809765691473E-03;-8.035461525971860E-04;3.040348759728536E-01;8.541842451716598E-01;-1.135809765691473E-03;-8.035461525971860E-04;
7.152152152152152E+07;3.048749293863140E-01;8.528702853303491E-01;-1.146456230878505E-03;-8.372922885475689E-04;3.048749293863140E-01;8.528702853303491E-01;-1.146456230878505E-03;-8.372922885475689E-04;
7.177177177177177E+07;3.056411516074446E-01;8.517201980146524E-01;-1.156622363496994E-03;-8.530873295248328E-04;3.056411516074446E-01;8.517201980146524E-01;-1.156622363496994E-03;-8.530873295248328E-04;
7.202202202202202E+07;3.062885067436313E-01;8.507797662830715E-01;-1.149469731595523E-03;-8.585859854041085E-04;3.062885067436313E-01;8.507797662830715E-01;-1.149469731595523E-03;-8.585859854041085E-04;
7.227227227227227E+07;3.073447402382808E-01;8.495311561216540E-01;-1.162834769537438E-03;-8.832970362441450E-04;3.073447402382808E-01;8.495311561216540E-01;-1.162834769537438E-03;-8.832970362441450E-04;
7.252252252252252E+07;3.085013558521853E-01;8.482191752347342E-01;-1.140741038625733E-03;-9.278186541808373E-04;3.085013558521853E-01;8.482191752347342E-01;-1.140741038625733E-03;-9.278186541808373E-04;
7.277277277277277E+07;3.101044147285507E-01;8.467553972939923E-01;-1.170692457736598E-03;-9.678530573517976E-04;3.101044147285507E-01;8.467553972939923E-01;-1.170692457736598E-03;-9.678530573517976E-04;
7.302302302302302E+07;3.126539720868967E-01;8.450200736962455E-01;-1.154385988512371E-03;-9.756138942126593E-04;3.126539720868967E-01;8.450200736962455E-01;-1.154385988512371E-03;-9.756138942126593E-04;
7.327327327327327E+07;3.154516699662778E-01;8.431275056814320E-01;-1.203854172123006E-03;-1.077232886880937E-03;3.154516699662778E-01;8.431275056814320E-01;-1.203854172123006E-03;-1.077232886880937E-03;
7.352352352352352E+07;3.184285357989903E-01;8.410260644722828E-01;-1.193709964769258E-03;-1.064645990053341E-03;3.184285357989903E-01;8.410260644722828E-01;-1.193709964769258E-03;-1.064645990053341E-03;
7.377377377377377E+07;3.217059921276583E-01;8.389657814894972E-01;-1.128921145138776E-03;-1.101389835801117E-03;3.217059921276583E-01;8.389657814894972E-01;-1.128921145138776E-03;-1.101389835801117E-03;
7.402402402402402E+07;3.247995743772408E-01;8.369335934498763E-01;-1.193716067990739E-03;-1.127353949568788E-03;3.247995743772408E-01;8.369335934498763E-01;-1.193716067990739E-03;-1.127353949568788E-03;
