# Version 1.00
#
# Ref Impedances: Z01: 50, Z02: 50
# 
freq[Hz];re:ZMag1_S12;im:ZMag1_S12;re:SMag1_S11;im:SMag1_S11;re:ZPh1_S12;im:ZPh1_S12;re:SPh1_S11;im:SPh1_S11;
5.000000000000000E+07;-8.188646154296216E-03;-1.954573329076410E-03;4.496846708352233E-01;6.456463222982545E-01;-8.188646154296216E-03;-1.954573329076410E-03;4.496846708352233E-01;6.456463222982545E-01;
5.025025025025025E+07;-7.235178907922610E-03;-8.901669076377898E-04;4.478982674516808E-01;6.685591089034335E-01;-7.235178907922610E-03;-8.901669076377898E-04;4.478982674516808E-01;6.685591089034335E-01;
5.050050050050050E+07;-6.358207004186429E-03;-3.377099007476248E-04;4.486900177314648E-01;6.827291769121262E-01;-6.358207004186429E-03;-3.377099007476248E-04;4.486900177314648E-01;6.827291769121262E-01;
5.075075075075075E+07;-5.724001676677527E-03;-1.290852550724153E-04;4.480556528444032E-01;6.910523286297666E-01;-5.724001676677527E-03;-1.290852550724153E-04;4.480556528444032E-01;6.910523286297666E-01;
5.100100100100100E+07;-5.280533486653217E-03;-4.215289678979284E-05;4.444795233370238E-01;6.960283834807781E-01;-5.280533486653217E-03;-4.215289678979284E-05;4.444795233370238E-01;6.960283834807781E-01;
5.125125125125125E+07;-4.981683954966175E-03;1.961534576949650E-05;4.377789286386343E-01;7.005868494026426E-01;-4.981683954966175E-03;1.961534576949650E-05;4.377789286386343E-01;7.005868494026426E-01;
5.150150150150150E+07;-4.805255333961746E-03;1.071771452674931E-04;4.287747203214760E-01;7.068660336994288E-01;-4.805255333961746E-03;1.071771452674931E-04;4.287747203214760E-01;7.068660336994288E-01;
5.175175175175175E+07;-4.642758060778548E-03;2.622460735947964E-04;4.192746350466947E-01;7.143528338388728E-01;-4.642758060778548E-03;2.622460735947964E-04;4.192746350466947E-01;7.143528338388728E-01;
5.200200200200200E+07;-4.513003797314138E-03;3.784349182440550E-04;4.103312954067501E-01;7.241728549615821E-01;-4.513003797314138E-03;3.784349182440550E-04;4.103312954067501E-01;7.241728549615821E-01;
5.225225225225225E+07;-4.324779738538848E-03;5.432396070668066E-04;4.027517885103821E-01;7.354529318987274E-01;-4.324779738538848E-03;5.432396070668066E-04;4.027517885103821E-01;7.354529318987274E-01;
5.250250250250250E+07;-4.122320726607207E-03;6.911683883669988E-04;3.971689399486314E-01;7.470027308102527E-01;-4.122320726607207E-03;6.911683883669988E-04;3.971689399486314E-01;7.470027308102527E-01;
5.275275275275275E+07;-3.914579246852316E-03;7.935191418587095E-04;3.930981439367369E-01;7.582607815967795E-01;-3.914579246852316E-03;7.935191418587095E-04;3.930981439367369E-01;7.582607815967795E-01;
5.300300300300300E+07;-3.733714309938927E-03;8.789403463256444E-04;3.906008129302269E-01;7.686549090017861E-01;-3.733714309938927E-03;8.789403463256444E-04;3.906008129302269E-01;7.686549090017861E-01;
5.325325325325325E+07;-3.530871654719558E-03;9.538498884780928E-04;3.887964597746304E-01;7.783396511371588E-01;-3.530871654719558E-03;9.538498884780928E-04;3.887964597746304E-01;7.783396511371588E-01;
5.350350350350350E+07;-3.333967032105489E-03;9.778398870775014E-04;3.878111096665018E-01;7.867608365765999E-01;-3.333967032105489E-03;9.778398870775014E-04;3.878111096665018E-01;7.867608365765999E-01;
5.375375375375375E+07;-3.150162212762804E-03;9.891398322490006E-04;3.872677549020112E-01;7.941686188314059E-01;-3.150162212762804E-03;9.891398322490006E-04;3.872677549020112E-01;7.941686188314059E-01;
5.400400400400400E+07;-3.001328719568289E-03;9.898493528001221E-04;3.867385926202407E-01;8.009904598097829E-01;-3.001328719568289E-03;9.898493528001221E-04;3.867385926202407E-01;8.009904598097829E-01;
5.425425425425425E+07;-2.863578888437824E-03;9.731784439412527E-04;3.867315179910769E-01;8.067554141462910E-01;-2.863578888437824E-03;9.731784439412527E-04;3.867315179910769E-01;8.067554141462910E-01;
5.450450450450450E+07;-2.734923893499682E-03;9.665146951712987E-04;3.863987911072136E-01;8.118329673080920E-01;-2.734923893499682E-03;9.665146951712987E-04;3.863987911072136E-01;8.118329673080920E-01;
5.475475475475475E+07;-2.588452892296235E-03;9.302016708220724E-04;3.860665259459027E-01;8.162992854398011E-01;-2.588452892296235E-03;9.302016708220724E-04;3.860665259459027E-01;8.162992854398011E-01;
5.500500500500500E+07;-2.492634934462902E-03;9.185735308809013E-04;3.856990727207400E-01;8.203713573206978E-01;-2.492634934462902E-03;9.185735308809013E-04;3.856990727207400E-01;8.203713573206978E-01;
5.525525525525525E+07;-2.397694212502070E-03;8.775081337602201E-04;3.850260231279996E-01;8.239505737098367E-01;-2.397694212502070E-03;8.775081337602201E-04;3.850260231279996E-01;8.239505737098367E-01;
5.550550550550550E+07;-2.321783415067758E-03;8.235775544901843E-04;3.848094299490778E-01;8.270314035611516E-01;-2.321783415067758E-03;8.235775544901843E-04;3.848094299490778E-01;8.270314035611516E-01;
5.575575575575575E+07;-2.241839178307220E-03;8.212867683002221E-04;3.839506180299815E-01;8.297145611616453E-01;-2.241839178307220E-03;8.212867683002221E-04;3.839506180299815E-01;8.297145611616453E-01;
5.600600600600600E+07;-2.166610360172436E-03;7.655942184165440E-04;3.830388574048632E-01;8.320190609735737E-01;-2.166610360172436E-03;7.655942184165440E-04;3.830388574048632E-01;8.320190609735737E-01;
5.625625625625625E+07;-2.102830461541531E-03;7.263569492335915E-04;3.820916720339169E-01;8.341520619497723E-01;-2.102830461541531E-03;7.263569492335915E-04;3.820916720339169E-01;8.341520619497723E-01;
5.650650650650650E+07;-2.046625190736546E-03;6.699033964742443E-04;3.808742611993092E-01;8.356794334287151E-01;-2.046625190736546E-03;6.699033964742443E-04;3.808742611993092E-01;8.356794334287151E-01;
5.675675675675675E+07;-1.993216342405274E-03;6.471783735056166E-04;3.796097044682012E-01;8.370655750804025E-01;-1.993216342405274E-03;6.471783735056166E-04;3.796097044682012E-01;8.370655750804025E-01;
5.700700700700700E+07;-1.948762428783211E-03;5.936623813458031E-04;3.780946276620966E-01;8.382700360801030E-01;-1.948762428783211E-03;5.936623813458031E-04;3.780946276620966E-01;8.382700360801030E-01;
5.725725725725726E+07;-1.908945753858818E-03;5.602273654194488E-04;3.764663535919472E-01;8.392759682912185E-01;-1.908945753858818E-03;5.602273654194488E-04;3.764663535919472E-01;8.392759682912185E-01;
5.750750750750751E+07;-1.869354680628355E-03;5.222293977064326E-04;3.745832195885333E-01;8.404048716270863E-01;-1.869354680628355E-03;5.222293977064326E-04;3.745832195885333E-01;8.404048716270863E-01;
5.775775775775776E+07;-1.836249979086372E-03;4.861395319295005E-04;3.727068973307047E-01;8.411143465431491E-01;-1.836249979086372E-03;4.861395319295005E-04;3.727068973307047E-01;8.411143465431491E-01;
5.800800800800801E+07;-1.815762893757406E-03;4.368656218022289E-04;3.767498274534277E-01;8.387584706396460E-01;-1.815762893757406E-03;4.368656218022289E-04;3.767498274534277E-01;8.387584706396460E-01;
5.825825825825826E+07;-1.777612634522855E-03;4.077337957565486E-04;3.749556637367623E-01;8.392536175793602E-01;-1.777612634522855E-03;4.077337957565486E-04;3.749556637367623E-01;8.392536175793602E-01;
5.850850850850851E+07;-1.739460734727145E-03;3.693500176420299E-04;3.728046745533395E-01;8.395242843459134E-01;-1.739460734727145E-03;3.693500176420299E-04;3.728046745533395E-01;8.395242843459134E-01;
5.875875875875876E+07;-1.729312728588137E-03;3.306134638270880E-04;3.708038957775087E-01;8.391967246161607E-01;-1.729312728588137E-03;3.306134638270880E-04;3.708038957775087E-01;8.391967246161607E-01;
5.900900900900901E+07;-1.696691622427796E-03;2.839150884157572E-04;3.685912151304561E-01;8.387308380697820E-01;-1.696691622427796E-03;2.839150884157572E-04;3.685912151304561E-01;8.387308380697820E-01;
5.925925925925926E+07;-1.687117938630682E-03;2.314118050856577E-04;3.658816450005291E-01;8.380157792060015E-01;-1.687117938630682E-03;2.314118050856577E-04;3.658816450005291E-01;8.380157792060015E-01;
5.950950950950951E+07;-1.681792535748174E-03;1.939649577729911E-04;3.628393467905533E-01;8.372384324582386E-01;-1.681792535748174E-03;1.939649577729911E-04;3.628393467905533E-01;8.372384324582386E-01;
5.975975975975976E+07;-1.691704308615919E-03;1.654424457512321E-04;3.592177589450551E-01;8.362991296465796E-01;-1.691704308615919E-03;1.654424457512321E-04;3.592177589450551E-01;8.362991296465796E-01;
6.001001001001001E+07;-1.682350570724425E-03;9.744864244142393E-05;3.549619959743975E-01;8.357431202003500E-01;-1.682350570724425E-03;9.744864244142393E-05;3.549619959743975E-01;8.357431202003500E-01;
6.026026026026026E+07;-1.688029959312455E-03;5.571308208559649E-05;3.505982689207374E-01;8.357648786222606E-01;-1.688029959312455E-03;5.571308208559649E-05;3.505982689207374E-01;8.357648786222606E-01;
6.051051051051051E+07;-1.708507447685586E-03;3.800678202868960E-05;3.458925301545916E-01;8.366477251682211E-01;-1.708507447685586E-03;3.800678202868960E-05;3.458925301545916E-01;8.366477251682211E-01;
6.076076076076076E+07;-1.723435902921904E-03;1.165107296083875E-05;3.413184746757888E-01;8.382052777597031E-01;-1.723435902921904E-03;1.165107296083875E-05;3.413184746757888E-01;8.382052777597031E-01;
6.101101101101101E+07;-1.749054785755134E-03;-9.791691075429234E-06;3.373630767021514E-01;8.404332610546387E-01;-1.749054785755134E-03;-9.791691075429234E-06;3.373630767021514E-01;8.404332610546387E-01;
6.126126126126126E+07;-1.751725777737022E-03;-2.625994037559999E-05;3.341323631926115E-01;8.429568600699098E-01;-1.751725777737022E-03;-2.625994037559999E-05;3.341323631926115E-01;8.429568600699098E-01;
6.151151151151151E+07;-1.766448448359278E-03;-3.512875524944406E-05;3.316655172806919E-01;8.454416822293449E-01;-1.766448448359278E-03;-3.512875524944406E-05;3.316655172806919E-01;8.454416822293449E-01;
6.176176176176176E+07;-1.755031457987650E-03;-3.647406336759485E-05;3.299711671993747E-01;8.478014040186650E-01;-1.755031457987650E-03;-3.647406336759485E-05;3.299711671993747E-01;8.478014040186650E-01;
6.201201201201201E+07;-1.750192836338214E-03;-6.118395545650568E-05;3.283759683081887E-01;8.498129858611826E-01;-1.750192836338214E-03;-6.118395545650568E-05;3.283759683081887E-01;8.498129858611826E-01;
6.226226226226226E+07;-1.760949071192608E-03;-6.999129310849178E-05;3.272918848788993E-01;8.515664815872419E-01;-1.760949071192608E-03;-6.999129310849178E-05;3.272918848788993E-01;8.515664815872419E-01;
6.251251251251251E+07;-1.774469219728628E-03;-7.352830151855244E-05;3.264555120241718E-01;8.529433975036440E-01;-1.774469219728628E-03;-7.352830151855244E-05;3.264555120241718E-01;8.529433975036440E-01;
6.276276276276276E+07;-1.742021698224988E-03;-9.004615750891315E-05;3.258056296616892E-01;8.540769383616351E-01;-1.742021698224988E-03;-9.004615750891315E-05;3.258056296616892E-01;8.540769383616351E-01;
6.301301301301301E+07;-1.745299509896894E-03;-1.242862977256142E-04;3.251649630088663E-01;8.549359991498988E-01;-1.745299509896894E-03;-1.242862977256142E-04;3.251649630088663E-01;8.549359991498988E-01;
6.326326326326326E+07;-1.729072891568979E-03;-1.451196061341134E-04;3.246722505369359E-01;8.556736067855540E-01;-1.729072891568979E-03;-1.451196061341134E-04;3.246722505369359E-01;8.556736067855540E-01;
6.351351351351351E+07;-1.748211175053785E-03;-1.478614467118728E-04;3.242343267727330E-01;8.561623794708556E-01;-1.748211175053785E-03;-1.478614467118728E-04;3.242343267727330E-01;8.561623794708556E-01;
6.376376376376376E+07;-1.728653398068719E-03;-1.760088379025437E-04;3.237183581303317E-01;8.566021054582728E-01;-1.728653398068719E-03;-1.760088379025437E-04;3.237183581303317E-01;8.566021054582728E-01;
6.401401401401401E+07;-1.733905557063754E-03;-2.047503407759429E-04;3.233910476753587E-01;8.567887109228532E-01;-1.733905557063754E-03;-2.047503407759429E-04;3.233910476753587E-01;8.567887109228532E-01;
6.426426426426426E+07;-1.741650525434110E-03;-2.134648019738578E-04;3.232012959627883E-01;8.568796296417833E-01;-1.741650525434110E-03;-2.134648019738578E-04;3.232012959627883E-01;8.568796296417833E-01;
6.451451451451451E+07;-1.730054356523773E-03;-2.366433694670099E-04;3.230376841960372E-01;8.570417544482890E-01;-1.730054356523773E-03;-2.366433694670099E-04;3.230376841960372E-01;8.570417544482890E-01;
6.476476476476476E+07;-1.737631838387275E-03;-2.722789020406715E-04;3.230655595526375E-01;8.569630911299377E-01;-1.737631838387275E-03;-2.722789020406715E-04;3.230655595526375E-01;8.569630911299377E-01;
6.501501501501501E+07;-1.742967869511670E-03;-2.837926028239854E-04;3.230130466453082E-01;8.568627092640334E-01;-1.742967869511670E-03;-2.837926028239854E-04;3.230130466453082E-01;8.568627092640334E-01;
6.526526526526526E+07;-1.742473384730592E-03;-3.099468469912864E-04;3.231912988977306E-01;8.566015777450919E-01;-1.742473384730592E-03;-3.099468469912864E-04;3.231912988977306E-01;8.566015777450919E-01;
6.551551551551551E+07;-1.751998708399841E-03;-3.462979941612483E-04;3.235432571764238E-01;8.562715361511408E-01;-1.751998708399841E-03;-3.462979941612483E-04;3.235432571764238E-01;8.562715361511408E-01;
6.576576576576576E+07;-1.749597444087286E-03;-3.561522527509330E-04;3.160232765512277E-01;8.592247861507433E-01;-1.749597444087286E-03;-3.561522527509330E-04;3.160232765512277E-01;8.592247861507433E-01;
6.601601601601601E+07;-1.759681868012823E-03;-3.840818524784517E-04;3.164609310565406E-01;8.586270971477152E-01;-1.759681868012823E-03;-3.840818524784517E-04;3.164609310565406E-01;8.586270971477152E-01;
6.626626626626626E+07;-1.769295000020738E-03;-4.122222503711667E-04;3.167744140805679E-01;8.580041395853453E-01;-1.769295000020738E-03;-4.122222503711667E-04;3.167744140805679E-01;8.580041395853453E-01;
6.651651651651651E+07;-1.765566940125363E-03;-4.291104215633677E-04;3.170020892351804E-01;8.574576924640334E-01;-1.765566940125363E-03;-4.291104215633677E-04;3.170020892351804E-01;8.574576924640334E-01;
6.676676676676676E+07;-1.760666946421290E-03;-4.684025739224322E-04;3.172618154931488E-01;8.568586058528224E-01;-1.760666946421290E-03;-4.684025739224322E-04;3.172618154931488E-01;8.568586058528224E-01;
6.701701701701702E+07;-1.784108903264805E-03;-4.869681436945713E-04;3.186893719830928E-01;8.555409202057879E-01;-1.784108903264805E-03;-4.869681436945713E-04;3.186893719830928E-01;8.555409202057879E-01;
6.726726726726727E+07;-1.787498615157000E-03;-5.234614970738655E-04;3.192183681739967E-01;8.548310548645591E-01;-1.787498615157000E-03;-5.234614970738655E-04;3.192183681739967E-01;8.548310548645591E-01;
6.751751751751752E+07;-1.790387736074618E-03;-5.448450939221685E-04;3.197105144328731E-01;8.541655836549560E-01;-1.790387736074618E-03;-5.448450939221685E-04;3.197105144328731E-01;8.541655836549560E-01;
6.776776776776777E+07;-1.797469456106481E-03;-5.692315218848808E-04;3.202161866889582E-01;8.535128055144224E-01;-1.797469456106481E-03;-5.692315218848808E-04;3.202161866889582E-01;8.535128055144224E-01;
6.801801801801802E+07;-1.818686192868338E-03;-6.020358753036729E-04;3.206019727293349E-01;8.530414639027488E-01;-1.818686192868338E-03;-6.020358753036729E-04;3.206019727293349E-01;8.530414639027488E-01;
6.826826826826827E+07;-1.829589518611346E-03;-6.491797677056897E-04;3.213727051318245E-01;8.523884127343156E-01;-1.829589518611346E-03;-6.491797677056897E-04;3.213727051318245E-01;8.523884127343156E-01;
6.851851851851852E+07;-1.833545884168998E-03;-6.642947070743948E-04;3.226812847074830E-01;8.514976168362173E-01;-1.833545884168998E-03;-6.642947070743948E-04;3.226812847074830E-01;8.514976168362173E-01;
6.876876876876877E+07;-1.844190832054335E-03;-7.147302798268397E-04;3.288699397273635E-01;8.493155086906130E-01;-1.844190832054335E-03;-7.147302798268397E-04;3.288699397273635E-01;8.493155086906130E-01;
6.901901901901902E+07;-1.865251002878959E-03;-7.647119698925411E-04;3.315641319039844E-01;8.475163870450459E-01;-1.865251002878959E-03;-7.647119698925411E-04;3.315641319039844E-01;8.475163870450459E-01;
6.926926926926927E+07;-1.863536076627930E-03;-7.951823572562621E-04;3.348434484160592E-01;8.453346055205267E-01;-1.863536076627930E-03;-7.951823572562621E-04;3.348434484160592E-01;8.453346055205267E-01;
6.951951951951952E+07;-1.883898436385438E-03;-8.265444441421132E-04;3.382699887553167E-01;8.428312731564563E-01;-1.883898436385438E-03;-8.265444441421132E-04;3.382699887553167E-01;8.428312731564563E-01;
6.976976976976977E+07;-1.900181839832085E-03;-8.854275414910201E-04;3.416741447647897E-01;8.401889306978144E-01;-1.900181839832085E-03;-8.854275414910201E-04;3.416741447647897E-01;8.401889306978144E-01;
7.002002002002002E+07;-1.905994221937929E-03;-9.232257222145865E-04;3.449355673996499E-01;8.376195317082836E-01;-1.905994221937929E-03;-9.232257222145865E-04;3.449355673996499E-01;8.376195317082836E-01;
7.027027027027027E+07;-1.921075410311561E-03;-9.555053314970387E-04;3.479940631697570E-01;8.351512411198244E-01;-1.921075410311561E-03;-9.555053314970387E-04;3.479940631697570E-01;8.351512411198244E-01;
7.052052052052052E+07;-1.929287683327275E-03;-1.002231887399115E-03;3.510860905891183E-01;8.327421520650549E-01;-1.929287683327275E-03;-1.002231887399115E-03;3.510860905891183E-01;8.327421520650549E-01;
7.077077077077077E+07;-1.962336882446973E-03;-1.039459240821702E-03;3.541301789931164E-01;8.301454914712786E-01;-1.962336882446973E-03;-1.039459240821702E-03;3.541301789931164E-01;8.301454914712786E-01;
7.102102102102102E+07;-1.973121830613246E-03;-1.073879966899174E-03;3.572552540773725E-01;8.276029442172507E-01;-1.973121830613246E-03;-1.073879966899174E-03;3.572552540773725E-01;8.276029442172507E-01;
7.127127127127127E+07;-2.011894885083962E-03;-1.114931015541598E-03;3.605025414056194E-01;8.250215657229366E-01;-2.011894885083962E-03;-1.114931015541598E-03;3.605025414056194E-01;8.250215657229366E-01;
7.152152152152152E+07;-2.027904935490880E-03;-1.157274891209112E-03;3.637754798023084E-01;8.223847189637975E-01;-2.027904935490880E-03;-1.157274891209112E-03;3.637754798023084E-01;8.223847189637975E-01;
7.177177177177177E+07;-2.063476624391609E-03;-1.192471235134685E-03;3.669626520248563E-01;8.198232990324360E-01;-2.063476624391609E-03;-1.192471235134685E-03;3.669626520248563E-01;8.198232990324360E-01;
7.202202202202202E+07;-2.080084411826113E-03;-1.250432757508106E-03;3.702653297428117E-01;8.170281638543392E-01;-2.080084411826113E-03;-1.250432757508106E-03;3.702653297428117E-01;8.170281638543392E-01;
7.227227227227227E+07;-2.110887209775200E-03;-1.300737018558025E-03;3.740975444777905E-01;8.139409741907668E-01;-2.110887209775200E-03;-1.300737018558025E-03;3.740975444777905E-01;8.139409741907668E-01;
7.252252252252252E+07;-2.129689177796345E-03;-1.349466698770071E-03;3.783023039575587E-01;8.106594759414670E-01;-2.129689177796345E-03;-1.349466698770071E-03;3.783023039575587E-01;8.106594759414670E-01;
7.277277277277277E+07;-2.162177355802783E-03;-1.408020793134067E-03;3.831074087773395E-01;8.067718643028691E-01;-2.162177355802783E-03;-1.408020793134067E-03;3.831074087773395E-01;8.067718643028691E-01;
7.302302302302302E+07;-2.189433559179599E-03;-1.462828869084418E-03;3.885562029786228E-01;8.025920452430017E-01;-2.189433559179599E-03;-1.462828869084418E-03;3.885562029786228E-01;8.025920452430017E-01;
7.327327327327327E+07;-2.231011865056432E-03;-1.532912864243298E-03;3.945067211760435E-01;7.978739278820305E-01;-2.231011865056432E-03;-1.532912864243298E-03;3.945067211760435E-01;7.978739278820305E-01;
7.352352352352352E+07;-2.255619923052859E-03;-1.604082743111972E-03;4.007707254325533E-01;7.928632396802759E-01;-2.255619923052859E-03;-1.604082743111972E-03;4.007707254325533E-01;7.928632396802759E-01;
7.377377377377377E+07;-2.298305093879630E-03;-1.658168828252424E-03;4.072173663076618E-01;7.877951309001122E-01;-2.298305093879630E-03;-1.658168828252424E-03;4.072173663076618E-01;7.877951309001122E-01;
7.402402402402402E+07;-2.349075025331821E-03;-1.718688894428251E-03;4.137113753847241E-01;7.824176587674296E-01;-2.349075025331821E-03;-1.718688894428251E-03;4.137113753847241E-01;7.824176587674296E-01;
