# Version 1.00
#
# Ref Impedances: Z01: 50, Z02: 50
# 
freq[Hz];re:ZMag1_S12;im:ZMag1_S12;re:SMag1_S11;im:SMag1_S11;re:ZPh1_S12;im:ZPh1_S12;re:SPh1_S11;im:SPh1_S11;
5.000000000000000E+07;-3.651418701990295E-04;-7.350354388617885E-03;5.101140483104650E-01;7.407434376271099E-01;-3.651418701990295E-04;-7.350354388617885E-03;5.101140483104650E-01;7.407434376271099E-01;
5.025025025025025E+07;-2.569835877844795E-03;-8.199497731890007E-03;4.908688659987330E-01;7.231984597354802E-01;-2.569835877844795E-03;-8.199497731890007E-03;4.908688659987330E-01;7.231984597354802E-01;
5.050050050050050E+07;-5.554557166566844E-03;-7.526406453714302E-03;4.547237896104177E-01;7.147012602716956E-01;-5.554557166566844E-03;-7.526406453714302E-03;4.547237896104177E-01;7.147012602716956E-01;
5.075075075075075E+07;-7.601447944165698E-03;-4.918841170210929E-03;4.146019224119185E-01;7.310762665536977E-01;-7.601447944165698E-03;-4.918841170210929E-03;4.146019224119185E-01;7.310762665536977E-01;
5.100100100100100E+07;-7.555733875404399E-03;-2.080954609096595E-03;3.925668152224520E-01;7.626445641318574E-01;-7.555733875404399E-03;-2.080954609096595E-03;3.925668152224520E-01;7.626445641318574E-01;
5.125125125125125E+07;-6.458049956043277E-03;-2.993321456771567E-04;3.874160383228179E-01;7.906109206949852E-01;-6.458049956043277E-03;-2.993321456771567E-04;3.874160383228179E-01;7.906109206949852E-01;
5.150150150150150E+07;-5.283687204163417E-03;5.463604082478011E-04;3.888247935474540E-01;8.093816524650429E-01;-5.283687204163417E-03;5.463604082478011E-04;3.888247935474540E-01;8.093816524650429E-01;
5.175175175175175E+07;-4.348652785187633E-03;9.219818098794246E-04;3.912030842902481E-01;8.219583628596629E-01;-4.348652785187633E-03;9.219818098794246E-04;3.912030842902481E-01;8.219583628596629E-01;
5.200200200200200E+07;-3.629742549768915E-03;1.020571089982147E-03;3.928123960260279E-01;8.302547228048700E-01;-3.629742549768915E-03;1.020571089982147E-03;3.928123960260279E-01;8.302547228048700E-01;
5.225225225225225E+07;-3.070612546232191E-03;1.034862374300489E-03;3.932582961878059E-01;8.366864656984112E-01;-3.070612546232191E-03;1.034862374300489E-03;3.932582961878059E-01;8.366864656984112E-01;
5.250250250250250E+07;-2.658432170532457E-03;9.844890533018884E-04;3.926081042737221E-01;8.414325218902778E-01;-2.658432170532457E-03;9.844890533018884E-04;3.926081042737221E-01;8.414325218902778E-01;
5.275275275275275E+07;-2.336857361061750E-03;9.324674569479739E-04;3.909808767794503E-01;8.455412077430233E-01;-2.336857361061750E-03;9.324674569479739E-04;3.909808767794503E-01;8.455412077430233E-01;
5.300300300300300E+07;-2.079096093070133E-03;8.641508039461582E-04;3.888873341016693E-01;8.490300252505320E-01;-2.079096093070133E-03;8.641508039461582E-04;3.888873341016693E-01;8.490300252505320E-01;
5.325325325325325E+07;-1.874764162318780E-03;7.825415896261622E-04;3.861670185725791E-01;8.521385242814911E-01;-1.874764162318780E-03;7.825415896261622E-04;3.861670185725791E-01;8.521385242814911E-01;
5.350350350350350E+07;-1.722510043489185E-03;7.331337812698550E-04;3.831359270594120E-01;8.549362897235772E-01;-1.722510043489185E-03;7.331337812698550E-04;3.831359270594120E-01;8.549362897235772E-01;
5.375375375375375E+07;-1.586039078129111E-03;6.598904374623598E-04;3.795402409624097E-01;8.575735710112113E-01;-1.586039078129111E-03;6.598904374623598E-04;3.795402409624097E-01;8.575735710112113E-01;
5.400400400400400E+07;-1.460053271550896E-03;6.252303214490400E-04;3.757182369060859E-01;8.601783870503948E-01;-1.460053271550896E-03;6.252303214490400E-04;3.757182369060859E-01;8.601783870503948E-01;
5.425425425425425E+07;-1.367903997131011E-03;5.598069470602350E-04;3.718200316716578E-01;8.624642373164225E-01;-1.367903997131011E-03;5.598069470602350E-04;3.718200316716578E-01;8.624642373164225E-01;
5.450450450450450E+07;-1.273290163841216E-03;5.130306081263187E-04;3.676413666777217E-01;8.648335680393617E-01;-1.273290163841216E-03;5.130306081263187E-04;3.676413666777217E-01;8.648335680393617E-01;
5.475475475475475E+07;-1.207533078114272E-03;4.755857153690198E-04;3.633094395043340E-01;8.670539160283139E-01;-1.207533078114272E-03;4.755857153690198E-04;3.633094395043340E-01;8.670539160283139E-01;
5.500500500500500E+07;-1.140057277375378E-03;4.321161051941909E-04;3.586053505536102E-01;8.692433334424657E-01;-1.140057277375378E-03;4.321161051941909E-04;3.586053505536102E-01;8.692433334424657E-01;
5.525525525525525E+07;-1.092707386418686E-03;4.068850933999193E-04;3.539093903910920E-01;8.714052780905827E-01;-1.092707386418686E-03;4.068850933999193E-04;3.539093903910920E-01;8.714052780905827E-01;
5.550550550550550E+07;-1.042468547248707E-03;3.643661832167707E-04;3.492225459411569E-01;8.734072406009294E-01;-1.042468547248707E-03;3.643661832167707E-04;3.492225459411569E-01;8.734072406009294E-01;
5.575575575575575E+07;-9.944500426749701E-04;3.459695616912961E-04;3.444702993703987E-01;8.753304378719570E-01;-9.944500426749701E-04;3.459695616912961E-04;3.444702993703987E-01;8.753304378719570E-01;
5.600600600600600E+07;-9.605164988989800E-04;3.048067580445540E-04;3.396416178029215E-01;8.771611893856657E-01;-9.605164988989800E-04;3.048067580445540E-04;3.396416178029215E-01;8.771611893856657E-01;
5.625625625625625E+07;-9.187420443650281E-04;2.852742305155642E-04;3.346601228203865E-01;8.791620534583222E-01;-9.187420443650281E-04;2.852742305155642E-04;3.346601228203865E-01;8.791620534583222E-01;
5.650650650650650E+07;-8.833734791401689E-04;2.719653321109811E-04;3.296383386127421E-01;8.810595845471068E-01;-8.833734791401689E-04;2.719653321109811E-04;3.296383386127421E-01;8.810595845471068E-01;
5.675675675675675E+07;-8.556006069481277E-04;2.361240925610916E-04;3.246438128108723E-01;8.826910223802220E-01;-8.556006069481277E-04;2.361240925610916E-04;3.246438128108723E-01;8.826910223802220E-01;
5.700700700700700E+07;-8.277750084847180E-04;2.187464835910386E-04;3.196684400005682E-01;8.844141651078545E-01;-8.277750084847180E-04;2.187464835910386E-04;3.196684400005682E-01;8.844141651078545E-01;
5.725725725725726E+07;-8.052527980783479E-04;2.028907069146548E-04;3.146513581132444E-01;8.861752204702203E-01;-8.052527980783479E-04;2.028907069146548E-04;3.146513581132444E-01;8.861752204702203E-01;
5.750750750750751E+07;-7.816552226220465E-04;1.861561524706081E-04;3.095809351707869E-01;8.877975068655429E-01;-7.816552226220465E-04;1.861561524706081E-04;3.095809351707869E-01;8.877975068655429E-01;
5.775775775775776E+07;-7.729055838268706E-04;1.635900201811937E-04;3.045536929624754E-01;8.894638460415215E-01;-7.729055838268706E-04;1.635900201811937E-04;3.045536929624754E-01;8.894638460415215E-01;
5.800800800800801E+07;-7.447074306389438E-04;1.381291152850790E-04;3.061663265270008E-01;8.883422965910112E-01;-7.447074306389438E-04;1.381291152850790E-04;3.061663265270008E-01;8.883422965910112E-01;
5.825825825825826E+07;-7.317667649009416E-04;1.193516083872711E-04;3.013049945794164E-01;8.897954482563284E-01;-7.317667649009416E-04;1.193516083872711E-04;3.013049945794164E-01;8.897954482563284E-01;
5.850850850850851E+07;-7.138424464342650E-04;9.530821264039424E-05;2.961571287605265E-01;8.910903479333890E-01;-7.138424464342650E-04;9.530821264039424E-05;2.961571287605265E-01;8.910903479333890E-01;
5.875875875875876E+07;-7.094235642763955E-04;8.886249256427782E-05;2.911446806245135E-01;8.922726525773801E-01;-7.094235642763955E-04;8.886249256427782E-05;2.911446806245135E-01;8.922726525773801E-01;
5.900900900900901E+07;-6.822182219207665E-04;7.845849740241654E-05;2.861347705519086E-01;8.933280041595635E-01;-6.822182219207665E-04;7.845849740241654E-05;2.861347705519086E-01;8.933280041595635E-01;
5.925925925925926E+07;-6.718623744366798E-04;5.949537845258971E-05;2.809890919281301E-01;8.944714856776034E-01;-6.718623744366798E-04;5.949537845258971E-05;2.809890919281301E-01;8.944714856776034E-01;
5.950950950950951E+07;-6.700087317092817E-04;4.739150193567742E-05;2.757511847510172E-01;8.956443914532186E-01;-6.700087317092817E-04;4.739150193567742E-05;2.757511847510172E-01;8.956443914532186E-01;
5.975975975975976E+07;-6.738239565654236E-04;2.987419175051933E-05;2.705422560628947E-01;8.969157809832545E-01;-6.738239565654236E-04;2.987419175051933E-05;2.705422560628947E-01;8.969157809832545E-01;
6.001001001001001E+07;-6.619561191337367E-04;2.380197043654929E-05;2.654673620628112E-01;8.980106575260852E-01;-6.619561191337367E-04;2.380197043654929E-05;2.654673620628112E-01;8.980106575260852E-01;
6.026026026026026E+07;-6.461884865026375E-04;-2.281224191170721E-06;2.603598882631524E-01;8.994557961650190E-01;-6.461884865026375E-04;-2.281224191170721E-06;2.603598882631524E-01;8.994557961650190E-01;
6.051051051051051E+07;-6.397713907727469E-04;8.870149703085997E-06;2.556068636522137E-01;9.007763706632728E-01;-6.397713907727469E-04;8.870149703085997E-06;2.556068636522137E-01;9.007763706632728E-01;
6.076076076076076E+07;-6.296726589199430E-04;-5.605114613360325E-06;2.508694325584243E-01;9.020185169238905E-01;-6.296726589199430E-04;-5.605114613360325E-06;2.508694325584243E-01;9.020185169238905E-01;
6.101101101101101E+07;-6.156392894497623E-04;-4.582105357974488E-06;2.461648856856181E-01;9.032540178034882E-01;-6.156392894497623E-04;-4.582105357974488E-06;2.461648856856181E-01;9.032540178034882E-01;
6.126126126126126E+07;-6.052071595921385E-04;-2.437163634860234E-05;2.416644298439309E-01;9.045738126278489E-01;-6.052071595921385E-04;-2.437163634860234E-05;2.416644298439309E-01;9.045738126278489E-01;
6.151151151151151E+07;-5.909091048959599E-04;-3.673587785434978E-05;2.371473788623203E-01;9.056319583633912E-01;-5.909091048959599E-04;-3.673587785434978E-05;2.371473788623203E-01;9.056319583633912E-01;
6.176176176176176E+07;-5.925027039487335E-04;-3.578511338040276E-05;2.325759695858688E-01;9.065856994284551E-01;-5.925027039487335E-04;-3.578511338040276E-05;2.325759695858688E-01;9.065856994284551E-01;
6.201201201201201E+07;-5.812446485627682E-04;-4.847832800012598E-05;2.283768952648537E-01;9.076704785683497E-01;-5.812446485627682E-04;-4.847832800012598E-05;2.283768952648537E-01;9.076704785683497E-01;
6.226226226226226E+07;-5.699352765902370E-04;-5.301185785966763E-05;2.238863630468189E-01;9.085093429021766E-01;-5.699352765902370E-04;-5.301185785966763E-05;2.238863630468189E-01;9.085093429021766E-01;
6.251251251251251E+07;-5.650439563452009E-04;-4.756999020387204E-05;2.195687312161349E-01;9.096127637985393E-01;-5.650439563452009E-04;-4.756999020387204E-05;2.195687312161349E-01;9.096127637985393E-01;
6.276276276276276E+07;-5.651585109577406E-04;-7.120960856263444E-05;2.153225364013566E-01;9.103798450382798E-01;-5.651585109577406E-04;-7.120960856263444E-05;2.153225364013566E-01;9.103798450382798E-01;
6.301301301301301E+07;-5.441148280950467E-04;-7.949244734023429E-05;2.108527386056539E-01;9.112230277099380E-01;-5.441148280950467E-04;-7.949244734023429E-05;2.108527386056539E-01;9.112230277099380E-01;
6.326326326326326E+07;-5.459268724449783E-04;-8.496471130855136E-05;2.068155039866295E-01;9.120554826931906E-01;-5.459268724449783E-04;-8.496471130855136E-05;2.068155039866295E-01;9.120554826931906E-01;
6.351351351351351E+07;-5.429403623640670E-04;-9.915572653586049E-05;2.027329458384097E-01;9.127429567920377E-01;-5.429403623640670E-04;-9.915572653586049E-05;2.027329458384097E-01;9.127429567920377E-01;
6.376376376376376E+07;-5.435046804791206E-04;-1.110538205037186E-04;1.985947367490372E-01;9.134584604728982E-01;-5.435046804791206E-04;-1.110538205037186E-04;1.985947367490372E-01;9.134584604728982E-01;
6.401401401401401E+07;-5.271393200525595E-04;-1.096276359217337E-04;1.945187779487205E-01;9.142290088734664E-01;-5.271393200525595E-04;-1.096276359217337E-04;1.945187779487205E-01;9.142290088734664E-01;
6.426426426426426E+07;-5.248325210379053E-04;-1.275177443226890E-04;1.904964717264324E-01;9.149128807667049E-01;-5.248325210379053E-04;-1.275177443226890E-04;1.904964717264324E-01;9.149128807667049E-01;
6.451451451451451E+07;-5.280591409149159E-04;-1.238328676929022E-04;1.866326080373402E-01;9.154756137369788E-01;-5.280591409149159E-04;-1.238328676929022E-04;1.866326080373402E-01;9.154756137369788E-01;
6.476476476476476E+07;-5.015241649710460E-04;-1.241144841357800E-04;1.827597436922996E-01;9.161154289286810E-01;-5.015241649710460E-04;-1.241144841357800E-04;1.827597436922996E-01;9.161154289286810E-01;
6.501501501501501E+07;-4.953498238175440E-04;-1.464210202198385E-04;1.790464900132902E-01;9.166702265977864E-01;-4.953498238175440E-04;-1.464210202198385E-04;1.790464900132902E-01;9.166702265977864E-01;
6.526526526526526E+07;-4.944407759498097E-04;-1.496031147028730E-04;1.753496631575182E-01;9.171358310249336E-01;-4.944407759498097E-04;-1.496031147028730E-04;1.753496631575182E-01;9.171358310249336E-01;
6.551551551551551E+07;-5.003199125878539E-04;-1.475342814611524E-04;1.715941921770739E-01;9.176488213151981E-01;-5.003199125878539E-04;-1.475342814611524E-04;1.715941921770739E-01;9.176488213151981E-01;
6.576576576576576E+07;-4.882580792649063E-04;-1.508368057783209E-04;1.588519823656823E-01;9.199210053783009E-01;-4.882580792649063E-04;-1.508368057783209E-04;1.588519823656823E-01;9.199210053783009E-01;
6.601601601601601E+07;-4.887840383095268E-04;-1.690190005958315E-04;1.552435177747620E-01;9.202353683834916E-01;-4.887840383095268E-04;-1.690190005958315E-04;1.552435177747620E-01;9.202353683834916E-01;
6.626626626626626E+07;-4.773111089406688E-04;-1.770004431165200E-04;1.514935685952342E-01;9.206391623776323E-01;-4.773111089406688E-04;-1.770004431165200E-04;1.514935685952342E-01;9.206391623776323E-01;
6.651651651651651E+07;-4.737483878606337E-04;-1.819700853355907E-04;1.475972878761364E-01;9.210343523805349E-01;-4.737483878606337E-04;-1.819700853355907E-04;1.475972878761364E-01;9.210343523805349E-01;
6.676676676676676E+07;-4.702479824088091E-04;-1.938605790948973E-04;1.436128336664996E-01;9.214669483810336E-01;-4.702479824088091E-04;-1.938605790948973E-04;1.436128336664996E-01;9.214669483810336E-01;
6.701701701701702E+07;-4.718148752927750E-04;-2.089858877003534E-04;1.409657923190842E-01;9.213911013191609E-01;-4.718148752927750E-04;-2.089858877003534E-04;1.409657923190842E-01;9.213911013191609E-01;
6.726726726726727E+07;-4.598400138970874E-04;-2.100108332229683E-04;1.371990502256240E-01;9.218045888373377E-01;-4.598400138970874E-04;-2.100108332229683E-04;1.371990502256240E-01;9.218045888373377E-01;
6.751751751751752E+07;-4.671107263656794E-04;-2.086761317114285E-04;1.333247380468763E-01;9.221888184182221E-01;-4.671107263656794E-04;-2.086761317114285E-04;1.333247380468763E-01;9.221888184182221E-01;
6.776776776776777E+07;-4.450348337341656E-04;-2.109114205796403E-04;1.292661006272083E-01;9.226937266471171E-01;-4.450348337341656E-04;-2.109114205796403E-04;1.292661006272083E-01;9.226937266471171E-01;
6.801801801801802E+07;-4.458649649283812E-04;-2.245156805024616E-04;1.250865836116950E-01;9.231706104231067E-01;-4.458649649283812E-04;-2.245156805024616E-04;1.250865836116950E-01;9.231706104231067E-01;
6.826826826826827E+07;-4.358469582246643E-04;-2.482325366390902E-04;1.210585928658819E-01;9.236586598123275E-01;-4.358469582246643E-04;-2.482325366390902E-04;1.210585928658819E-01;9.236586598123275E-01;
6.851851851851852E+07;-4.414338027745370E-04;-2.457078108340693E-04;1.174589510938912E-01;9.239302904756728E-01;-4.414338027745370E-04;-2.457078108340693E-04;1.174589510938912E-01;9.239302904756728E-01;
6.876876876876877E+07;-4.409184687211094E-04;-2.495294154795273E-04;1.191170944948346E-01;9.243009149482730E-01;-4.409184687211094E-04;-2.495294154795273E-04;1.191170944948346E-01;9.243009149482730E-01;
6.901901901901902E+07;-4.291712782497908E-04;-2.819231644930968E-04;1.166469982543241E-01;9.241545078337182E-01;-4.291712782497908E-04;-2.819231644930968E-04;1.166469982543241E-01;9.241545078337182E-01;
6.926926926926927E+07;-4.149933198233675E-04;-2.778552344503085E-04;1.148199619090317E-01;9.238030907901139E-01;-4.149933198233675E-04;-2.778552344503085E-04;1.148199619090317E-01;9.238030907901139E-01;
6.951951951951952E+07;-4.151156440871194E-04;-2.761501397033202E-04;1.129745113756318E-01;9.233948794400144E-01;-4.151156440871194E-04;-2.761501397033202E-04;1.129745113756318E-01;9.233948794400144E-01;
6.976976976976977E+07;-4.109490192499183E-04;-2.894473094728396E-04;1.111460751115228E-01;9.229959623566988E-01;-4.109490192499183E-04;-2.894473094728396E-04;1.111460751115228E-01;9.229959623566988E-01;
7.002002002002002E+07;-4.045533728362844E-04;-3.020974159176407E-04;1.090540314172036E-01;9.226566055064542E-01;-4.045533728362844E-04;-3.020974159176407E-04;1.090540314172036E-01;9.226566055064542E-01;
7.027027027027027E+07;-4.034317455534702E-04;-3.164022793003700E-04;1.065906271758807E-01;9.224122093561861E-01;-4.034317455534702E-04;-3.164022793003700E-04;1.065906271758807E-01;9.224122093561861E-01;
7.052052052052052E+07;-3.959449723523597E-04;-3.113294321130963E-04;1.039839992459886E-01;9.223315400083903E-01;-3.959449723523597E-04;-3.113294321130963E-04;1.039839992459886E-01;9.223315400083903E-01;
7.077077077077077E+07;-3.941756184948042E-04;-3.331920356317375E-04;1.013011278310755E-01;9.222141340855435E-01;-3.941756184948042E-04;-3.331920356317375E-04;1.013011278310755E-01;9.222141340855435E-01;
7.102102102102102E+07;-3.918261225709707E-04;-3.459003563265243E-04;9.843381328582823E-02;9.222063202715703E-01;-3.918261225709707E-04;-3.459003563265243E-04;9.843381328582823E-02;9.222063202715703E-01;
7.127127127127127E+07;-4.006326225480859E-04;-3.481069657193300E-04;9.544264417482200E-02;9.221443874261210E-01;-4.006326225480859E-04;-3.481069657193300E-04;9.544264417482200E-02;9.221443874261210E-01;
7.152152152152152E+07;-3.806288810824593E-04;-3.603147081189289E-04;9.245540994837181E-02;9.221320631467405E-01;-3.806288810824593E-04;-3.603147081189289E-04;9.245540994837181E-02;9.221320631467405E-01;
7.177177177177177E+07;-3.947457723033055E-04;-3.709774975503325E-04;8.914548532345302E-02;9.222190713233730E-01;-3.947457723033055E-04;-3.709774975503325E-04;8.914548532345302E-02;9.222190713233730E-01;
7.202202202202202E+07;-3.746314231051256E-04;-3.911900333686519E-04;8.573256492810351E-02;9.223639552624207E-01;-3.746314231051256E-04;-3.911900333686519E-04;8.573256492810351E-02;9.223639552624207E-01;
7.227227227227227E+07;-3.723179931380950E-04;-3.786194272119222E-04;8.255539140267192E-02;9.225242899127617E-01;-3.723179931380950E-04;-3.786194272119222E-04;8.255539140267192E-02;9.225242899127617E-01;
7.252252252252252E+07;-3.617292181238040E-04;-3.940412649159138E-04;7.954010822272928E-02;9.224648285015996E-01;-3.617292181238040E-04;-3.940412649159138E-04;7.954010822272928E-02;9.224648285015996E-01;
7.277277277277277E+07;-3.602404065997509E-04;-4.047081051807508E-04;7.719915729653964E-02;9.223435565081815E-01;-3.602404065997509E-04;-4.047081051807508E-04;7.719915729653964E-02;9.223435565081815E-01;
7.302302302302302E+07;-3.548940546437989E-04;-4.285727695415169E-04;7.524477736004490E-02;9.220868830567556E-01;-3.548940546437989E-04;-4.285727695415169E-04;7.524477736004490E-02;9.220868830567556E-01;
7.327327327327327E+07;-3.435206075026078E-04;-4.437317451743698E-04;7.368168696689349E-02;9.217354105811822E-01;-3.435206075026078E-04;-4.437317451743698E-04;7.368168696689349E-02;9.217354105811822E-01;
7.352352352352352E+07;-3.426443767548643E-04;-4.370110340937084E-04;7.240145734866824E-02;9.211488534044961E-01;-3.426443767548643E-04;-4.370110340937084E-04;7.240145734866824E-02;9.211488534044961E-01;
7.377377377377377E+07;-3.448336775091770E-04;-4.739645455073391E-04;7.092938203664322E-02;9.208304196310247E-01;-3.448336775091770E-04;-4.739645455073391E-04;7.092938203664322E-02;9.208304196310247E-01;
7.402402402402402E+07;-3.404741494755529E-04;-4.711558733244413E-04;6.930917285138845E-02;9.204912684502892E-01;-3.404741494755529E-04;-4.711558733244413E-04;6.930917285138845E-02;9.204912684502892E-01;
