# Version 1.00
#
# Ref Impedances: Z01: 50, Z02: 50
# 
freq[Hz];re:SMag2_S11;im:SMag2_S11;re:ZPh2_S12;im:ZPh2_S12;re:SPh2_S11;im:SPh2_S11;re:ZMag2_S12;im:ZMag2_S12;
5.000000000000000E+07;4.313568402737321E-01;6.353693925566449E-01;-8.826830397129884E-03;-8.994702949991455E-04;4.313568402737321E-01;6.353693925566449E-01;-8.826830397129884E-03;-8.994702949991455E-04;
5.025025025025025E+07;4.371628944266980E-01;6.602509904664665E-01;-7.771304641790382E-03;4.209127277156900E-05;4.371628944266980E-01;6.602509904664665E-01;-7.771304641790382E-03;4.209127277156900E-05;
5.050050050050050E+07;4.436121731724684E-01;6.749818628289506E-01;-6.741530391693604E-03;4.915756427064391E-04;4.436121731724684E-01;6.749818628289506E-01;-6.741530391693604E-03;4.915756427064391E-04;
5.075075075075075E+07;4.471312458299557E-01;6.832365327130377E-01;-6.066905740658443E-03;5.687745462196677E-04;4.471312458299557E-01;6.832365327130377E-01;-6.066905740658443E-03;5.687745462196677E-04;
5.100100100100100E+07;4.464603895168779E-01;6.883562302686879E-01;-5.602178963442979E-03;5.995175865367505E-04;4.464603895168779E-01;6.883562302686879E-01;-5.602178963442979E-03;5.995175865367505E-04;
5.125125125125125E+07;4.424371363872881E-01;6.927806612196727E-01;-5.200546937450590E-03;6.047564928931660E-04;4.424371363872881E-01;6.927806612196727E-01;-5.200546937450590E-03;6.047564928931660E-04;
5.150150150150150E+07;4.353258378949554E-01;6.991602029420673E-01;-5.132031164150006E-03;6.068605685103296E-04;4.353258378949554E-01;6.991602029420673E-01;-5.132031164150006E-03;6.068605685103296E-04;
5.175175175175175E+07;4.277819863921232E-01;7.067531015716931E-01;-4.912947840599411E-03;6.294269630131785E-04;4.277819863921232E-01;7.067531015716931E-01;-4.912947840599411E-03;6.294269630131785E-04;
5.200200200200200E+07;4.205203388515875E-01;7.170223307081065E-01;-4.761773783313526E-03;8.496458510023409E-04;4.205203388515875E-01;7.170223307081065E-01;-4.761773783313526E-03;8.496458510023409E-04;
5.225225225225225E+07;4.152708554992579E-01;7.281920226632007E-01;-4.562356453377967E-03;9.237797181416873E-04;4.152708554992579E-01;7.281920226632007E-01;-4.562356453377967E-03;9.237797181416873E-04;
5.250250250250250E+07;4.117210964424883E-01;7.395114293729178E-01;-4.370474705500315E-03;1.023949360558894E-03;4.117210964424883E-01;7.395114293729178E-01;-4.370474705500315E-03;1.023949360558894E-03;
5.275275275275275E+07;4.096877417381575E-01;7.506751777442789E-01;-4.195030636742187E-03;1.155401873064529E-03;4.096877417381575E-01;7.506751777442789E-01;-4.195030636742187E-03;1.155401873064529E-03;
5.300300300300300E+07;4.087547084285711E-01;7.606607292741978E-01;-4.020619683969455E-03;1.225622321543885E-03;4.087547084285711E-01;7.606607292741978E-01;-4.020619683969455E-03;1.225622321543885E-03;
5.325325325325325E+07;4.087823333149748E-01;7.697209093821635E-01;-3.753851821052770E-03;1.280893351926311E-03;4.087823333149748E-01;7.697209093821635E-01;-3.753851821052770E-03;1.280893351926311E-03;
5.350350350350350E+07;4.092679730603623E-01;7.779248854302904E-01;-3.574540543789005E-03;1.304654227918796E-03;4.092679730603623E-01;7.779248854302904E-01;-3.574540543789005E-03;1.304654227918796E-03;
5.375375375375375E+07;4.100518032024537E-01;7.850967117984284E-01;-3.371841159305918E-03;1.283405101668601E-03;4.100518032024537E-01;7.850967117984284E-01;-3.371841159305918E-03;1.283405101668601E-03;
5.400400400400400E+07;4.108483070330837E-01;7.910583235716957E-01;-3.218317148543207E-03;1.239530043213766E-03;4.108483070330837E-01;7.910583235716957E-01;-3.218317148543207E-03;1.239530043213766E-03;
5.425425425425425E+07;4.119832096739586E-01;7.963345318281578E-01;-3.106499346257203E-03;1.208638905028403E-03;4.119832096739586E-01;7.963345318281578E-01;-3.106499346257203E-03;1.208638905028403E-03;
5.450450450450450E+07;4.127683744613028E-01;8.010799690736986E-01;-2.917951803405492E-03;1.192915521942605E-03;4.127683744613028E-01;8.010799690736986E-01;-2.917951803405492E-03;1.192915521942605E-03;
5.475475475475475E+07;4.134934227983084E-01;8.050985074601195E-01;-2.874474260882144E-03;1.113750082842022E-03;4.134934227983084E-01;8.050985074601195E-01;-2.874474260882144E-03;1.113750082842022E-03;
5.500500500500500E+07;4.140729586968886E-01;8.085022865600059E-01;-2.732211021134847E-03;1.107613827442252E-03;4.140729586968886E-01;8.085022865600059E-01;-2.732211021134847E-03;1.107613827442252E-03;
5.525525525525525E+07;4.143626492539701E-01;8.118982629393228E-01;-2.631961870147588E-03;1.104082982189122E-03;4.143626492539701E-01;8.118982629393228E-01;-2.631961870147588E-03;1.104082982189122E-03;
5.550550550550550E+07;4.144227649541404E-01;8.144745003443395E-01;-2.558550024502188E-03;1.079336688530690E-03;4.144227649541404E-01;8.144745003443395E-01;-2.558550024502188E-03;1.079336688530690E-03;
5.575575575575575E+07;4.147858937560062E-01;8.167725125347918E-01;-2.434551768635602E-03;1.000257094003261E-03;4.147858937560062E-01;8.167725125347918E-01;-2.434551768635602E-03;1.000257094003261E-03;
5.600600600600600E+07;4.146377787896546E-01;8.186270365721103E-01;-2.402751014318772E-03;9.544866556983042E-04;4.146377787896546E-01;8.186270365721103E-01;-2.402751014318772E-03;9.544866556983042E-04;
5.625625625625625E+07;4.144876225218999E-01;8.204583825601730E-01;-2.361646909122696E-03;9.647723030456722E-04;4.144876225218999E-01;8.204583825601730E-01;-2.361646909122696E-03;9.647723030456722E-04;
5.650650650650650E+07;4.140111001479296E-01;8.217169867655272E-01;-2.300158244585825E-03;8.991072474346346E-04;4.140111001479296E-01;8.217169867655272E-01;-2.300158244585825E-03;8.991072474346346E-04;
5.675675675675675E+07;4.133656683381903E-01;8.229466970573575E-01;-2.225481852628165E-03;8.449017246504121E-04;4.133656683381903E-01;8.229466970573575E-01;-2.225481852628165E-03;8.449017246504121E-04;
5.700700700700700E+07;4.126718186499050E-01;8.236662930756288E-01;-2.203648024036211E-03;7.869068435383775E-04;4.126718186499050E-01;8.236662930756288E-01;-2.203648024036211E-03;7.869068435383775E-04;
5.725725725725726E+07;4.117256846671132E-01;8.243611582284400E-01;-2.168722259068082E-03;7.623208315294924E-04;4.117256846671132E-01;8.243611582284400E-01;-2.168722259068082E-03;7.623208315294924E-04;
5.750750750750751E+07;4.106669645676151E-01;8.251627524348065E-01;-2.146087594801816E-03;7.017894427589801E-04;4.106669645676151E-01;8.251627524348065E-01;-2.146087594801816E-03;7.017894427589801E-04;
5.775775775775776E+07;4.094055804346058E-01;8.257306776647365E-01;-2.075024440030117E-03;6.541706046213984E-04;4.094055804346058E-01;8.257306776647365E-01;-2.075024440030117E-03;6.541706046213984E-04;
5.800800800800801E+07;4.083343920605413E-01;8.261648485263634E-01;-2.064014446733300E-03;5.913755934702188E-04;4.083343920605413E-01;8.261648485263634E-01;-2.064014446733300E-03;5.913755934702188E-04;
5.825825825825826E+07;4.068644631928781E-01;8.263533465865022E-01;-2.026205048457201E-03;5.316445617505310E-04;4.068644631928781E-01;8.263533465865022E-01;-2.026205048457201E-03;5.316445617505310E-04;
5.850850850850851E+07;4.055716538619014E-01;8.263782255429779E-01;-2.042973250519274E-03;5.506961703126256E-04;4.055716538619014E-01;8.263782255429779E-01;-2.042973250519274E-03;5.506961703126256E-04;
5.875875875875876E+07;4.044787756413357E-01;8.259759395302648E-01;-2.008484556539511E-03;4.788768984836487E-04;4.044787756413357E-01;8.259759395302648E-01;-2.008484556539511E-03;4.788768984836487E-04;
5.900900900900901E+07;4.028987780495563E-01;8.253227695778551E-01;-2.014807036973593E-03;4.249929109099799E-04;4.028987780495563E-01;8.253227695778551E-01;-2.014807036973593E-03;4.249929109099799E-04;
5.925925925925926E+07;4.009821248448842E-01;8.240058666192674E-01;-2.003491091087615E-03;3.673523262225756E-04;4.009821248448842E-01;8.240058666192674E-01;-2.003491091087615E-03;3.673523262225756E-04;
5.950950950950951E+07;3.987245703774178E-01;8.231870808833455E-01;-1.922916747236115E-03;3.666644181022803E-04;3.987245703774178E-01;8.231870808833455E-01;-1.922916747236115E-03;3.666644181022803E-04;
5.975975975975976E+07;3.961490728466303E-01;8.218507226323154E-01;-1.977883282920862E-03;3.009222014123196E-04;3.961490728466303E-01;8.218507226323154E-01;-1.977883282920862E-03;3.009222014123196E-04;
6.001001001001001E+07;3.927582163241424E-01;8.211073032698921E-01;-1.922897566639341E-03;2.842896656010554E-04;3.927582163241424E-01;8.211073032698921E-01;-1.922897566639341E-03;2.842896656010554E-04;
6.026026026026026E+07;3.892779334590815E-01;8.211048428689969E-01;-1.957678870511079E-03;1.950501576468842E-04;3.892779334590815E-01;8.211048428689969E-01;-1.957678870511079E-03;1.950501576468842E-04;
6.051051051051051E+07;3.856430653284331E-01;8.214060984174198E-01;-2.031162218916208E-03;1.385126069840379E-04;3.856430653284331E-01;8.214060984174198E-01;-2.031162218916208E-03;1.385126069840379E-04;
6.076076076076076E+07;3.824753779977518E-01;8.226856683689339E-01;-2.030953281715663E-03;1.218877528217241E-04;3.824753779977518E-01;8.226856683689339E-01;-2.030953281715663E-03;1.218877528217241E-04;
6.101101101101101E+07;3.795909157550176E-01;8.245201360026455E-01;-2.053584507574295E-03;1.311872582943225E-04;3.795909157550176E-01;8.245201360026455E-01;-2.053584507574295E-03;1.311872582943225E-04;
6.126126126126126E+07;3.776732010676949E-01;8.266045324518478E-01;-2.017288833688036E-03;9.238027242932662E-05;3.776732010676949E-01;8.266045324518478E-01;-2.017288833688036E-03;9.238027242932662E-05;
6.151151151151151E+07;3.763008074052462E-01;8.286029511796409E-01;-2.080961704223802E-03;7.619876344816477E-05;3.763008074052462E-01;8.286029511796409E-01;-2.080961704223802E-03;7.619876344816477E-05;
6.176176176176176E+07;3.757282450042831E-01;8.303310900976055E-01;-2.059686359299174E-03;9.256363798079333E-05;3.757282450042831E-01;8.303310900976055E-01;-2.059686359299174E-03;9.256363798079333E-05;
6.201201201201201E+07;3.753869493166455E-01;8.316757868511846E-01;-2.054298261501568E-03;2.970134021950157E-05;3.753869493166455E-01;8.316757868511846E-01;-2.054298261501568E-03;2.970134021950157E-05;
6.226226226226226E+07;3.755368994543583E-01;8.327985110432720E-01;-2.129068886027188E-03;3.708240932602995E-05;3.755368994543583E-01;8.327985110432720E-01;-2.129068886027188E-03;3.708240932602995E-05;
6.251251251251251E+07;3.759033402951580E-01;8.334252717044510E-01;-2.064483157854465E-03;2.328050358636221E-05;3.759033402951580E-01;8.334252717044510E-01;-2.064483157854465E-03;2.328050358636221E-05;
6.276276276276276E+07;3.763590661598327E-01;8.340731703891741E-01;-2.123868896977490E-03;-3.580852170203673E-05;3.763590661598327E-01;8.340731703891741E-01;-2.123868896977490E-03;-3.580852170203673E-05;
6.301301301301301E+07;3.769754057812369E-01;8.342060767976330E-01;-2.073598374377367E-03;-3.040488455409402E-05;3.769754057812369E-01;8.342060767976330E-01;-2.073598374377367E-03;-3.040488455409402E-05;
6.326326326326326E+07;3.776846104323047E-01;8.340196526632767E-01;-2.023213128965797E-03;-5.943462262757293E-05;3.776846104323047E-01;8.340196526632767E-01;-2.023213128965797E-03;-5.943462262757293E-05;
6.351351351351351E+07;3.785631321910959E-01;8.336217598853755E-01;-2.080732310886207E-03;-9.034613647286107E-05;3.785631321910959E-01;8.336217598853755E-01;-2.080732310886207E-03;-9.034613647286107E-05;
6.376376376376376E+07;3.793940026708707E-01;8.331719949470963E-01;-2.048844331211377E-03;-1.158561128824802E-04;3.793940026708707E-01;8.331719949470963E-01;-2.048844331211377E-03;-1.158561128824802E-04;
6.401401401401401E+07;3.803881448602326E-01;8.326427906291447E-01;-2.062405290902948E-03;-1.451844938441659E-04;3.803881448602326E-01;8.326427906291447E-01;-2.062405290902948E-03;-1.451844938441659E-04;
6.426426426426426E+07;3.813829209158891E-01;8.319329790667290E-01;-2.029396127860833E-03;-1.415245866386483E-04;3.813829209158891E-01;8.319329790667290E-01;-2.029396127860833E-03;-1.415245866386483E-04;
6.451451451451451E+07;3.826222221082851E-01;8.310473336186414E-01;-2.102057655733207E-03;-1.849143706134386E-04;3.826222221082851E-01;8.310473336186414E-01;-2.102057655733207E-03;-1.849143706134386E-04;
6.476476476476476E+07;3.839589859097454E-01;8.300898933384192E-01;-2.148511739851379E-03;-1.987141645994733E-04;3.839589859097454E-01;8.300898933384192E-01;-2.148511739851379E-03;-1.987141645994733E-04;
6.501501501501501E+07;3.855711622877825E-01;8.286210375932022E-01;-2.136154219233101E-03;-1.928882622241831E-04;3.855711622877825E-01;8.286210375932022E-01;-2.136154219233101E-03;-1.928882622241831E-04;
6.526526526526526E+07;3.871257672619500E-01;8.275101275254921E-01;-2.166429680101266E-03;-2.208402327966438E-04;3.871257672619500E-01;8.275101275254921E-01;-2.166429680101266E-03;-2.208402327966438E-04;
6.551551551551551E+07;3.889563697372542E-01;8.260062828878180E-01;-2.135995539156737E-03;-3.100349204386677E-04;3.889563697372542E-01;8.260062828878180E-01;-2.135995539156737E-03;-3.100349204386677E-04;
6.576576576576576E+07;3.930737672677612E-01;8.245949858414345E-01;-2.177699141102851E-03;-3.261775399104597E-04;3.930737672677612E-01;8.245949858414345E-01;-2.177699141102851E-03;-3.261775399104597E-04;
6.601601601601601E+07;3.951528557328744E-01;8.227269642355302E-01;-2.156818615963104E-03;-3.299586856569330E-04;3.951528557328744E-01;8.227269642355302E-01;-2.156818615963104E-03;-3.299586856569330E-04;
6.626626626626626E+07;3.970643871208124E-01;8.209803946014160E-01;-2.163263469182471E-03;-3.574925754734141E-04;3.970643871208124E-01;8.209803946014160E-01;-2.163263469182471E-03;-3.574925754734141E-04;
6.651651651651651E+07;3.992101564821167E-01;8.190970814112337E-01;-2.172650574929327E-03;-4.279847803564441E-04;3.992101564821167E-01;8.190970814112337E-01;-2.172650574929327E-03;-4.279847803564441E-04;
6.676676676676676E+07;4.011927677929276E-01;8.172907645316411E-01;-2.202362078783804E-03;-4.564079226858379E-04;4.011927677929276E-01;8.172907645316411E-01;-2.202362078783804E-03;-4.564079226858379E-04;
6.701701701701702E+07;4.045858441750207E-01;8.143529357485457E-01;-2.225266011039060E-03;-4.702517784760570E-04;4.045858441750207E-01;8.143529357485457E-01;-2.225266011039060E-03;-4.702517784760570E-04;
6.726726726726727E+07;4.069505394836489E-01;8.119657469443926E-01;-2.240130996240367E-03;-5.085574972751735E-04;4.069505394836489E-01;8.119657469443926E-01;-2.240130996240367E-03;-5.085574972751735E-04;
6.751751751751752E+07;4.095624726040837E-01;8.098275256292849E-01;-2.297900320188603E-03;-5.497768109764959E-04;4.095624726040837E-01;8.098275256292849E-01;-2.297900320188603E-03;-5.497768109764959E-04;
6.776776776776777E+07;4.120645734170915E-01;8.074980541414974E-01;-2.275770786163688E-03;-5.629778838458181E-04;4.120645734170915E-01;8.074980541414974E-01;-2.275770786163688E-03;-5.629778838458181E-04;
6.801801801801802E+07;4.146960871533051E-01;8.052327974625778E-01;-2.319203929921928E-03;-6.122898301715778E-04;4.146960871533051E-01;8.052327974625778E-01;-2.319203929921928E-03;-6.122898301715778E-04;
6.826826826826827E+07;4.175904696867173E-01;8.026759645240232E-01;-2.345109821863786E-03;-6.322259106222470E-04;4.175904696867173E-01;8.026759645240232E-01;-2.345109821863786E-03;-6.322259106222470E-04;
6.851851851851852E+07;4.212152419609800E-01;7.998168736152431E-01;-2.359543672552830E-03;-6.886354759442275E-04;4.212152419609800E-01;7.998168736152431E-01;-2.359543672552830E-03;-6.886354759442275E-04;
6.876876876876877E+07;4.255218000917920E-01;7.957477073498006E-01;-2.395953486866111E-03;-7.553053392505590E-04;4.255218000917920E-01;7.957477073498006E-01;-2.395953486866111E-03;-7.553053392505590E-04;
6.901901901901902E+07;4.304584853941060E-01;7.915688005253020E-01;-2.395230139272307E-03;-7.802544339512019E-04;4.304584853941060E-01;7.915688005253020E-01;-2.395230139272307E-03;-7.802544339512019E-04;
6.926926926926927E+07;4.361351084924995E-01;7.868248145421135E-01;-2.432889301404467E-03;-8.218501386318402E-04;4.361351084924995E-01;7.868248145421135E-01;-2.432889301404467E-03;-8.218501386318402E-04;
6.951951951951952E+07;4.420568696830622E-01;7.816502740002619E-01;-2.467373008054864E-03;-8.489461270937806E-04;4.420568696830622E-01;7.816502740002619E-01;-2.467373008054864E-03;-8.489461270937806E-04;
6.976976976976977E+07;4.478313275310933E-01;7.762386115580674E-01;-2.458397655170412E-03;-9.214839428494593E-04;4.478313275310933E-01;7.762386115580674E-01;-2.458397655170412E-03;-9.214839428494593E-04;
7.002002002002002E+07;4.536812750179563E-01;7.707070502127445E-01;-2.555569320413446E-03;-9.827678189013082E-04;4.536812750179563E-01;7.707070502127445E-01;-2.555569320413446E-03;-9.827678189013082E-04;
7.027027027027027E+07;4.592306849360860E-01;7.653426918783509E-01;-2.542347486119008E-03;-1.011288899424579E-03;4.592306849360860E-01;7.653426918783509E-01;-2.542347486119008E-03;-1.011288899424579E-03;
7.052052052052052E+07;4.649787707628888E-01;7.595206461976144E-01;-2.625602040213028E-03;-1.046149878207542E-03;4.649787707628888E-01;7.595206461976144E-01;-2.625602040213028E-03;-1.046149878207542E-03;
7.077077077077077E+07;4.709306574815618E-01;7.537359480398913E-01;-2.655661468754490E-03;-1.141674101081883E-03;4.709306574815618E-01;7.537359480398913E-01;-2.655661468754490E-03;-1.141674101081883E-03;
7.102102102102102E+07;4.769468303966514E-01;7.476260940217179E-01;-2.688791064956397E-03;-1.166420184992177E-03;4.769468303966514E-01;7.476260940217179E-01;-2.688791064956397E-03;-1.166420184992177E-03;
7.127127127127127E+07;4.831457012162554E-01;7.413467799291054E-01;-2.730639602181108E-03;-1.182351825931597E-03;4.831457012162554E-01;7.413467799291054E-01;-2.730639602181108E-03;-1.182351825931597E-03;
7.152152152152152E+07;4.895341748789612E-01;7.346466150296604E-01;-2.760269247272798E-03;-1.272579301821442E-03;4.895341748789612E-01;7.346466150296604E-01;-2.760269247272798E-03;-1.272579301821442E-03;
7.177177177177177E+07;4.959122335440020E-01;7.278299431441961E-01;-2.829055969203103E-03;-1.302513876434016E-03;4.959122335440020E-01;7.278299431441961E-01;-2.829055969203103E-03;-1.302513876434016E-03;
7.202202202202202E+07;5.027184067345655E-01;7.205917426708590E-01;-2.826555253651192E-03;-1.363885563467533E-03;5.027184067345655E-01;7.205917426708590E-01;-2.826555253651192E-03;-1.363885563467533E-03;
7.227227227227227E+07;5.100149454464026E-01;7.129328956287359E-01;-2.970860007327725E-03;-1.420587688050353E-03;5.100149454464026E-01;7.129328956287359E-01;-2.970860007327725E-03;-1.420587688050353E-03;
7.252252252252252E+07;5.177977981044848E-01;7.042478449847767E-01;-3.010386261396110E-03;-1.483952593928058E-03;5.177977981044848E-01;7.042478449847767E-01;-3.010386261396110E-03;-1.483952593928058E-03;
7.277277277277277E+07;5.260097508349082E-01;6.947619226252953E-01;-3.072109535233735E-03;-1.546926166632718E-03;5.260097508349082E-01;6.947619226252953E-01;-3.072109535233735E-03;-1.546926166632718E-03;
7.302302302302302E+07;5.345777553662083E-01;6.846413800740039E-01;-3.138860189495306E-03;-1.588776226605162E-03;5.345777553662083E-01;6.846413800740039E-01;-3.138860189495306E-03;-1.588776226605162E-03;
7.327327327327327E+07;5.437255338055498E-01;6.732231370476091E-01;-3.168153984224675E-03;-1.680970947987007E-03;5.437255338055498E-01;6.732231370476091E-01;-3.168153984224675E-03;-1.680970947987007E-03;
7.352352352352352E+07;5.534431389076431E-01;6.612463495734194E-01;-3.269740741300589E-03;-1.729013183349491E-03;5.534431389076431E-01;6.612463495734194E-01;-3.269740741300589E-03;-1.729013183349491E-03;
7.377377377377377E+07;5.631366636901703E-01;6.486031854817358E-01;-3.371880576090759E-03;-1.813557140964324E-03;5.631366636901703E-01;6.486031854817358E-01;-3.371880576090759E-03;-1.813557140964324E-03;
7.402402402402402E+07;5.728122832795605E-01;6.350795766940818E-01;-3.453148483773491E-03;-1.867081264281486E-03;5.728122832795605E-01;6.350795766940818E-01;-3.453148483773491E-03;-1.867081264281486E-03;
