# Version 1.00
#
# Ref Impedances: Z01: 50, Z02: 50
# 
freq[Hz];re:SMag2_S11;im:SMag2_S11;re:ZPh2_S12;im:ZPh2_S12;re:SPh2_S11;im:SPh2_S11;re:ZMag2_S12;im:ZMag2_S12;
5.000000000000000E+07;5.148132910408653E-01;7.381380817183840E-01;-2.755596822129881E-04;-7.318200285396673E-03;5.148132910408653E-01;7.381380817183840E-01;-2.755596822129881E-04;-7.318200285396673E-03;
5.025025025025025E+07;4.934448034531816E-01;7.218534573686619E-01;-2.410797705117131E-03;-8.172138083968277E-03;4.934448034531816E-01;7.218534573686619E-01;-2.410797705117131E-03;-8.172138083968277E-03;
5.050050050050050E+07;4.567192139149871E-01;7.165905532316041E-01;-5.397206752690372E-03;-7.644647338544121E-03;4.567192139149871E-01;7.165905532316041E-01;-5.397206752690372E-03;-7.644647338544121E-03;
5.075075075075075E+07;4.197865836027314E-01;7.351551744183844E-01;-7.632870652400094E-03;-5.166108251321739E-03;4.197865836027314E-01;7.351551744183844E-01;-7.632870652400094E-03;-5.166108251321739E-03;
5.100100100100100E+07;4.014211166943384E-01;7.653754022503348E-01;-7.654817778863320E-03;-2.189275651904837E-03;4.014211166943384E-01;7.653754022503348E-01;-7.654817778863320E-03;-2.189275651904837E-03;
5.125125125125125E+07;3.979168687948123E-01;7.908794070873640E-01;-6.569610626662017E-03;-3.259555148963880E-04;3.979168687948123E-01;7.908794070873640E-01;-6.569610626662017E-03;-3.259555148963880E-04;
5.150150150150150E+07;3.994988297150767E-01;8.082262553668796E-01;-5.352529513210784E-03;5.273765669201663E-04;3.994988297150767E-01;8.082262553668796E-01;-5.352529513210784E-03;5.273765669201663E-04;
5.175175175175175E+07;4.016322156208834E-01;8.198567620070485E-01;-4.445442734057509E-03;8.642204932285649E-04;4.016322156208834E-01;8.198567620070485E-01;-4.445442734057509E-03;8.642204932285649E-04;
5.200200200200200E+07;4.029412727689748E-01;8.280795655407529E-01;-3.676330715779967E-03;1.034380201316465E-03;4.029412727689748E-01;8.280795655407529E-01;-3.676330715779967E-03;1.034380201316465E-03;
5.225225225225225E+07;4.031252681003796E-01;8.341283850324521E-01;-3.088414679848678E-03;1.017049227801738E-03;4.031252681003796E-01;8.341283850324521E-01;-3.088414679848678E-03;1.017049227801738E-03;
5.250250250250250E+07;4.024047377251742E-01;8.390497018122578E-01;-2.717144384953053E-03;1.005846293469910E-03;4.024047377251742E-01;8.390497018122578E-01;-2.717144384953053E-03;1.005846293469910E-03;
5.275275275275275E+07;4.006826478315849E-01;8.433048070182554E-01;-2.363473961832276E-03;9.194852965759886E-04;4.006826478315849E-01;8.433048070182554E-01;-2.363473961832276E-03;9.194852965759886E-04;
5.300300300300300E+07;3.985410568539314E-01;8.468118591300252E-01;-2.055443641110211E-03;8.664175386905456E-04;3.985410568539314E-01;8.468118591300252E-01;-2.055443641110211E-03;8.664175386905456E-04;
5.325325325325325E+07;3.959208992629965E-01;8.499810801317009E-01;-1.886163437217816E-03;7.974266076188998E-04;3.959208992629965E-01;8.499810801317009E-01;-1.886163437217816E-03;7.974266076188998E-04;
5.350350350350350E+07;3.926963142964251E-01;8.527652744233823E-01;-1.698409422165211E-03;7.220199667272899E-04;3.926963142964251E-01;8.527652744233823E-01;-1.698409422165211E-03;7.220199667272899E-04;
5.375375375375375E+07;3.892891904518953E-01;8.556978308659778E-01;-1.586977189799422E-03;6.752494758666555E-04;3.892891904518953E-01;8.556978308659778E-01;-1.586977189799422E-03;6.752494758666555E-04;
5.400400400400400E+07;3.853532556198596E-01;8.582067192064036E-01;-1.473006250609444E-03;6.810222783247243E-04;3.853532556198596E-01;8.582067192064036E-01;-1.473006250609444E-03;6.810222783247243E-04;
5.425425425425425E+07;3.816350963734437E-01;8.605905712111368E-01;-1.356738630669027E-03;5.523213100711276E-04;3.816350963734437E-01;8.605905712111368E-01;-1.356738630669027E-03;5.523213100711276E-04;
5.450450450450450E+07;3.773592554962128E-01;8.630383077972047E-01;-1.287733087961252E-03;5.332844311433557E-04;3.773592554962128E-01;8.630383077972047E-01;-1.287733087961252E-03;5.332844311433557E-04;
5.475475475475475E+07;3.730675765891611E-01;8.656668479594690E-01;-1.236700801331869E-03;5.129866272639214E-04;3.730675765891611E-01;8.656668479594690E-01;-1.236700801331869E-03;5.129866272639214E-04;
5.500500500500500E+07;3.685501079875576E-01;8.676803628128343E-01;-1.157979857236484E-03;4.654870319166795E-04;3.685501079875576E-01;8.676803628128343E-01;-1.157979857236484E-03;4.654870319166795E-04;
5.525525525525525E+07;3.640057974838077E-01;8.700217031998996E-01;-1.096645861416276E-03;3.974866531677819E-04;3.640057974838077E-01;8.700217031998996E-01;-1.096645861416276E-03;3.974866531677819E-04;
5.550550550550550E+07;3.593643496842395E-01;8.719743390154554E-01;-1.032017350366054E-03;3.576268512316953E-04;3.593643496842395E-01;8.719743390154554E-01;-1.032017350366054E-03;3.576268512316953E-04;
5.575575575575575E+07;3.544188971436047E-01;8.742576668975841E-01;-1.004549519397921E-03;3.452618778995015E-04;3.544188971436047E-01;8.742576668975841E-01;-1.004549519397921E-03;3.452618778995015E-04;
5.600600600600600E+07;3.496910524546925E-01;8.762651498059730E-01;-9.760668019813416E-04;3.170354074916440E-04;3.496910524546925E-01;8.762651498059730E-01;-9.760668019813416E-04;3.170354074916440E-04;
5.625625625625625E+07;3.448346071288012E-01;8.781324039502187E-01;-9.211202898116882E-04;2.871145445263969E-04;3.448346071288012E-01;8.781324039502187E-01;-9.211202898116882E-04;2.871145445263969E-04;
5.650650650650650E+07;3.400262917842955E-01;8.804841589905864E-01;-9.083616203962980E-04;2.636154359172697E-04;3.400262917842955E-01;8.804841589905864E-01;-9.083616203962980E-04;2.636154359172697E-04;
5.675675675675675E+07;3.349680196476503E-01;8.822500603511257E-01;-8.489361650280097E-04;2.372517725688911E-04;3.349680196476503E-01;8.822500603511257E-01;-8.489361650280097E-04;2.372517725688911E-04;
5.700700700700700E+07;3.301206460136011E-01;8.839051288086039E-01;-8.522014969070796E-04;2.032120250413442E-04;3.301206460136011E-01;8.839051288086039E-01;-8.522014969070796E-04;2.032120250413442E-04;
5.725725725725726E+07;3.250563713171089E-01;8.859000507390783E-01;-7.955319945056044E-04;1.845497772474583E-04;3.250563713171089E-01;8.859000507390783E-01;-7.955319945056044E-04;1.845497772474583E-04;
5.750750750750751E+07;3.202255754280176E-01;8.876660575470167E-01;-7.608789035201275E-04;1.819873854769838E-04;3.202255754280176E-01;8.876660575470167E-01;-7.608789035201275E-04;1.819873854769838E-04;
5.775775775775776E+07;3.152373086478628E-01;8.894738816163814E-01;-7.790396486761542E-04;2.001321472133342E-04;3.152373086478628E-01;8.894738816163814E-01;-7.790396486761542E-04;2.001321472133342E-04;
5.800800800800801E+07;3.103671698178537E-01;8.908508785542629E-01;-7.618668969004521E-04;1.612313258743535E-04;3.103671698178537E-01;8.908508785542629E-01;-7.618668969004521E-04;1.612313258743535E-04;
5.825825825825826E+07;3.050980218574662E-01;8.923481585040963E-01;-7.382268635683338E-04;1.444279488502208E-04;3.050980218574662E-01;8.923481585040963E-01;-7.382268635683338E-04;1.444279488502208E-04;
5.850850850850851E+07;2.999411055439349E-01;8.936568744339414E-01;-7.195160078780212E-04;1.335525155943606E-04;2.999411055439349E-01;8.936568744339414E-01;-7.195160078780212E-04;1.335525155943606E-04;
5.875875875875876E+07;2.951970343044559E-01;8.950462110576088E-01;-7.331834094705153E-04;9.318169987663842E-05;2.951970343044559E-01;8.950462110576088E-01;-7.331834094705153E-04;9.318169987663842E-05;
5.900900900900901E+07;2.902594717863204E-01;8.959791554673507E-01;-6.778915317253702E-04;6.608665536193116E-05;2.902594717863204E-01;8.959791554673507E-01;-6.778915317253702E-04;6.608665536193116E-05;
5.925925925925926E+07;2.849928311166648E-01;8.974546205305332E-01;-5.988146681571500E-04;3.835011566867921E-05;2.849928311166648E-01;8.974546205305332E-01;-5.988146681571500E-04;3.835011566867921E-05;
5.950950950950951E+07;2.797380962598827E-01;8.987285261982344E-01;-6.173716680909182E-04;2.863098897951800E-05;2.797380962598827E-01;8.987285261982344E-01;-6.173716680909182E-04;2.863098897951800E-05;
5.975975975975976E+07;2.746897650924606E-01;9.000233693324475E-01;-6.490443864071908E-04;-2.855353061891639E-05;2.746897650924606E-01;9.000233693324475E-01;-6.490443864071908E-04;-2.855353061891639E-05;
6.001001001001001E+07;2.694757307476789E-01;9.009047879411383E-01;-6.544549044616784E-04;6.609979820642039E-06;2.694757307476789E-01;9.009047879411383E-01;-6.544549044616784E-04;6.609979820642039E-06;
6.026026026026026E+07;2.646674983926531E-01;9.025785537372828E-01;-6.660518256780024E-04;4.461428041800753E-06;2.646674983926531E-01;9.025785537372828E-01;-6.660518256780024E-04;4.461428041800753E-06;
6.051051051051051E+07;2.598887188182508E-01;9.037265545998707E-01;-6.437772303739270E-04;3.211659015105679E-05;2.598887188182508E-01;9.037265545998707E-01;-6.437772303739270E-04;3.211659015105679E-05;
6.076076076076076E+07;2.549495096539771E-01;9.052155924509745E-01;-6.098722892583267E-04;2.056359812401441E-05;2.549495096539771E-01;9.052155924509745E-01;-6.098722892583267E-04;2.056359812401441E-05;
6.101101101101101E+07;2.502324277698080E-01;9.064920282185701E-01;-6.028294805832373E-04;-1.260680396266649E-05;2.502324277698080E-01;9.064920282185701E-01;-6.028294805832373E-04;-1.260680396266649E-05;
6.126126126126126E+07;2.456918649059913E-01;9.076601046319587E-01;-5.979160507787835E-04;-1.667537823788120E-05;2.456918649059913E-01;9.076601046319587E-01;-5.979160507787835E-04;-1.667537823788120E-05;
6.151151151151151E+07;2.411437539910073E-01;9.090147582712871E-01;-6.019156929858423E-04;-2.981105132290217E-05;2.411437539910073E-01;9.090147582712871E-01;-6.019156929858423E-04;-2.981105132290217E-05;
6.176176176176176E+07;2.368348365723547E-01;9.099691159914658E-01;-6.007656768293044E-04;-5.710861193525498E-06;2.368348365723547E-01;9.099691159914658E-01;-6.007656768293044E-04;-5.710861193525498E-06;
6.201201201201201E+07;2.323027227024525E-01;9.109579940669656E-01;-5.758114507833504E-04;-2.050704955165531E-05;2.323027227024525E-01;9.109579940669656E-01;-5.758114507833504E-04;-2.050704955165531E-05;
6.226226226226226E+07;2.277886591346942E-01;9.120403187311610E-01;-5.977292536440316E-04;-3.630810172501207E-05;2.277886591346942E-01;9.120403187311610E-01;-5.977292536440316E-04;-3.630810172501207E-05;
6.251251251251251E+07;2.234659086178733E-01;9.128455114422700E-01;-5.636857768138243E-04;-7.378043302135181E-05;2.234659086178733E-01;9.128455114422700E-01;-5.636857768138243E-04;-7.378043302135181E-05;
6.276276276276276E+07;2.194069875520080E-01;9.137733427476077E-01;-5.601089377874419E-04;-4.903629803566557E-05;2.194069875520080E-01;9.137733427476077E-01;-5.601089377874419E-04;-4.903629803566557E-05;
6.301301301301301E+07;2.150103964161592E-01;9.144672967131147E-01;-5.545333298677897E-04;-6.654512057306895E-05;2.150103964161592E-01;9.144672967131147E-01;-5.545333298677897E-04;-6.654512057306895E-05;
6.326326326326326E+07;2.106137199116806E-01;9.155163380086225E-01;-5.561726813772190E-04;-1.042518005200334E-04;2.106137199116806E-01;9.155163380086225E-01;-5.561726813772190E-04;-1.042518005200334E-04;
6.351351351351351E+07;2.064819659450156E-01;9.162270245311575E-01;-4.938248462372653E-04;-7.148850854250888E-05;2.064819659450156E-01;9.162270245311575E-01;-4.938248462372653E-04;-7.148850854250888E-05;
6.376376376376376E+07;2.022593802366455E-01;9.168205029943559E-01;-5.105409020076367E-04;-1.209894779224404E-04;2.022593802366455E-01;9.168205029943559E-01;-5.105409020076367E-04;-1.209894779224404E-04;
6.401401401401401E+07;1.981594397445727E-01;9.175482297484134E-01;-5.111417095535367E-04;-1.144983580322153E-04;1.981594397445727E-01;9.175482297484134E-01;-5.111417095535367E-04;-1.144983580322153E-04;
6.426426426426426E+07;1.941919051484146E-01;9.182237504337045E-01;-5.383342698527164E-04;-1.219703558406158E-04;1.941919051484146E-01;9.182237504337045E-01;-5.383342698527164E-04;-1.219703558406158E-04;
6.451451451451451E+07;1.902054745148246E-01;9.188900198341414E-01;-5.131271753099705E-04;-1.379504595717818E-04;1.902054745148246E-01;9.188900198341414E-01;-5.131271753099705E-04;-1.379504595717818E-04;
6.476476476476476E+07;1.864115826662147E-01;9.194588064278748E-01;-5.401258189648934E-04;-1.474599280896789E-04;1.864115826662147E-01;9.194588064278748E-01;-5.401258189648934E-04;-1.474599280896789E-04;
6.501501501501501E+07;1.825725871728978E-01;9.199531031227197E-01;-4.945004907592593E-04;-1.043114733149349E-04;1.825725871728978E-01;9.199531031227197E-01;-4.945004907592593E-04;-1.043114733149349E-04;
6.526526526526526E+07;1.786378961751701E-01;9.204449452447749E-01;-5.161878909076727E-04;-1.589890946096006E-04;1.786378961751701E-01;9.204449452447749E-01;-5.161878909076727E-04;-1.589890946096006E-04;
6.551551551551551E+07;1.749857761523559E-01;9.209423934580677E-01;-4.711669661758788E-04;-1.761317565258674E-04;1.749857761523559E-01;9.209423934580677E-01;-4.711669661758788E-04;-1.761317565258674E-04;
6.576576576576576E+07;1.731302127974932E-01;9.222161660219292E-01;-4.785757076972572E-04;-1.557386846926168E-04;1.731302127974932E-01;9.222161660219292E-01;-4.785757076972572E-04;-1.557386846926168E-04;
6.601601601601601E+07;1.694549145580870E-01;9.224708725590036E-01;-4.906008935299676E-04;-1.432976006041242E-04;1.694549145580870E-01;9.224708725590036E-01;-4.906008935299676E-04;-1.432976006041242E-04;
6.626626626626626E+07;1.656253245374562E-01;9.228976104669596E-01;-4.627828581757539E-04;-1.599971838242003E-04;1.656253245374562E-01;9.228976104669596E-01;-4.627828581757539E-04;-1.599971838242003E-04;
6.651651651651651E+07;1.617133541742955E-01;9.232928413430828E-01;-4.442688893030473E-04;-1.900212937430961E-04;1.617133541742955E-01;9.232928413430828E-01;-4.442688893030473E-04;-1.900212937430961E-04;
6.676676676676676E+07;1.575872032314151E-01;9.238306392361405E-01;-4.503364716945444E-04;-1.795079918205196E-04;1.575872032314151E-01;9.238306392361405E-01;-4.503364716945444E-04;-1.795079918205196E-04;
6.701701701701702E+07;1.548386492720078E-01;9.236441713953232E-01;-4.981364058793937E-04;-1.999092560396502E-04;1.548386492720078E-01;9.236441713953232E-01;-4.981364058793937E-04;-1.999092560396502E-04;
6.726726726726727E+07;1.510022245043681E-01;9.241182216979372E-01;-4.610433286578044E-04;-2.154990878070238E-04;1.510022245043681E-01;9.241182216979372E-01;-4.610433286578044E-04;-2.154990878070238E-04;
6.751751751751752E+07;1.471623259646270E-01;9.244553002651459E-01;-4.349357645130045E-04;-2.206637184491515E-04;1.471623259646270E-01;9.244553002651459E-01;-4.349357645130045E-04;-2.206637184491515E-04;
6.776776776776777E+07;1.430454664180725E-01;9.251433615971311E-01;-4.778265891971414E-04;-2.093284238471098E-04;1.430454664180725E-01;9.251433615971311E-01;-4.778265891971414E-04;-2.093284238471098E-04;
6.801801801801802E+07;1.388254632860486E-01;9.256538196535018E-01;-4.128541291158503E-04;-2.222092363622905E-04;1.388254632860486E-01;9.256538196535018E-01;-4.128541291158503E-04;-2.222092363622905E-04;
6.826826826826827E+07;1.347034939275784E-01;9.260463206952502E-01;-4.264261011150914E-04;-2.330672728956924E-04;1.347034939275784E-01;9.260463206952502E-01;-4.264261011150914E-04;-2.330672728956924E-04;
6.851851851851852E+07;1.309395131520415E-01;9.264289604680830E-01;-4.212504410426800E-04;-2.602327540025647E-04;1.309395131520415E-01;9.264289604680830E-01;-4.212504410426800E-04;-2.602327540025647E-04;
6.876876876876877E+07;1.284967228022728E-01;9.259321447674128E-01;-4.434317391376200E-04;-2.383280717049720E-04;1.284967228022728E-01;9.259321447674128E-01;-4.434317391376200E-04;-2.383280717049720E-04;
6.901901901901902E+07;1.260915573565042E-01;9.258492240953224E-01;-4.466678641156825E-04;-3.004216043446556E-04;1.260915573565042E-01;9.258492240953224E-01;-4.466678641156825E-04;-3.004216043446556E-04;
6.926926926926927E+07;1.240001630853352E-01;9.254333461873613E-01;-4.647679686100925E-04;-2.874360135199743E-04;1.240001630853352E-01;9.254333461873613E-01;-4.647679686100925E-04;-2.874360135199743E-04;
6.951951951951952E+07;1.222836104125165E-01;9.251246571570924E-01;-4.435975946543570E-04;-2.606520811465249E-04;1.222836104125165E-01;9.251246571570924E-01;-4.435975946543570E-04;-2.606520811465249E-04;
6.976976976976977E+07;1.203793606998623E-01;9.246274979228636E-01;-4.113272102125126E-04;-3.034463399670328E-04;1.203793606998623E-01;9.246274979228636E-01;-4.113272102125126E-04;-3.034463399670328E-04;
7.002002002002002E+07;1.181883824415735E-01;9.242168500248983E-01;-3.984812279576900E-04;-3.185445056117784E-04;1.181883824415735E-01;9.242168500248983E-01;-3.984812279576900E-04;-3.185445056117784E-04;
7.027027027027027E+07;1.159018662308947E-01;9.240117090861369E-01;-3.787363588032247E-04;-2.979370589047402E-04;1.159018662308947E-01;9.240117090861369E-01;-3.787363588032247E-04;-2.979370589047402E-04;
7.052052052052052E+07;1.132490419773820E-01;9.238666134930941E-01;-3.910324283466341E-04;-3.454256746862894E-04;1.132490419773820E-01;9.238666134930941E-01;-3.910324283466341E-04;-3.454256746862894E-04;
7.077077077077077E+07;1.105456382561931E-01;9.237694625903258E-01;-4.025343273341102E-04;-3.251357058249660E-04;1.105456382561931E-01;9.237694625903258E-01;-4.025343273341102E-04;-3.251357058249660E-04;
7.102102102102102E+07;1.076695810792508E-01;9.236522942266552E-01;-4.309575795543399E-04;-3.375722304497882E-04;1.076695810792508E-01;9.236522942266552E-01;-4.309575795543399E-04;-3.375722304497882E-04;
7.127127127127127E+07;1.045906057327444E-01;9.235294048099710E-01;-3.531323851221235E-04;-3.675823666334711E-04;1.045906057327444E-01;9.235294048099710E-01;-3.531323851221235E-04;-3.675823666334711E-04;
7.152152152152152E+07;1.014782092614455E-01;9.235839311514532E-01;-3.705586921632086E-04;-3.798795279668523E-04;1.014782092614455E-01;9.235839311514532E-01;-3.705586921632086E-04;-3.798795279668523E-04;
7.177177177177177E+07;9.829245910452494E-02;9.237068540919714E-01;-3.927570800829937E-04;-3.948163066067758E-04;9.829245910452494E-02;9.237068540919714E-01;-3.927570800829937E-04;-3.948163066067758E-04;
7.202202202202202E+07;9.485189606751564E-02;9.236954773673518E-01;-3.666604768187657E-04;-3.631063742030942E-04;9.485189606751564E-02;9.236954773673518E-01;-3.666604768187657E-04;-3.631063742030942E-04;
7.227227227227227E+07;9.162874832360869E-02;9.238118387030316E-01;-3.813240408605769E-04;-3.998020503668979E-04;9.162874832360869E-02;9.238118387030316E-01;-3.813240408605769E-04;-3.998020503668979E-04;
7.252252252252252E+07;8.882786502599994E-02;9.237762683194527E-01;-3.695038683725788E-04;-4.166374699399597E-04;8.882786502599994E-02;9.237762683194527E-01;-3.695038683725788E-04;-4.166374699399597E-04;
7.277277277277277E+07;8.637256485931401E-02;9.236574649892718E-01;-3.491344541444197E-04;-4.202947883191749E-04;8.637256485931401E-02;9.236574649892718E-01;-3.491344541444197E-04;-4.202947883191749E-04;
7.302302302302302E+07;8.438981289140811E-02;9.232781244390589E-01;-3.959062921988156E-04;-3.995506403272491E-04;8.438981289140811E-02;9.232781244390589E-01;-3.959062921988156E-04;-3.995506403272491E-04;
7.327327327327327E+07;8.275884712482261E-02;9.227659647437508E-01;-3.998461758839661E-04;-4.361714516502907E-04;8.275884712482261E-02;9.227659647437508E-01;-3.998461758839661E-04;-4.361714516502907E-04;
7.352352352352352E+07;8.142143368048345E-02;9.222658975010766E-01;-3.499281242171889E-04;-4.760764000331522E-04;8.142143368048345E-02;9.222658975010766E-01;-3.499281242171889E-04;-4.760764000331522E-04;
7.377377377377377E+07;7.998495138672763E-02;9.219612666929613E-01;-3.312202725007296E-04;-4.258146367797602E-04;7.998495138672763E-02;9.219612666929613E-01;-3.312202725007296E-04;-4.258146367797602E-04;
7.402402402402402E+07;7.828182650532936E-02;9.214410333017984E-01;-3.323161388753614E-04;-4.451880977640853E-04;7.828182650532936E-02;9.214410333017984E-01;-3.323161388753614E-04;-4.451880977640853E-04;
