# Version 1.00
#
# Ref Impedances: Z01: 50, Z02: 50
# 
freq[Hz];re:SMag2_S11;im:SMag2_S11;re:ZPh2_S12;im:ZPh2_S12;re:SPh2_S11;im:SPh2_S11;re:ZMag2_S12;im:ZMag2_S12;
5.000000000000000E+07;4.277345411071156E-01;6.412659528993518E-01;-9.239825681008314E-03;-7.023234714502370E-04;4.277345411071156E-01;6.412659528993518E-01;-9.239825681008314E-03;-7.023234714502370E-04;
5.025025025025025E+07;4.328109425273200E-01;6.681161278854523E-01;-7.873226476752929E-03;2.896538183174874E-04;4.328109425273200E-01;6.681161278854523E-01;-7.873226476752929E-03;2.896538183174874E-04;
5.050050050050050E+07;4.385387190427821E-01;6.841154023730245E-01;-6.945264917178434E-03;7.602680288802007E-04;4.385387190427821E-01;6.841154023730245E-01;-6.945264917178434E-03;7.602680288802007E-04;
5.075075075075075E+07;4.413503324827222E-01;6.934091159002732E-01;-6.174526912791732E-03;8.936778153928172E-04;4.413503324827222E-01;6.934091159002732E-01;-6.174526912791732E-03;8.936778153928172E-04;
5.100100100100100E+07;4.401596772731597E-01;6.998076823465686E-01;-5.597997446276100E-03;9.587592363842849E-04;4.401596772731597E-01;6.998076823465686E-01;-5.597997446276100E-03;9.587592363842849E-04;
5.125125125125125E+07;4.355866783592433E-01;7.060734355089214E-01;-5.240139003863785E-03;9.571303449848572E-04;4.355866783592433E-01;7.060734355089214E-01;-5.240139003863785E-03;9.571303449848572E-04;
5.150150150150150E+07;4.288633074435020E-01;7.143234591836840E-01;-4.957747729513430E-03;1.015827895430187E-03;4.288633074435020E-01;7.143234591836840E-01;-4.957747729513430E-03;1.015827895430187E-03;
5.175175175175175E+07;4.225117621016777E-01;7.250410192434087E-01;-4.781849662108749E-03;1.096216368188542E-03;4.225117621016777E-01;7.250410192434087E-01;-4.781849662108749E-03;1.096216368188542E-03;
5.200200200200200E+07;4.178353144657938E-01;7.369076236576633E-01;-4.536182688740246E-03;1.177697815197745E-03;4.178353144657938E-01;7.369076236576633E-01;-4.536182688740246E-03;1.177697815197745E-03;
5.225225225225225E+07;4.150887202790789E-01;7.492040107278144E-01;-4.276809075719761E-03;1.282207232769968E-03;4.150887202790789E-01;7.492040107278144E-01;-4.276809075719761E-03;1.282207232769968E-03;
5.250250250250250E+07;4.140974306457699E-01;7.603903826564761E-01;-3.996680352327140E-03;1.294060765370762E-03;4.140974306457699E-01;7.603903826564761E-01;-3.996680352327140E-03;1.294060765370762E-03;
5.275275275275275E+07;4.145153346000628E-01;7.702780248800849E-01;-3.814821609174778E-03;1.392981512893683E-03;4.145153346000628E-01;7.702780248800849E-01;-3.814821609174778E-03;1.392981512893683E-03;
5.300300300300300E+07;4.152975231680119E-01;7.790553982197612E-01;-3.577041550259089E-03;1.374218389352978E-03;4.152975231680119E-01;7.790553982197612E-01;-3.577041550259089E-03;1.374218389352978E-03;
5.325325325325325E+07;4.167020841401240E-01;7.863791854880404E-01;-3.422827171202440E-03;1.408111943649080E-03;4.167020841401240E-01;7.863791854880404E-01;-3.422827171202440E-03;1.408111943649080E-03;
5.350350350350350E+07;4.180832390946568E-01;7.924386183188952E-01;-3.229001634004646E-03;1.359155386143413E-03;4.180832390946568E-01;7.924386183188952E-01;-3.229001634004646E-03;1.359155386143413E-03;
5.375375375375375E+07;4.186378852598083E-01;7.979338956572862E-01;-3.069867350363354E-03;1.335378541754295E-03;4.186378852598083E-01;7.979338956572862E-01;-3.069867350363354E-03;1.335378541754295E-03;
5.400400400400400E+07;4.197463957265788E-01;8.026028325218685E-01;-2.908059871308172E-03;1.280768423800752E-03;4.197463957265788E-01;8.026028325218685E-01;-2.908059871308172E-03;1.280768423800752E-03;
5.425425425425425E+07;4.201870447335319E-01;8.063905076150498E-01;-2.786810860611650E-03;1.252070154385577E-03;4.201870447335319E-01;8.063905076150498E-01;-2.786810860611650E-03;1.252070154385577E-03;
5.450450450450450E+07;4.202209376296712E-01;8.105115981188320E-01;-2.672672280475589E-03;1.196195377888527E-03;4.202209376296712E-01;8.105115981188320E-01;-2.672672280475589E-03;1.196195377888527E-03;
5.475475475475475E+07;4.203754115863111E-01;8.137571113302083E-01;-2.534079460637038E-03;1.144962093525808E-03;4.203754115863111E-01;8.137571113302083E-01;-2.534079460637038E-03;1.144962093525808E-03;
5.500500500500500E+07;4.204320513226319E-01;8.163964693546387E-01;-2.472549251391897E-03;1.065528105077633E-03;4.204320513226319E-01;8.163964693546387E-01;-2.472549251391897E-03;1.065528105077633E-03;
5.525525525525525E+07;4.200619989329523E-01;8.190451820340452E-01;-2.360368542334003E-03;1.082637461851285E-03;4.200619989329523E-01;8.190451820340452E-01;-2.360368542334003E-03;1.082637461851285E-03;
5.550550550550550E+07;4.195880722512255E-01;8.210723003981873E-01;-2.343798335339983E-03;1.050481638509744E-03;4.195880722512255E-01;8.210723003981873E-01;-2.343798335339983E-03;1.050481638509744E-03;
5.575575575575575E+07;4.190117181370998E-01;8.230921820328911E-01;-2.228147381157594E-03;9.813925935219974E-04;4.190117181370998E-01;8.230921820328911E-01;-2.228147381157594E-03;9.813925935219974E-04;
5.600600600600600E+07;4.181120462207533E-01;8.246276763536563E-01;-2.129068446828750E-03;9.321309572222867E-04;4.181120462207533E-01;8.246276763536563E-01;-2.129068446828750E-03;9.321309572222867E-04;
5.625625625625625E+07;4.172176483037783E-01;8.261003760279186E-01;-2.156675828584094E-03;8.918181364022211E-04;4.172176483037783E-01;8.261003760279186E-01;-2.156675828584094E-03;8.918181364022211E-04;
5.650650650650650E+07;4.160258768898996E-01;8.273323433024993E-01;-2.144160110378681E-03;8.284191771025148E-04;4.160258768898996E-01;8.273323433024993E-01;-2.144160110378681E-03;8.284191771025148E-04;
5.675675675675675E+07;4.148317030777811E-01;8.286024562895126E-01;-2.025068896639862E-03;7.742811661031931E-04;4.148317030777811E-01;8.286024562895126E-01;-2.025068896639862E-03;7.742811661031931E-04;
5.700700700700700E+07;4.134638210914990E-01;8.295679669599221E-01;-2.001165066016587E-03;7.305386633460916E-04;4.134638210914990E-01;8.295679669599221E-01;-2.001165066016587E-03;7.305386633460916E-04;
5.725725725725726E+07;4.118722818413783E-01;8.304086364336775E-01;-1.955514774323349E-03;6.860170145810951E-04;4.118722818413783E-01;8.304086364336775E-01;-1.955514774323349E-03;6.860170145810951E-04;
5.750750750750751E+07;4.102402962618226E-01;8.312279364773028E-01;-1.942424934717643E-03;6.194033410588416E-04;4.102402962618226E-01;8.312279364773028E-01;-1.942424934717643E-03;6.194033410588416E-04;
5.775775775775776E+07;4.085725020926342E-01;8.320273217119166E-01;-1.933024086383183E-03;5.979361616848511E-04;4.085725020926342E-01;8.320273217119166E-01;-1.933024086383183E-03;5.979361616848511E-04;
5.800800800800801E+07;4.068533544436455E-01;8.321890630018800E-01;-1.903486500394801E-03;5.602527352763725E-04;4.068533544436455E-01;8.321890630018800E-01;-1.903486500394801E-03;5.602527352763725E-04;
5.825825825825826E+07;4.050892193838930E-01;8.325497061729955E-01;-1.844875227921361E-03;5.480154004752636E-04;4.050892193838930E-01;8.325497061729955E-01;-1.844875227921361E-03;5.480154004752636E-04;
5.850850850850851E+07;4.033370450544694E-01;8.326851202931375E-01;-1.819529829585234E-03;4.932847576755809E-04;4.033370450544694E-01;8.326851202931375E-01;-1.819529829585234E-03;4.932847576755809E-04;
5.875875875875876E+07;4.016865044510478E-01;8.326634965664236E-01;-1.772500622404059E-03;4.475849314884251E-04;4.016865044510478E-01;8.326634965664236E-01;-1.772500622404059E-03;4.475849314884251E-04;
5.900900900900901E+07;3.994813856497967E-01;8.321366657771462E-01;-1.786811766335147E-03;4.401581486568223E-04;3.994813856497967E-01;8.321366657771462E-01;-1.786811766335147E-03;4.401581486568223E-04;
5.925925925925926E+07;3.974769474865318E-01;8.314081886095782E-01;-1.742336697888563E-03;3.491602104154609E-04;3.974769474865318E-01;8.314081886095782E-01;-1.742336697888563E-03;3.491602104154609E-04;
5.950950950950951E+07;3.947289523761682E-01;8.307070151940406E-01;-1.786206793379264E-03;2.697246243228482E-04;3.947289523761682E-01;8.307070151940406E-01;-1.786206793379264E-03;2.697246243228482E-04;
5.975975975975976E+07;3.917528618481562E-01;8.299767232331989E-01;-1.735408481361561E-03;1.987275489222987E-04;3.917528618481562E-01;8.299767232331989E-01;-1.735408481361561E-03;1.987275489222987E-04;
6.001001001001001E+07;3.882682184386054E-01;8.292115091812539E-01;-1.769521456278359E-03;1.698733357763283E-04;3.882682184386054E-01;8.292115091812539E-01;-1.769521456278359E-03;1.698733357763283E-04;
6.026026026026026E+07;3.845190187765867E-01;8.290654056167969E-01;-1.737421123342160E-03;1.655208704401057E-04;3.845190187765867E-01;8.290654056167969E-01;-1.737421123342160E-03;1.655208704401057E-04;
6.051051051051051E+07;3.806091194671086E-01;8.293627180527153E-01;-1.784623611987685E-03;1.644405854011986E-04;3.806091194671086E-01;8.293627180527153E-01;-1.784623611987685E-03;1.644405854011986E-04;
6.076076076076076E+07;3.768448375259660E-01;8.303036411044717E-01;-1.804232936291273E-03;1.348997146003827E-04;3.768448375259660E-01;8.303036411044717E-01;-1.804232936291273E-03;1.348997146003827E-04;
6.101101101101101E+07;3.735331428380201E-01;8.319259168660894E-01;-1.788068565915635E-03;1.233443382228640E-04;3.735331428380201E-01;8.319259168660894E-01;-1.788068565915635E-03;1.233443382228640E-04;
6.126126126126126E+07;3.706688002134337E-01;8.338803091696486E-01;-1.837777734377815E-03;3.562312014716348E-05;3.706688002134337E-01;8.338803091696486E-01;-1.837777734377815E-03;3.562312014716348E-05;
6.151151151151151E+07;3.684023777108594E-01;8.359039652587389E-01;-1.803600725248891E-03;7.145898065000957E-05;3.684023777108594E-01;8.359039652587389E-01;-1.803600725248891E-03;7.145898065000957E-05;
6.176176176176176E+07;3.668406278270603E-01;8.377235361747785E-01;-1.829323408061763E-03;5.370261187831254E-05;3.668406278270603E-01;8.377235361747785E-01;-1.829323408061763E-03;5.370261187831254E-05;
6.201201201201201E+07;3.656963778126620E-01;8.395686487775753E-01;-1.813321286134136E-03;3.086002284775006E-05;3.656963778126620E-01;8.395686487775753E-01;-1.813321286134136E-03;3.086002284775006E-05;
6.226226226226226E+07;3.646909471802893E-01;8.408132472425799E-01;-1.828098272634462E-03;1.097063788668735E-06;3.646909471802893E-01;8.408132472425799E-01;-1.828098272634462E-03;1.097063788668735E-06;
6.251251251251251E+07;3.642686674953904E-01;8.420569379365174E-01;-1.805220009900558E-03;1.782320058092160E-05;3.642686674953904E-01;8.420569379365174E-01;-1.805220009900558E-03;1.782320058092160E-05;
6.276276276276276E+07;3.638548359291642E-01;8.430100603623550E-01;-1.862608152900162E-03;-3.137446357749609E-05;3.638548359291642E-01;8.430100603623550E-01;-1.862608152900162E-03;-3.137446357749609E-05;
6.301301301301301E+07;3.636072462878064E-01;8.435928270342085E-01;-1.827049967491313E-03;-3.932795566944126E-05;3.636072462878064E-01;8.435928270342085E-01;-1.827049967491313E-03;-3.932795566944126E-05;
6.326326326326326E+07;3.635892552639779E-01;8.441249200609684E-01;-1.858985719796043E-03;-7.829345916782990E-05;3.635892552639779E-01;8.441249200609684E-01;-1.858985719796043E-03;-7.829345916782990E-05;
6.351351351351351E+07;3.633589712831947E-01;8.442900073130356E-01;-1.874907127486525E-03;-9.206054964242418E-05;3.633589712831947E-01;8.442900073130356E-01;-1.874907127486525E-03;-9.206054964242418E-05;
6.376376376376376E+07;3.635661737146414E-01;8.443989273107599E-01;-1.818973536339006E-03;-1.431052380181258E-04;3.635661737146414E-01;8.443989273107599E-01;-1.818973536339006E-03;-1.431052380181258E-04;
6.401401401401401E+07;3.638012216658024E-01;8.443185586641585E-01;-1.815048811419627E-03;-1.361113475981094E-04;3.638012216658024E-01;8.443185586641585E-01;-1.815048811419627E-03;-1.361113475981094E-04;
6.426426426426426E+07;3.641138402716995E-01;8.440876782160983E-01;-1.871436248379162E-03;-1.742328764873234E-04;3.641138402716995E-01;8.440876782160983E-01;-1.871436248379162E-03;-1.742328764873234E-04;
6.451451451451451E+07;3.644060086137040E-01;8.437922248933226E-01;-1.877412113296515E-03;-1.864785266562829E-04;3.644060086137040E-01;8.437922248933226E-01;-1.877412113296515E-03;-1.864785266562829E-04;
6.476476476476476E+07;3.649016848296652E-01;8.432706357949601E-01;-1.870421899754769E-03;-1.882223097486291E-04;3.649016848296652E-01;8.432706357949601E-01;-1.870421899754769E-03;-1.882223097486291E-04;
6.501501501501501E+07;3.654442898321681E-01;8.426771674310164E-01;-1.891046289716762E-03;-2.096951419437002E-04;3.654442898321681E-01;8.426771674310164E-01;-1.891046289716762E-03;-2.096951419437002E-04;
6.526526526526526E+07;3.662737431850950E-01;8.419666460394534E-01;-1.847368485264989E-03;-2.394780277476245E-04;3.662737431850950E-01;8.419666460394534E-01;-1.847368485264989E-03;-2.394780277476245E-04;
6.551551551551551E+07;3.671026956168204E-01;8.411392188582316E-01;-1.896006398003930E-03;-2.943476616113495E-04;3.671026956168204E-01;8.411392188582316E-01;-1.896006398003930E-03;-2.943476616113495E-04;
6.576576576576576E+07;3.701953117428239E-01;8.405986292880024E-01;-1.870421935520124E-03;-3.018557641631095E-04;3.701953117428239E-01;8.405986292880024E-01;-1.870421935520124E-03;-3.018557641631095E-04;
6.601601601601601E+07;3.710724638289411E-01;8.393608259379395E-01;-1.868168416505463E-03;-3.181870768376831E-04;3.710724638289411E-01;8.393608259379395E-01;-1.868168416505463E-03;-3.181870768376831E-04;
6.626626626626626E+07;3.720941549185138E-01;8.382837745703832E-01;-1.949212296149001E-03;-3.502722943907378E-04;3.720941549185138E-01;8.382837745703832E-01;-1.949212296149001E-03;-3.502722943907378E-04;
6.651651651651651E+07;3.729436762745244E-01;8.373004570548090E-01;-1.909465020063988E-03;-4.022219380514122E-04;3.729436762745244E-01;8.373004570548090E-01;-1.909465020063988E-03;-4.022219380514122E-04;
6.676676676676676E+07;3.738087109881642E-01;8.362540071923251E-01;-1.898114911739817E-03;-3.992618231576654E-04;3.738087109881642E-01;8.362540071923251E-01;-1.898114911739817E-03;-3.992618231576654E-04;
6.701701701701702E+07;3.759515470642906E-01;8.341895501307626E-01;-1.991015409651300E-03;-4.809728548178000E-04;3.759515470642906E-01;8.341895501307626E-01;-1.991015409651300E-03;-4.809728548178000E-04;
6.726726726726727E+07;3.773221895127400E-01;8.330215462699928E-01;-1.934649527645287E-03;-4.849698631492044E-04;3.773221895127400E-01;8.330215462699928E-01;-1.934649527645287E-03;-4.849698631492044E-04;
6.751751751751752E+07;3.785384809350923E-01;8.317022081934818E-01;-1.958160093691094E-03;-4.785876120825917E-04;3.785384809350923E-01;8.317022081934818E-01;-1.958160093691094E-03;-4.785876120825917E-04;
6.776776776776777E+07;3.798468172694106E-01;8.304415409178211E-01;-1.996100584806515E-03;-5.445224269897115E-04;3.798468172694106E-01;8.304415409178211E-01;-1.996100584806515E-03;-5.445224269897115E-04;
6.801801801801802E+07;3.812620958445201E-01;8.292022839046116E-01;-1.972175422055354E-03;-5.775440944550392E-04;3.812620958445201E-01;8.292022839046116E-01;-1.972175422055354E-03;-5.775440944550392E-04;
6.826826826826827E+07;3.828967469611595E-01;8.277422699768665E-01;-1.969156853569205E-03;-6.159253349740354E-04;3.828967469611595E-01;8.277422699768665E-01;-1.969156853569205E-03;-6.159253349740354E-04;
6.851851851851852E+07;3.850806669243631E-01;8.260727231404147E-01;-2.028456460278585E-03;-6.313917697717642E-04;3.850806669243631E-01;8.260727231404147E-01;-2.028456460278585E-03;-6.313917697717642E-04;
6.876876876876877E+07;3.880594525579102E-01;8.230204567686097E-01;-2.012108965379567E-03;-6.855521387054164E-04;3.880594525579102E-01;8.230204567686097E-01;-2.012108965379567E-03;-6.855521387054164E-04;
6.901901901901902E+07;3.915510577828645E-01;8.200873747727833E-01;-2.010196276987541E-03;-7.548397661410676E-04;3.915510577828645E-01;8.200873747727833E-01;-2.010196276987541E-03;-7.548397661410676E-04;
6.926926926926927E+07;3.955818482695721E-01;8.169027314476390E-01;-2.062366710342250E-03;-7.744217567386619E-04;3.955818482695721E-01;8.169027314476390E-01;-2.062366710342250E-03;-7.744217567386619E-04;
6.951951951951952E+07;3.996462633950996E-01;8.132348479175113E-01;-2.069362965459859E-03;-8.457011477648653E-04;3.996462633950996E-01;8.132348479175113E-01;-2.069362965459859E-03;-8.457011477648653E-04;
6.976976976976977E+07;4.037294516178372E-01;8.095354149817136E-01;-2.082570936635752E-03;-8.594988677630640E-04;4.037294516178372E-01;8.095354149817136E-01;-2.082570936635752E-03;-8.594988677630640E-04;
7.002002002002002E+07;4.076314135567978E-01;8.061548903781457E-01;-2.111046803565101E-03;-8.809282746469777E-04;4.076314135567978E-01;8.061548903781457E-01;-2.111046803565101E-03;-8.809282746469777E-04;
7.027027027027027E+07;4.114549752476794E-01;8.027137512613363E-01;-2.127347392625511E-03;-9.466975826286981E-04;4.114549752476794E-01;8.027137512613363E-01;-2.127347392625511E-03;-9.466975826286981E-04;
7.052052052052052E+07;4.153776239818118E-01;7.990202362950994E-01;-2.138207195528007E-03;-9.541808822440337E-04;4.153776239818118E-01;7.990202362950994E-01;-2.138207195528007E-03;-9.541808822440337E-04;
7.077077077077077E+07;4.193762649794907E-01;7.954055937095690E-01;-2.167116571668181E-03;-1.029485009583438E-03;4.193762649794907E-01;7.954055937095690E-01;-2.167116571668181E-03;-1.029485009583438E-03;
7.102102102102102E+07;4.234453978483328E-01;7.919113548991578E-01;-2.194644164783630E-03;-1.091870285484659E-03;4.234453978483328E-01;7.919113548991578E-01;-2.194644164783630E-03;-1.091870285484659E-03;
7.127127127127127E+07;4.276854073410067E-01;7.877419013355229E-01;-2.223682573756781E-03;-1.120963910948749E-03;4.276854073410067E-01;7.877419013355229E-01;-2.223682573756781E-03;-1.120963910948749E-03;
7.152152152152152E+07;4.319990664929180E-01;7.839857462219957E-01;-2.268319340132119E-03;-1.140478351626368E-03;4.319990664929180E-01;7.839857462219957E-01;-2.268319340132119E-03;-1.140478351626368E-03;
7.177177177177177E+07;4.363575448004505E-01;7.800767231651010E-01;-2.284556595043468E-03;-1.220904599947585E-03;4.363575448004505E-01;7.800767231651010E-01;-2.284556595043468E-03;-1.220904599947585E-03;
7.202202202202202E+07;4.407438411739201E-01;7.758094619372495E-01;-2.302479291425478E-03;-1.233146511581103E-03;4.407438411739201E-01;7.758094619372495E-01;-2.302479291425478E-03;-1.233146511581103E-03;
7.227227227227227E+07;4.456793922170593E-01;7.712301571108601E-01;-2.364194125919605E-03;-1.317720813184891E-03;4.456793922170593E-01;7.712301571108601E-01;-2.364194125919605E-03;-1.317720813184891E-03;
7.252252252252252E+07;4.510613184112198E-01;7.662095514847946E-01;-2.361046726284355E-03;-1.364730064942588E-03;4.510613184112198E-01;7.662095514847946E-01;-2.361046726284355E-03;-1.364730064942588E-03;
7.277277277277277E+07;4.570512957582551E-01;7.606602589465979E-01;-2.412722509591218E-03;-1.411138619381697E-03;4.570512957582551E-01;7.606602589465979E-01;-2.412722509591218E-03;-1.411138619381697E-03;
7.302302302302302E+07;4.635629804892398E-01;7.541886876336765E-01;-2.485607258116612E-03;-1.475424217571474E-03;4.635629804892398E-01;7.541886876336765E-01;-2.485607258116612E-03;-1.475424217571474E-03;
7.327327327327327E+07;4.704692388072941E-01;7.476367225458092E-01;-2.502748819729820E-03;-1.557043964027412E-03;4.704692388072941E-01;7.476367225458092E-01;-2.502748819729820E-03;-1.557043964027412E-03;
7.352352352352352E+07;4.777055643652338E-01;7.405774397566040E-01;-2.561845768104409E-03;-1.635490475550442E-03;4.777055643652338E-01;7.405774397566040E-01;-2.561845768104409E-03;-1.635490475550442E-03;
7.377377377377377E+07;4.850416782824586E-01;7.332383551472669E-01;-2.667094873832208E-03;-1.655978504109444E-03;4.850416782824586E-01;7.332383551472669E-01;-2.667094873832208E-03;-1.655978504109444E-03;
7.402402402402402E+07;4.925196340041035E-01;7.255808894843209E-01;-2.614743590757018E-03;-1.766061844520884E-03;4.925196340041035E-01;7.255808894843209E-01;-2.614743590757018E-03;-1.766061844520884E-03;
