# Version 1.00
#
# Ref Impedances: Z01: 50, Z02: 50
# 
freq[Hz];re:SMag2_S11;im:SMag2_S11;re:ZPh2_S12;im:ZPh2_S12;re:SPh2_S11;im:SPh2_S11;re:ZMag2_S12;im:ZMag2_S12;
5.000000000000000E+07;5.871669187411769E-01;6.209942614746813E-01;-9.915618165445641E-04;-6.920775838215837E-03;5.871669187411769E-01;6.209942614746813E-01;-9.915618165445641E-04;-6.920775838215837E-03;
5.025025025025025E+07;5.684546081178955E-01;6.034134920824348E-01;-1.908299040612283E-03;-7.107831754958974E-03;5.684546081178955E-01;6.034134920824348E-01;-1.908299040612283E-03;-7.107831754958974E-03;
5.050050050050050E+07;5.422324493691967E-01;5.887432844063523E-01;-2.982425690815245E-03;-7.121270347220159E-03;5.422324493691967E-01;5.887432844063523E-01;-2.982425690815245E-03;-7.121270347220159E-03;
5.075075075075075E+07;5.096589258289449E-01;5.797595389764664E-01;-4.052437969087555E-03;-6.794156810362536E-03;5.096589258289449E-01;5.797595389764664E-01;-4.052437969087555E-03;-6.794156810362536E-03;
5.100100100100100E+07;4.730966974654875E-01;5.798121368600766E-01;-5.071969227657880E-03;-6.119782871144766E-03;4.730966974654875E-01;5.798121368600766E-01;-5.071969227657880E-03;-6.119782871144766E-03;
5.125125125125125E+07;4.364682442309783E-01;5.902522428453072E-01;-5.934569584665689E-03;-5.362175840262414E-03;4.364682442309783E-01;5.902522428453072E-01;-5.934569584665689E-03;-5.362175840262414E-03;
5.150150150150150E+07;4.033949753295124E-01;6.097115335969796E-01;-6.467685644919099E-03;-4.245399104976344E-03;4.033949753295124E-01;6.097115335969796E-01;-6.467685644919099E-03;-4.245399104976344E-03;
5.175175175175175E+07;3.778429789608110E-01;6.357580452044612E-01;-6.688828590419807E-03;-3.151542884863782E-03;3.778429789608110E-01;6.357580452044612E-01;-6.688828590419807E-03;-3.151542884863782E-03;
5.200200200200200E+07;3.607863135774099E-01;6.648354192834778E-01;-6.620467185241538E-03;-2.085062446476665E-03;3.607863135774099E-01;6.648354192834778E-01;-6.620467185241538E-03;-2.085062446476665E-03;
5.225225225225225E+07;3.516300715105326E-01;6.932353570083215E-01;-6.361102859668314E-03;-1.238005646784047E-03;3.516300715105326E-01;6.932353570083215E-01;-6.361102859668314E-03;-1.238005646784047E-03;
5.250250250250250E+07;3.488682489538903E-01;7.184539309252183E-01;-5.873531196048391E-03;-5.408152135581550E-04;3.488682489538903E-01;7.184539309252183E-01;-5.873531196048391E-03;-5.408152135581550E-04;
5.275275275275275E+07;3.496131959261058E-01;7.398104670047339E-01;-5.286907766402241E-03;-4.446606403681812E-05;3.496131959261058E-01;7.398104670047339E-01;-5.286907766402241E-03;-4.446606403681812E-05;
5.300300300300300E+07;3.525120787327499E-01;7.570813929833733E-01;-4.895718727290609E-03;2.457863224485666E-04;3.525120787327499E-01;7.570813929833733E-01;-4.895718727290609E-03;2.457863224485666E-04;
5.325325325325325E+07;3.567524480181886E-01;7.712226310790077E-01;-4.343929291678550E-03;5.139857957878216E-04;3.567524480181886E-01;7.712226310790077E-01;-4.343929291678550E-03;5.139857957878216E-04;
5.350350350350350E+07;3.599011980717353E-01;7.823455431943734E-01;-4.010787409479528E-03;5.469343805583653E-04;3.599011980717353E-01;7.823455431943734E-01;-4.010787409479528E-03;5.469343805583653E-04;
5.375375375375375E+07;3.631944991066140E-01;7.911591345166680E-01;-3.645124837446393E-03;6.617146306540577E-04;3.631944991066140E-01;7.911591345166680E-01;-3.645124837446393E-03;6.617146306540577E-04;
5.400400400400400E+07;3.654248521634413E-01;7.983634486830781E-01;-3.371018930578172E-03;6.929929109431678E-04;3.654248521634413E-01;7.983634486830781E-01;-3.371018930578172E-03;6.929929109431678E-04;
5.425425425425425E+07;3.674561505018364E-01;8.045774543325983E-01;-3.142143503744929E-03;6.743476960570881E-04;3.674561505018364E-01;8.045774543325983E-01;-3.142143503744929E-03;6.743476960570881E-04;
5.450450450450450E+07;3.686861252002675E-01;8.100165101141388E-01;-2.911681303006062E-03;6.627693107320563E-04;3.686861252002675E-01;8.100165101141388E-01;-2.911681303006062E-03;6.627693107320563E-04;
5.475475475475475E+07;3.695367142683077E-01;8.146598962552566E-01;-2.774667360484392E-03;6.441395518210955E-04;3.695367142683077E-01;8.146598962552566E-01;-2.774667360484392E-03;6.441395518210955E-04;
5.500500500500500E+07;3.700335942830892E-01;8.191683144854901E-01;-2.516862407905643E-03;6.391168463124166E-04;3.700335942830892E-01;8.191683144854901E-01;-2.516862407905643E-03;6.391168463124166E-04;
5.525525525525525E+07;3.702115950375405E-01;8.227959111649877E-01;-2.425828452132707E-03;5.566176315539330E-04;3.702115950375405E-01;8.227959111649877E-01;-2.425828452132707E-03;5.566176315539330E-04;
5.550550550550550E+07;3.704807430711263E-01;8.262027101157775E-01;-2.282490983951481E-03;6.095090345596494E-04;3.704807430711263E-01;8.262027101157775E-01;-2.282490983951481E-03;6.095090345596494E-04;
5.575575575575575E+07;3.700620953963328E-01;8.289723206916229E-01;-2.164263147795992E-03;5.498769809492513E-04;3.700620953963328E-01;8.289723206916229E-01;-2.164263147795992E-03;5.498769809492513E-04;
5.600600600600600E+07;3.694893179410514E-01;8.311925270747171E-01;-2.091361641021328E-03;5.699869355955545E-04;3.694893179410514E-01;8.311925270747171E-01;-2.091361641021328E-03;5.699869355955545E-04;
5.625625625625625E+07;3.688807499643676E-01;8.333772499675223E-01;-1.970274552300404E-03;4.291180349604516E-04;3.688807499643676E-01;8.333772499675223E-01;-1.970274552300404E-03;4.291180349604516E-04;
5.650650650650650E+07;3.679089535382120E-01;8.351638447823513E-01;-1.840537120409707E-03;4.458942332756031E-04;3.679089535382120E-01;8.351638447823513E-01;-1.840537120409707E-03;4.458942332756031E-04;
5.675675675675675E+07;3.665086653609931E-01;8.367180476256150E-01;-1.771949186953752E-03;3.929978642938614E-04;3.665086653609931E-01;8.367180476256150E-01;-1.771949186953752E-03;3.929978642938614E-04;
5.700700700700700E+07;3.650912380219170E-01;8.377433528684390E-01;-1.805120667574996E-03;3.506910188522263E-04;3.650912380219170E-01;8.377433528684390E-01;-1.805120667574996E-03;3.506910188522263E-04;
5.725725725725726E+07;3.630299197206619E-01;8.387025227017713E-01;-1.729433151688199E-03;2.696646957163413E-04;3.630299197206619E-01;8.387025227017713E-01;-1.729433151688199E-03;2.696646957163413E-04;
5.750750750750751E+07;3.607775203068231E-01;8.397148694543426E-01;-1.645439370523012E-03;2.091686845256965E-04;3.607775203068231E-01;8.397148694543426E-01;-1.645439370523012E-03;2.091686845256965E-04;
5.775775775775776E+07;3.582978814087316E-01;8.406597294351568E-01;-1.591510964557518E-03;2.749098706407542E-04;3.582978814087316E-01;8.406597294351568E-01;-1.591510964557518E-03;2.749098706407542E-04;
5.800800800800801E+07;3.558063577142630E-01;8.413413954129162E-01;-1.599711675814509E-03;2.074642936633056E-04;3.558063577142630E-01;8.413413954129162E-01;-1.599711675814509E-03;2.074642936633056E-04;
5.825825825825826E+07;3.531265131206222E-01;8.420587689241519E-01;-1.588318637151297E-03;1.497833312172897E-04;3.531265131206222E-01;8.420587689241519E-01;-1.588318637151297E-03;1.497833312172897E-04;
5.850850850850851E+07;3.499550676812416E-01;8.424611112036127E-01;-1.511774403821506E-03;1.136922538417069E-04;3.499550676812416E-01;8.424611112036127E-01;-1.511774403821506E-03;1.136922538417069E-04;
5.875875875875876E+07;3.471091308756985E-01;8.427583170648335E-01;-1.491758890290888E-03;5.382285585027915E-05;3.471091308756985E-01;8.427583170648335E-01;-1.491758890290888E-03;5.382285585027915E-05;
5.900900900900901E+07;3.435170299086165E-01;8.430984545544803E-01;-1.485219799453484E-03;6.251703903875775E-05;3.435170299086165E-01;8.430984545544803E-01;-1.485219799453484E-03;6.251703903875775E-05;
5.925925925925926E+07;3.397215759367042E-01;8.434358506990376E-01;-1.450790851966745E-03;2.260920023467521E-05;3.397215759367042E-01;8.434358506990376E-01;-1.450790851966745E-03;2.260920023467521E-05;
5.950950950950951E+07;3.358496358665543E-01;8.442219676326896E-01;-1.437997121119356E-03;6.331541430082139E-06;3.358496358665543E-01;8.442219676326896E-01;-1.437997121119356E-03;6.331541430082139E-06;
5.975975975975976E+07;3.321143709757564E-01;8.449055159977081E-01;-1.342370670593954E-03;-7.992883726438930E-05;3.321143709757564E-01;8.449055159977081E-01;-1.342370670593954E-03;-7.992883726438930E-05;
6.001001001001001E+07;3.279058102205749E-01;8.460915875143651E-01;-1.413694462896673E-03;-2.543190788858765E-05;3.279058102205749E-01;8.460915875143651E-01;-1.413694462896673E-03;-2.543190788858765E-05;
6.026026026026026E+07;3.239886650724322E-01;8.475828554022979E-01;-1.396061631025400E-03;-3.389711172940226E-06;3.239886650724322E-01;8.475828554022979E-01;-1.396061631025400E-03;-3.389711172940226E-06;
6.051051051051051E+07;3.206236940295494E-01;8.493692125312883E-01;-1.399806607378979E-03;-9.547628359715892E-05;3.206236940295494E-01;8.493692125312883E-01;-1.399806607378979E-03;-9.547628359715892E-05;
6.076076076076076E+07;3.172780091814024E-01;8.510719095093682E-01;-1.419649269001660E-03;-8.588243945256561E-05;3.172780091814024E-01;8.510719095093682E-01;-1.419649269001660E-03;-8.588243945256561E-05;
6.101101101101101E+07;3.143694036443466E-01;8.530431275815380E-01;-1.380823169551734E-03;-9.612760401832429E-05;3.143694036443466E-01;8.530431275815380E-01;-1.380823169551734E-03;-9.612760401832429E-05;
6.126126126126126E+07;3.116209303841304E-01;8.547191392337051E-01;-1.399610581477682E-03;-1.098251874098390E-04;3.116209303841304E-01;8.547191392337051E-01;-1.399610581477682E-03;-1.098251874098390E-04;
6.151151151151151E+07;3.091261652925363E-01;8.565239968330651E-01;-1.316310579103307E-03;-1.401985682400556E-04;3.091261652925363E-01;8.565239968330651E-01;-1.316310579103307E-03;-1.401985682400556E-04;
6.176176176176176E+07;3.069824730030227E-01;8.579932829098948E-01;-1.359075233265372E-03;-1.240171833965653E-04;3.069824730030227E-01;8.579932829098948E-01;-1.359075233265372E-03;-1.240171833965653E-04;
6.201201201201201E+07;3.047263435222845E-01;8.591786329706842E-01;-1.320018573177999E-03;-1.175569193682441E-04;3.047263435222845E-01;8.591786329706842E-01;-1.320018573177999E-03;-1.175569193682441E-04;
6.226226226226226E+07;3.027774998338689E-01;8.604798627173136E-01;-1.297914787892643E-03;-1.342475672844903E-04;3.027774998338689E-01;8.604798627173136E-01;-1.297914787892643E-03;-1.342475672844903E-04;
6.251251251251251E+07;3.007059429761186E-01;8.614997133547340E-01;-1.343196677533082E-03;-1.422355488447122E-04;3.007059429761186E-01;8.614997133547340E-01;-1.343196677533082E-03;-1.422355488447122E-04;
6.276276276276276E+07;2.985266787253722E-01;8.625551304911006E-01;-1.244832592360206E-03;-1.252848280505107E-04;2.985266787253722E-01;8.625551304911006E-01;-1.244832592360206E-03;-1.252848280505107E-04;
6.301301301301301E+07;2.968282169008936E-01;8.634337783942264E-01;-1.313487801038505E-03;-1.864918019289119E-04;2.968282169008936E-01;8.634337783942264E-01;-1.313487801038505E-03;-1.864918019289119E-04;
6.326326326326326E+07;2.949323185486897E-01;8.642106547241527E-01;-1.248557844936769E-03;-1.397447312674602E-04;2.949323185486897E-01;8.642106547241527E-01;-1.248557844936769E-03;-1.397447312674602E-04;
6.351351351351351E+07;2.931005968927898E-01;8.651098384010297E-01;-1.201031745927174E-03;-2.147633684617077E-04;2.931005968927898E-01;8.651098384010297E-01;-1.201031745927174E-03;-2.147633684617077E-04;
6.376376376376376E+07;2.913406478693429E-01;8.656966175846460E-01;-1.215907299795417E-03;-2.253235858310428E-04;2.913406478693429E-01;8.656966175846460E-01;-1.215907299795417E-03;-2.253235858310428E-04;
6.401401401401401E+07;2.898591583409482E-01;8.664971075569760E-01;-1.202565560035820E-03;-2.481348245220820E-04;2.898591583409482E-01;8.664971075569760E-01;-1.202565560035820E-03;-2.481348245220820E-04;
6.426426426426426E+07;2.884860703772517E-01;8.671616471586452E-01;-1.215353935077231E-03;-2.441896338478249E-04;2.884860703772517E-01;8.671616471586452E-01;-1.215353935077231E-03;-2.441896338478249E-04;
6.451451451451451E+07;2.870824511210130E-01;8.677997076041950E-01;-1.209783150900706E-03;-2.872024530783525E-04;2.870824511210130E-01;8.677997076041950E-01;-1.209783150900706E-03;-2.872024530783525E-04;
6.476476476476476E+07;2.858762930484994E-01;8.682259651992063E-01;-1.238808653509912E-03;-3.007600356428010E-04;2.858762930484994E-01;8.682259651992063E-01;-1.238808653509912E-03;-3.007600356428010E-04;
6.501501501501501E+07;2.848969873759951E-01;8.685691861460954E-01;-1.207445213321553E-03;-3.170108089814687E-04;2.848969873759951E-01;8.685691861460954E-01;-1.207445213321553E-03;-3.170108089814687E-04;
6.526526526526526E+07;2.837874575502331E-01;8.687995590473753E-01;-1.205556700195015E-03;-3.386777256714453E-04;2.837874575502331E-01;8.687995590473753E-01;-1.205556700195015E-03;-3.386777256714453E-04;
6.551551551551551E+07;2.827959471324887E-01;8.690590873036383E-01;-1.231398813088445E-03;-3.306326419474136E-04;2.827959471324887E-01;8.690590873036383E-01;-1.231398813088445E-03;-3.306326419474136E-04;
6.576576576576576E+07;2.840085573925548E-01;8.696076403099349E-01;-1.213150162579625E-03;-3.287819734683981E-04;2.840085573925548E-01;8.696076403099349E-01;-1.213150162579625E-03;-3.287819734683981E-04;
6.601601601601601E+07;2.832506200839605E-01;8.696443437480559E-01;-1.209214286082338E-03;-3.580281552884762E-04;2.832506200839605E-01;8.696443437480559E-01;-1.209214286082338E-03;-3.580281552884762E-04;
6.626626626626626E+07;2.822325505054897E-01;8.694622632342788E-01;-1.166058486416722E-03;-3.739822460998361E-04;2.822325505054897E-01;8.694622632342788E-01;-1.166058486416722E-03;-3.739822460998361E-04;
6.651651651651651E+07;2.812581223119344E-01;8.696045623977019E-01;-1.218457592838066E-03;-4.077282418478206E-04;2.812581223119344E-01;8.696045623977019E-01;-1.218457592838066E-03;-4.077282418478206E-04;
6.676676676676676E+07;2.801435795705393E-01;8.695238261177015E-01;-1.219049162991748E-03;-4.121796678385715E-04;2.801435795705393E-01;8.695238261177015E-01;-1.219049162991748E-03;-4.121796678385715E-04;
6.701701701701702E+07;2.801767698347212E-01;8.688068328147830E-01;-1.217599771870208E-03;-4.135512843642819E-04;2.801767698347212E-01;8.688068328147830E-01;-1.217599771870208E-03;-4.135512843642819E-04;
6.726726726726727E+07;2.792867230480686E-01;8.688003827849045E-01;-1.177776535642197E-03;-4.480947968585080E-04;2.792867230480686E-01;8.688003827849045E-01;-1.177776535642197E-03;-4.480947968585080E-04;
6.751751751751752E+07;2.782000647256723E-01;8.688431276128569E-01;-1.148636896307819E-03;-4.387462087727757E-04;2.782000647256723E-01;8.688431276128569E-01;-1.148636896307819E-03;-4.387462087727757E-04;
6.776776776776777E+07;2.772540934753214E-01;8.689909653603574E-01;-1.166998931120783E-03;-4.788429807795629E-04;2.772540934753214E-01;8.689909653603574E-01;-1.166998931120783E-03;-4.788429807795629E-04;
6.801801801801802E+07;2.761199183770993E-01;8.689959830080762E-01;-1.136074346731217E-03;-4.850063808771096E-04;2.761199183770993E-01;8.689959830080762E-01;-1.136074346731217E-03;-4.850063808771096E-04;
6.826826826826827E+07;2.751917278415819E-01;8.688967677130558E-01;-1.131093673679886E-03;-4.996078418900723E-04;2.751917278415819E-01;8.688967677130558E-01;-1.131093673679886E-03;-4.996078418900723E-04;
6.851851851851852E+07;2.745280358848088E-01;8.688391967477802E-01;-1.159926377976931E-03;-5.582899884048683E-04;2.745280358848088E-01;8.688391967477802E-01;-1.159926377976931E-03;-5.582899884048683E-04;
6.876876876876877E+07;2.748955350582516E-01;8.676501971443310E-01;-1.152104405902339E-03;-5.382835562241886E-04;2.748955350582516E-01;8.676501971443310E-01;-1.152104405902339E-03;-5.382835562241886E-04;
6.901901901901902E+07;2.754936697218132E-01;8.667755926651436E-01;-1.120957732647611E-03;-6.364029758122824E-04;2.754936697218132E-01;8.667755926651436E-01;-1.120957732647611E-03;-6.364029758122824E-04;
6.926926926926927E+07;2.765565594476807E-01;8.655145410713810E-01;-1.151065299617930E-03;-6.124853668090935E-04;2.765565594476807E-01;8.655145410713810E-01;-1.151065299617930E-03;-6.124853668090935E-04;
6.951951951951952E+07;2.778085938732165E-01;8.640671367041738E-01;-1.119389155339273E-03;-6.314715556077379E-04;2.778085938732165E-01;8.640671367041738E-01;-1.119389155339273E-03;-6.314715556077379E-04;
6.976976976976977E+07;2.791685199181966E-01;8.627312610602275E-01;-1.122311083438513E-03;-6.535472752246786E-04;2.791685199181966E-01;8.627312610602275E-01;-1.122311083438513E-03;-6.535472752246786E-04;
7.002002002002002E+07;2.802504814479189E-01;8.613610305943125E-01;-1.138049136049847E-03;-7.295304368178632E-04;2.802504814479189E-01;8.613610305943125E-01;-1.138049136049847E-03;-7.295304368178632E-04;
7.027027027027027E+07;2.809097810552857E-01;8.601601020642499E-01;-1.088189538031953E-03;-6.823291756687869E-04;2.809097810552857E-01;8.601601020642499E-01;-1.088189538031953E-03;-6.823291756687869E-04;
7.052052052052052E+07;2.816021360222999E-01;8.591014402280945E-01;-1.138159015799502E-03;-7.263526445624051E-04;2.816021360222999E-01;8.591014402280945E-01;-1.138159015799502E-03;-7.263526445624051E-04;
7.077077077077077E+07;2.823991612201230E-01;8.581050661071926E-01;-1.098708762096410E-03;-7.518426188038223E-04;2.823991612201230E-01;8.581050661071926E-01;-1.098708762096410E-03;-7.518426188038223E-04;
7.102102102102102E+07;2.830062940335283E-01;8.570090324468643E-01;-1.123329521789615E-03;-7.666158943248396E-04;2.830062940335283E-01;8.570090324468643E-01;-1.123329521789615E-03;-7.666158943248396E-04;
7.127127127127127E+07;2.835831789522143E-01;8.556863526259729E-01;-1.108020969201567E-03;-7.827928033235379E-04;2.835831789522143E-01;8.556863526259729E-01;-1.108020969201567E-03;-7.827928033235379E-04;
7.152152152152152E+07;2.840099040732578E-01;8.548363396614800E-01;-1.140143960231459E-03;-8.147229941606779E-04;2.840099040732578E-01;8.548363396614800E-01;-1.140143960231459E-03;-8.147229941606779E-04;
7.177177177177177E+07;2.842020495519368E-01;8.538364080868454E-01;-1.133442174367961E-03;-8.422448364091482E-04;2.842020495519368E-01;8.538364080868454E-01;-1.133442174367961E-03;-8.422448364091482E-04;
7.202202202202202E+07;2.844969605410117E-01;8.528678825918301E-01;-1.152938488040580E-03;-8.955626896036843E-04;2.844969605410117E-01;8.528678825918301E-01;-1.152938488040580E-03;-8.955626896036843E-04;
7.227227227227227E+07;2.847670486571597E-01;8.518057554206150E-01;-1.134912406048513E-03;-9.065392057036205E-04;2.847670486571597E-01;8.518057554206150E-01;-1.134912406048513E-03;-9.065392057036205E-04;
7.252252252252252E+07;2.855232771335544E-01;8.507446989568656E-01;-1.130916583213408E-03;-9.440378770489960E-04;2.855232771335544E-01;8.507446989568656E-01;-1.130916583213408E-03;-9.440378770489960E-04;
7.277277277277277E+07;2.866743238056264E-01;8.494789248056984E-01;-1.121429965914435E-03;-9.574917925958600E-04;2.866743238056264E-01;8.494789248056984E-01;-1.121429965914435E-03;-9.574917925958600E-04;
7.302302302302302E+07;2.883338310524050E-01;8.480529725265868E-01;-1.112106835405009E-03;-9.598277198213231E-04;2.883338310524050E-01;8.480529725265868E-01;-1.112106835405009E-03;-9.598277198213231E-04;
7.327327327327327E+07;2.905460712481602E-01;8.465122151686769E-01;-1.153141489953806E-03;-1.057670530817515E-03;2.905460712481602E-01;8.465122151686769E-01;-1.153141489953806E-03;-1.057670530817515E-03;
7.352352352352352E+07;2.929054086027168E-01;8.446346648225274E-01;-1.121398415086808E-03;-1.058666065787626E-03;2.929054086027168E-01;8.446346648225274E-01;-1.121398415086808E-03;-1.058666065787626E-03;
7.377377377377377E+07;2.955439884625934E-01;8.429660510384385E-01;-1.071330901536996E-03;-1.090599789611680E-03;2.955439884625934E-01;8.429660510384385E-01;-1.071330901536996E-03;-1.090599789611680E-03;
7.402402402402402E+07;2.979887139142985E-01;8.412142429543918E-01;-1.103995893404574E-03;-1.125863604890876E-03;2.979887139142985E-01;8.412142429543918E-01;-1.103995893404574E-03;-1.125863604890876E-03;
