# Version 1.00
#
# Ref Impedances: Z01: 50, Z02: 50
# 
freq[Hz];re:ZMag1_S12;im:ZMag1_S12;re:SMag1_S11;im:SMag1_S11;re:ZPh1_S12;im:ZPh1_S12;re:SPh1_S11;im:SPh1_S11;
5.000000000000000E+07;-1.369332968462595E-03;-6.927754446243945E-03;5.842676310201380E-01;6.242790477145882E-01;-1.369332968462595E-03;-6.927754446243945E-03;5.842676310201380E-01;6.242790477145882E-01;
5.025025025025025E+07;-2.369670126560166E-03;-6.992666813396960E-03;5.665795014282743E-01;6.062018790649442E-01;-2.369670126560166E-03;-6.992666813396960E-03;5.665795014282743E-01;6.062018790649442E-01;
5.050050050050050E+07;-3.416169049823872E-03;-6.794407940957736E-03;5.407943297786219E-01;5.908429210407504E-01;-3.416169049823872E-03;-6.794407940957736E-03;5.407943297786219E-01;5.908429210407504E-01;
5.075075075075075E+07;-4.413721897753057E-03;-6.326758548205311E-03;5.090890776393739E-01;5.800247950686498E-01;-4.413721897753057E-03;-6.326758548205311E-03;5.090890776393739E-01;5.800247950686498E-01;
5.100100100100100E+07;-5.273862130257875E-03;-5.623783908852117E-03;4.722294337271484E-01;5.787237467099108E-01;-5.273862130257875E-03;-5.623783908852117E-03;4.722294337271484E-01;5.787237467099108E-01;
5.125125125125125E+07;-5.898657601037948E-03;-4.670840577002171E-03;4.345387631885160E-01;5.881188973269865E-01;-5.898657601037948E-03;-4.670840577002171E-03;4.345387631885160E-01;5.881188973269865E-01;
5.150150150150150E+07;-6.261560778863258E-03;-3.663814715982770E-03;4.003065843995926E-01;6.074033627062118E-01;-6.261560778863258E-03;-3.663814715982770E-03;4.003065843995926E-01;6.074033627062118E-01;
5.175175175175175E+07;-6.321267288831059E-03;-2.658472909610697E-03;3.733685008448919E-01;6.339883858151122E-01;-6.321267288831059E-03;-2.658472909610697E-03;3.733685008448919E-01;6.339883858151122E-01;
5.200200200200200E+07;-6.161103701641724E-03;-1.755396230085181E-03;3.551347841447017E-01;6.640181805576306E-01;-6.161103701641724E-03;-1.755396230085181E-03;3.551347841447017E-01;6.640181805576306E-01;
5.225225225225225E+07;-5.833797103806131E-03;-1.024630300837938E-03;3.452184253118283E-01;6.933665658612801E-01;-5.833797103806131E-03;-1.024630300837938E-03;3.452184253118283E-01;6.933665658612801E-01;
5.250250250250250E+07;-5.393639447076152E-03;-4.848554461908412E-04;3.418121744572601E-01;7.197508009043531E-01;-5.393639447076152E-03;-4.848554461908412E-04;3.418121744572601E-01;7.197508009043531E-01;
5.275275275275275E+07;-4.975793015576647E-03;-8.563946080592467E-05;3.422363724906675E-01;7.415388173237655E-01;-4.975793015576647E-03;-8.563946080592467E-05;3.422363724906675E-01;7.415388173237655E-01;
5.300300300300300E+07;-4.557700602248094E-03;2.108773732332308E-04;3.449890290656074E-01;7.593785418037432E-01;-4.557700602248094E-03;2.108773732332308E-04;3.449890290656074E-01;7.593785418037432E-01;
5.325325325325325E+07;-4.169491318994826E-03;3.899670922461580E-04;3.486089460975412E-01;7.735450511432647E-01;-4.169491318994826E-03;3.899670922461580E-04;3.486089460975412E-01;7.735450511432647E-01;
5.350350350350350E+07;-3.801833323873948E-03;4.924419814518651E-04;3.523608899876562E-01;7.848730038291419E-01;-3.801833323873948E-03;4.924419814518651E-04;3.523608899876562E-01;7.848730038291419E-01;
5.375375375375375E+07;-3.525671560999932E-03;5.385814214026540E-04;3.552547833427813E-01;7.936431721407697E-01;-3.525671560999932E-03;5.385814214026540E-04;3.552547833427813E-01;7.936431721407697E-01;
5.400400400400400E+07;-3.268100619941243E-03;5.854166083477446E-04;3.577851965095621E-01;8.008969402433733E-01;-3.268100619941243E-03;5.854166083477446E-04;3.577851965095621E-01;8.008969402433733E-01;
5.425425425425425E+07;-3.026741505874737E-03;5.900139260802963E-04;3.594868049220085E-01;8.071114598325310E-01;-3.026741505874737E-03;5.900139260802963E-04;3.594868049220085E-01;8.071114598325310E-01;
5.450450450450450E+07;-2.853726526150710E-03;5.915838046510258E-04;3.607008423624798E-01;8.122357635068390E-01;-2.853726526150710E-03;5.915838046510258E-04;3.607008423624798E-01;8.122357635068390E-01;
5.475475475475475E+07;-2.680680110521665E-03;5.868367405267923E-04;3.615123811662868E-01;8.169645250093409E-01;-2.680680110521665E-03;5.868367405267923E-04;3.615123811662868E-01;8.169645250093409E-01;
5.500500500500500E+07;-2.530105490669917E-03;5.565574641335992E-04;3.618021434558696E-01;8.209074580230435E-01;-2.530105490669917E-03;5.565574641335992E-04;3.618021434558696E-01;8.209074580230435E-01;
5.525525525525525E+07;-2.383616676607495E-03;5.452091548919249E-04;3.621065743183770E-01;8.247018311184169E-01;-2.383616676607495E-03;5.452091548919249E-04;3.621065743183770E-01;8.247018311184169E-01;
5.550550550550550E+07;-2.249701846996527E-03;5.277118021174104E-04;3.617852402638924E-01;8.278782942293715E-01;-2.249701846996527E-03;5.277118021174104E-04;3.617852402638924E-01;8.278782942293715E-01;
5.575575575575575E+07;-2.153226730127342E-03;4.962483044237220E-04;3.616635973772063E-01;8.306696774173781E-01;-2.153226730127342E-03;4.962483044237220E-04;3.616635973772063E-01;8.306696774173781E-01;
5.600600600600600E+07;-2.041657871917417E-03;4.605900464794893E-04;3.610383529478085E-01;8.328559929100752E-01;-2.041657871917417E-03;4.605900464794893E-04;3.610383529478085E-01;8.328559929100752E-01;
5.625625625625625E+07;-1.960464159502403E-03;4.546134858201947E-04;3.602399467787952E-01;8.348020639605119E-01;-1.960464159502403E-03;4.546134858201947E-04;3.602399467787952E-01;8.348020639605119E-01;
5.650650650650650E+07;-1.886835031174309E-03;3.876902828559309E-04;3.591047511171290E-01;8.364608490751099E-01;-1.886835031174309E-03;3.876902828559309E-04;3.591047511171290E-01;8.364608490751099E-01;
5.675675675675675E+07;-1.808480092812798E-03;3.556164799822071E-04;3.576713762650568E-01;8.378615465807951E-01;-1.808480092812798E-03;3.556164799822071E-04;3.576713762650568E-01;8.378615465807951E-01;
5.700700700700700E+07;-1.749821729485785E-03;3.193169186195555E-04;3.561582160623835E-01;8.390050805200572E-01;-1.749821729485785E-03;3.193169186195555E-04;3.561582160623835E-01;8.390050805200572E-01;
5.725725725725726E+07;-1.699920774372617E-03;2.838381357260805E-04;3.540027985616230E-01;8.399643554513767E-01;-1.699920774372617E-03;2.838381357260805E-04;3.540027985616230E-01;8.399643554513767E-01;
5.750750750750751E+07;-1.637852415664172E-03;2.530160388859206E-04;3.519373662839396E-01;8.408199932281759E-01;-1.637852415664172E-03;2.530160388859206E-04;3.519373662839396E-01;8.408199932281759E-01;
5.775775775775776E+07;-1.607870227065806E-03;2.232090332650256E-04;3.494512599682377E-01;8.415793311711803E-01;-1.607870227065806E-03;2.232090332650256E-04;3.494512599682377E-01;8.415793311711803E-01;
5.800800800800801E+07;-1.582408771113108E-03;1.744185485747763E-04;3.523182400737475E-01;8.394814774615202E-01;-1.582408771113108E-03;1.744185485747763E-04;3.523182400737475E-01;8.394814774615202E-01;
5.825825825825826E+07;-1.538469653480279E-03;1.523144941726192E-04;3.495273942270886E-01;8.400652564210905E-01;-1.538469653480279E-03;1.523144941726192E-04;3.495273942270886E-01;8.400652564210905E-01;
5.850850850850851E+07;-1.487579351182495E-03;1.080301951058509E-04;3.468006932358179E-01;8.405095689809987E-01;-1.487579351182495E-03;1.080301951058509E-04;3.468006932358179E-01;8.405095689809987E-01;
5.875875875875876E+07;-1.465562293024634E-03;7.542855749972379E-05;3.435192577775251E-01;8.407712123036390E-01;-1.465562293024634E-03;7.542855749972379E-05;3.435192577775251E-01;8.407712123036390E-01;
5.900900900900901E+07;-1.462611142647040E-03;6.477826874252297E-05;3.402096459801240E-01;8.410097053279488E-01;-1.462611142647040E-03;6.477826874252297E-05;3.402096459801240E-01;8.410097053279488E-01;
5.925925925925926E+07;-1.435909253790193E-03;1.906960226747577E-05;3.364402700617854E-01;8.415040199524101E-01;-1.435909253790193E-03;1.906960226747577E-05;3.364402700617854E-01;8.415040199524101E-01;
5.950950950950951E+07;-1.433277518780405E-03;1.126626038031162E-05;3.326393320006981E-01;8.419654389403243E-01;-1.433277518780405E-03;1.126626038031162E-05;3.326393320006981E-01;8.419654389403243E-01;
5.975975975975976E+07;-1.396258814702105E-03;-5.034575691382440E-05;3.285892712065037E-01;8.428044562197670E-01;-1.396258814702105E-03;-5.034575691382440E-05;3.285892712065037E-01;8.428044562197670E-01;
6.001001001001001E+07;-1.391453600749423E-03;-4.259209235615228E-05;3.244891774718736E-01;8.439504470013017E-01;-1.391453600749423E-03;-4.259209235615228E-05;3.244891774718736E-01;8.439504470013017E-01;
6.026026026026026E+07;-1.383951462992782E-03;-5.010468764067414E-05;3.206790553214362E-01;8.454185589177190E-01;-1.383951462992782E-03;-5.010468764067414E-05;3.206790553214362E-01;8.454185589177190E-01;
6.051051051051051E+07;-1.388877749097513E-03;-8.203677523144676E-05;3.172051989584506E-01;8.471219740802697E-01;-1.388877749097513E-03;-8.203677523144676E-05;3.172051989584506E-01;8.471219740802697E-01;
6.076076076076076E+07;-1.379712415683461E-03;-8.459376038780973E-05;3.138217495310298E-01;8.490273447975194E-01;-1.379712415683461E-03;-8.459376038780973E-05;3.138217495310298E-01;8.490273447975194E-01;
6.101101101101101E+07;-1.367942416051804E-03;-1.059446056044462E-04;3.111423074584100E-01;8.507952440170926E-01;-1.367942416051804E-03;-1.059446056044462E-04;3.111423074584100E-01;8.507952440170926E-01;
6.126126126126126E+07;-1.364900532270597E-03;-1.112875042809202E-04;3.083794130277741E-01;8.525861404527710E-01;-1.364900532270597E-03;-1.112875042809202E-04;3.083794130277741E-01;8.525861404527710E-01;
6.151151151151151E+07;-1.352880226769308E-03;-1.309300224577353E-04;3.060501749176260E-01;8.542197306067150E-01;-1.352880226769308E-03;-1.309300224577353E-04;3.060501749176260E-01;8.542197306067150E-01;
6.176176176176176E+07;-1.362065417648884E-03;-1.368495932864215E-04;3.036517934220706E-01;8.557307199174926E-01;-1.362065417648884E-03;-1.368495932864215E-04;3.036517934220706E-01;8.557307199174926E-01;
6.201201201201201E+07;-1.326231270250529E-03;-1.309314946175880E-04;3.017204694588661E-01;8.570050780474895E-01;-1.326231270250529E-03;-1.309314946175880E-04;3.017204694588661E-01;8.570050780474895E-01;
6.226226226226226E+07;-1.321546004703722E-03;-1.615328305683604E-04;2.995540493832998E-01;8.582382502586459E-01;-1.321546004703722E-03;-1.615328305683604E-04;2.995540493832998E-01;8.582382502586459E-01;
6.251251251251251E+07;-1.314675372605953E-03;-1.945166080641362E-04;2.977074296555368E-01;8.591588701497982E-01;-1.314675372605953E-03;-1.945166080641362E-04;2.977074296555368E-01;8.591588701497982E-01;
6.276276276276276E+07;-1.264369359112056E-03;-1.909865678970632E-04;2.958386826833054E-01;8.601774801727928E-01;-1.264369359112056E-03;-1.909865678970632E-04;2.958386826833054E-01;8.601774801727928E-01;
6.301301301301301E+07;-1.275780883016026E-03;-1.943616139206355E-04;2.939626404119882E-01;8.610231294439245E-01;-1.275780883016026E-03;-1.943616139206355E-04;2.939626404119882E-01;8.610231294439245E-01;
6.326326326326326E+07;-1.271027592437795E-03;-2.021733630921970E-04;2.921695731888231E-01;8.617927573764788E-01;-1.271027592437795E-03;-2.021733630921970E-04;2.921695731888231E-01;8.617927573764788E-01;
6.351351351351351E+07;-1.259069870186525E-03;-2.200206971821177E-04;2.905822608925572E-01;8.625567212830445E-01;-1.259069870186525E-03;-2.200206971821177E-04;2.905822608925572E-01;8.625567212830445E-01;
6.376376376376376E+07;-1.264925952571473E-03;-2.409604705386154E-04;2.889306862361031E-01;8.632001425236252E-01;-1.264925952571473E-03;-2.409604705386154E-04;2.889306862361031E-01;8.632001425236252E-01;
6.401401401401401E+07;-1.242333858782478E-03;-2.694115644371083E-04;2.873998700159718E-01;8.640106840369539E-01;-1.242333858782478E-03;-2.694115644371083E-04;2.873998700159718E-01;8.640106840369539E-01;
6.426426426426426E+07;-1.237422019443515E-03;-2.610284398478868E-04;2.859982276322788E-01;8.645670483365477E-01;-1.237422019443515E-03;-2.610284398478868E-04;2.859982276322788E-01;8.645670483365477E-01;
6.451451451451451E+07;-1.242374033357021E-03;-2.839674796627374E-04;2.848729331850513E-01;8.650313598937683E-01;-1.242374033357021E-03;-2.839674796627374E-04;2.848729331850513E-01;8.650313598937683E-01;
6.476476476476476E+07;-1.226028398413030E-03;-3.235665339104287E-04;2.837108840383907E-01;8.654284646637563E-01;-1.226028398413030E-03;-3.235665339104287E-04;2.837108840383907E-01;8.654284646637563E-01;
6.501501501501501E+07;-1.210833207398357E-03;-3.096992976794153E-04;2.826849030205031E-01;8.657804651713150E-01;-1.210833207398357E-03;-3.096992976794153E-04;2.826849030205031E-01;8.657804651713150E-01;
6.526526526526526E+07;-1.205362619050199E-03;-3.403876746843609E-04;2.816277392641928E-01;8.659591476726120E-01;-1.205362619050199E-03;-3.403876746843609E-04;2.816277392641928E-01;8.659591476726120E-01;
6.551551551551551E+07;-1.197312937360740E-03;-3.327442391187126E-04;2.807328648578020E-01;8.660555500889658E-01;-1.197312937360740E-03;-3.327442391187126E-04;2.807328648578020E-01;8.660555500889658E-01;
6.576576576576576E+07;-1.196509126015506E-03;-3.556510602620589E-04;2.721433981227918E-01;8.691994348619648E-01;-1.196509126015506E-03;-3.556510602620589E-04;2.721433981227918E-01;8.691994348619648E-01;
6.601601601601601E+07;-1.189313343383158E-03;-3.735268153513455E-04;2.713370225642667E-01;8.691291020968909E-01;-1.189313343383158E-03;-3.735268153513455E-04;2.713370225642667E-01;8.691291020968909E-01;
6.626626626626626E+07;-1.174144338568764E-03;-3.833001700201485E-04;2.703907778027805E-01;8.691131182664001E-01;-1.174144338568764E-03;-3.833001700201485E-04;2.703907778027805E-01;8.691131182664001E-01;
6.651651651651651E+07;-1.181548832158634E-03;-4.083999759763838E-04;2.693344344341206E-01;8.691522287845037E-01;-1.181548832158634E-03;-4.083999759763838E-04;2.693344344341206E-01;8.691522287845037E-01;
6.676676676676676E+07;-1.171411681039504E-03;-4.146307014578030E-04;2.682430586564549E-01;8.691957748802316E-01;-1.171411681039504E-03;-4.146307014578030E-04;2.682430586564549E-01;8.691957748802316E-01;
6.701701701701702E+07;-1.185880747066443E-03;-4.575196570556502E-04;2.682780655718008E-01;8.685566236542073E-01;-1.185880747066443E-03;-4.575196570556502E-04;2.682780655718008E-01;8.685566236542073E-01;
6.726726726726727E+07;-1.168048780131609E-03;-4.585757689753926E-04;2.674195490342313E-01;8.684861292153923E-01;-1.168048780131609E-03;-4.585757689753926E-04;2.674195490342313E-01;8.684861292153923E-01;
6.751751751751752E+07;-1.165263312236791E-03;-4.675916049810404E-04;2.665054468637620E-01;8.685735934006782E-01;-1.165263312236791E-03;-4.675916049810404E-04;2.665054468637620E-01;8.685735934006782E-01;
6.776776776776777E+07;-1.160103071033221E-03;-4.910561947814462E-04;2.654180156190616E-01;8.687627703733621E-01;-1.160103071033221E-03;-4.910561947814462E-04;2.654180156190616E-01;8.687627703733621E-01;
6.801801801801802E+07;-1.145400770878571E-03;-5.034087643279581E-04;2.643712422955839E-01;8.688955018832999E-01;-1.145400770878571E-03;-5.034087643279581E-04;2.643712422955839E-01;8.688955018832999E-01;
6.826826826826827E+07;-1.144995246862555E-03;-5.225905052218692E-04;2.633794009701304E-01;8.688896051654367E-01;-1.144995246862555E-03;-5.225905052218692E-04;2.633794009701304E-01;8.688896051654367E-01;
6.851851851851852E+07;-1.149011549766756E-03;-5.343739701620078E-04;2.628849369754518E-01;8.687298243717881E-01;-1.149011549766756E-03;-5.343739701620078E-04;2.628849369754518E-01;8.687298243717881E-01;
6.876876876876877E+07;-1.138673579949473E-03;-5.603674197080378E-04;2.670536799107731E-01;8.677519391769760E-01;-1.138673579949473E-03;-5.603674197080378E-04;2.670536799107731E-01;8.677519391769760E-01;
6.901901901901902E+07;-1.147734510649020E-03;-5.985056851150321E-04;2.676749650808695E-01;8.669176463574093E-01;-1.147734510649020E-03;-5.985056851150321E-04;2.676749650808695E-01;8.669176463574093E-01;
6.926926926926927E+07;-1.129350070164427E-03;-6.257400649270111E-04;2.688064989148050E-01;8.657919119809770E-01;-1.129350070164427E-03;-6.257400649270111E-04;2.688064989148050E-01;8.657919119809770E-01;
6.951951951951952E+07;-1.129849191117436E-03;-6.470441844571550E-04;2.701729785800890E-01;8.645658182784652E-01;-1.129849191117436E-03;-6.470441844571550E-04;2.701729785800890E-01;8.645658182784652E-01;
6.976976976976977E+07;-1.116218505262223E-03;-6.702149806844435E-04;2.715924667933657E-01;8.631018320078530E-01;-1.116218505262223E-03;-6.702149806844435E-04;2.715924667933657E-01;8.631018320078530E-01;
7.002002002002002E+07;-1.115407279201326E-03;-6.813280763947129E-04;2.727034079622501E-01;8.617947036202184E-01;-1.115407279201326E-03;-6.813280763947129E-04;2.727034079622501E-01;8.617947036202184E-01;
7.027027027027027E+07;-1.109703884607560E-03;-7.138537127852019E-04;2.735192588693109E-01;8.607495433731295E-01;-1.109703884607560E-03;-7.138537127852019E-04;2.735192588693109E-01;8.607495433731295E-01;
7.052052052052052E+07;-1.103971363596323E-03;-7.478830403832341E-04;2.742501642775449E-01;8.597435403845737E-01;-1.103971363596323E-03;-7.478830403832341E-04;2.742501642775449E-01;8.597435403845737E-01;
7.077077077077077E+07;-1.116417180676511E-03;-7.579789389591985E-04;2.750158581770797E-01;8.587833815339954E-01;-1.116417180676511E-03;-7.579789389591985E-04;2.750158581770797E-01;8.587833815339954E-01;
7.102102102102102E+07;-1.110116150441663E-03;-7.848015957006965E-04;2.756972721204302E-01;8.577679631670796E-01;-1.110116150441663E-03;-7.848015957006965E-04;2.756972721204302E-01;8.577679631670796E-01;
7.127127127127127E+07;-1.114344992105977E-03;-7.960048353411461E-04;2.762632853625918E-01;8.567696782350914E-01;-1.114344992105977E-03;-7.960048353411461E-04;2.762632853625918E-01;8.567696782350914E-01;
7.152152152152152E+07;-1.111438168578065E-03;-8.299876093384907E-04;2.768242074510845E-01;8.557410606653605E-01;-1.111438168578065E-03;-8.299876093384907E-04;2.768242074510845E-01;8.557410606653605E-01;
7.177177177177177E+07;-1.110680916606582E-03;-8.563464380184424E-04;2.771431714218900E-01;8.547350868479843E-01;-1.110680916606582E-03;-8.563464380184424E-04;2.771431714218900E-01;8.547350868479843E-01;
7.202202202202202E+07;-1.111329124411096E-03;-8.804731114077059E-04;2.773389670805406E-01;8.539174340295811E-01;-1.111329124411096E-03;-8.804731114077059E-04;2.773389670805406E-01;8.539174340295811E-01;
7.227227227227227E+07;-1.116996963125272E-03;-9.212486195675474E-04;2.778432002379515E-01;8.530266506164899E-01;-1.116996963125272E-03;-9.212486195675474E-04;2.778432002379515E-01;8.530266506164899E-01;
7.252252252252252E+07;-1.107546710704179E-03;-9.419955237769935E-04;2.785110938462024E-01;8.520993847002243E-01;-1.107546710704179E-03;-9.419955237769935E-04;2.785110938462024E-01;8.520993847002243E-01;
7.277277277277277E+07;-1.110675261033733E-03;-9.677412207379354E-04;2.796738607620721E-01;8.508143787392580E-01;-1.110675261033733E-03;-9.677412207379354E-04;2.796738607620721E-01;8.508143787392580E-01;
7.302302302302302E+07;-1.111352492584012E-03;-9.972769291284871E-04;2.815078836482050E-01;8.494891972207983E-01;-1.111352492584012E-03;-9.972769291284871E-04;2.815078836482050E-01;8.494891972207983E-01;
7.327327327327327E+07;-1.124435753849061E-03;-1.027991631743969E-03;2.836194405537568E-01;8.479016964631946E-01;-1.124435753849061E-03;-1.027991631743969E-03;2.836194405537568E-01;8.479016964631946E-01;
7.352352352352352E+07;-1.123427574376428E-03;-1.063079840830419E-03;2.861376977039977E-01;8.462692988362942E-01;-1.123427574376428E-03;-1.063079840830419E-03;2.861376977039977E-01;8.462692988362942E-01;
7.377377377377377E+07;-1.120431883513031E-03;-1.093545600833492E-03;2.887657287171870E-01;8.446206862608744E-01;-1.120431883513031E-03;-1.093545600833492E-03;2.887657287171870E-01;8.446206862608744E-01;
7.402402402402402E+07;-1.122480773040596E-03;-1.122133796577815E-03;2.913593946643778E-01;8.429523461057429E-01;-1.122480773040596E-03;-1.122133796577815E-03;2.913593946643778E-01;8.429523461057429E-01;
