# Version 1.00
#
# Ref Impedances: Z01: 50, Z02: 50
# 
freq[Hz];re:SMag2_S11;im:SMag2_S11;re:ZPh2_S12;im:ZPh2_S12;re:SPh2_S11;im:SPh2_S11;re:ZMag2_S12;im:ZMag2_S12;
5.000000000000000E+07;4.542007064002443E-01;6.401149548354635E-01;-8.163895785469489E-03;-1.953591127012992E-03;4.542007064002443E-01;6.401149548354635E-01;-8.163895785469489E-03;-1.953591127012992E-03;
5.025025025025025E+07;4.519239315561814E-01;6.627760497236410E-01;-7.175038617644997E-03;-8.535004258654681E-04;4.519239315561814E-01;6.627760497236410E-01;-7.175038617644997E-03;-8.535004258654681E-04;
5.050050050050050E+07;4.528173551112132E-01;6.765765258578199E-01;-6.368705288682807E-03;-3.282793426681856E-04;4.528173551112132E-01;6.765765258578199E-01;-6.368705288682807E-03;-3.282793426681856E-04;
5.075075075075075E+07;4.519082387203839E-01;6.842496039081579E-01;-5.695257966931481E-03;-1.148720949873626E-04;4.519082387203839E-01;6.842496039081579E-01;-5.695257966931481E-03;-1.148720949873626E-04;
5.100100100100100E+07;4.478399765417764E-01;6.888061103790163E-01;-5.264616759133961E-03;-3.725576317256411E-05;4.478399765417764E-01;6.888061103790163E-01;-5.264616759133961E-03;-3.725576317256411E-05;
5.125125125125125E+07;4.404759758431108E-01;6.930186616562295E-01;-4.925365910929541E-03;3.090304381618999E-06;4.404759758431108E-01;6.930186616562295E-01;-4.925365910929541E-03;3.090304381618999E-06;
5.150150150150150E+07;4.303413893272137E-01;6.990818033452525E-01;-4.803821164103660E-03;9.420817104536733E-05;4.303413893272137E-01;6.990818033452525E-01;-4.803821164103660E-03;9.420817104536733E-05;
5.175175175175175E+07;4.193973386856072E-01;7.089445740158717E-01;-4.653263240082328E-03;2.552248568733975E-04;4.193973386856072E-01;7.089445740158717E-01;-4.653263240082328E-03;2.552248568733975E-04;
5.200200200200200E+07;4.098566186159179E-01;7.184740330819772E-01;-4.458908632122225E-03;4.029731765199116E-04;4.098566186159179E-01;7.184740330819772E-01;-4.458908632122225E-03;4.029731765199116E-04;
5.225225225225225E+07;4.023611410897442E-01;7.308136984782807E-01;-4.305387223816706E-03;5.434779109241444E-04;4.023611410897442E-01;7.308136984782807E-01;-4.305387223816706E-03;5.434779109241444E-04;
5.250250250250250E+07;3.967214258965396E-01;7.437971157932716E-01;-4.117548311113806E-03;7.006544928859416E-04;3.967214258965396E-01;7.437971157932716E-01;-4.117548311113806E-03;7.006544928859416E-04;
5.275275275275275E+07;3.935685619452127E-01;7.560539836157582E-01;-3.948362088317304E-03;7.784471534995007E-04;3.935685619452127E-01;7.560539836157582E-01;-3.948362088317304E-03;7.784471534995007E-04;
5.300300300300300E+07;3.916513115279813E-01;7.676965122936366E-01;-3.754122533289538E-03;8.936792067936117E-04;3.916513115279813E-01;7.676965122936366E-01;-3.754122533289538E-03;8.936792067936117E-04;
5.325325325325325E+07;3.908634978183249E-01;7.774920748457461E-01;-3.485350432333060E-03;9.745234598907539E-04;3.908634978183249E-01;7.774920748457461E-01;-3.485350432333060E-03;9.745234598907539E-04;
5.350350350350350E+07;3.907560286486160E-01;7.865262839305741E-01;-3.272173820712605E-03;9.830805759707209E-04;3.907560286486160E-01;7.865262839305741E-01;-3.272173820712605E-03;9.830805759707209E-04;
5.375375375375375E+07;3.909822136266088E-01;7.941473296453986E-01;-3.140511269810267E-03;9.489402274235574E-04;3.909822136266088E-01;7.941473296453986E-01;-3.140511269810267E-03;9.489402274235574E-04;
5.400400400400400E+07;3.912876695105382E-01;8.010076946239599E-01;-3.054719181850435E-03;1.003625745637241E-03;3.912876695105382E-01;8.010076946239599E-01;-3.054719181850435E-03;1.003625745637241E-03;
5.425425425425425E+07;3.919313862746047E-01;8.070427860365258E-01;-2.868889354169154E-03;1.006723874693311E-03;3.919313862746047E-01;8.070427860365258E-01;-2.868889354169154E-03;1.006723874693311E-03;
5.450450450450450E+07;3.920938462150121E-01;8.120334642277033E-01;-2.713710833647287E-03;9.761811507199846E-04;3.920938462150121E-01;8.120334642277033E-01;-2.713710833647287E-03;9.761811507199846E-04;
5.475475475475475E+07;3.920759177750860E-01;8.165999444442900E-01;-2.534184456020288E-03;9.196068247841780E-04;3.920759177750860E-01;8.165999444442900E-01;-2.534184456020288E-03;9.196068247841780E-04;
5.500500500500500E+07;3.921639694866034E-01;8.205001725003352E-01;-2.512587422674793E-03;9.172216060939393E-04;3.921639694866034E-01;8.205001725003352E-01;-2.512587422674793E-03;9.172216060939393E-04;
5.525525525525525E+07;3.920050932111550E-01;8.239104177208236E-01;-2.394312088937806E-03;8.853598782695250E-04;3.920050932111550E-01;8.239104177208236E-01;-2.394312088937806E-03;8.853598782695250E-04;
5.550550550550550E+07;3.916338490276304E-01;8.268360272275722E-01;-2.365053878462866E-03;8.487393749455763E-04;3.916338490276304E-01;8.268360272275722E-01;-2.365053878462866E-03;8.487393749455763E-04;
5.575575575575575E+07;3.915149720092790E-01;8.295955993676886E-01;-2.193438013500539E-03;7.974845105254981E-04;3.915149720092790E-01;8.295955993676886E-01;-2.193438013500539E-03;7.974845105254981E-04;
5.600600600600600E+07;3.908015068449484E-01;8.318245035681949E-01;-2.184675815685465E-03;8.019900943491692E-04;3.908015068449484E-01;8.318245035681949E-01;-2.184675815685465E-03;8.019900943491692E-04;
5.625625625625625E+07;3.898755500439867E-01;8.340661006622309E-01;-2.099554183609635E-03;7.268878012069702E-04;3.898755500439867E-01;8.340661006622309E-01;-2.099554183609635E-03;7.268878012069702E-04;
5.650650650650650E+07;3.890101745443610E-01;8.354188364088367E-01;-1.987752077735584E-03;6.845199663646278E-04;3.890101745443610E-01;8.354188364088367E-01;-1.987752077735584E-03;6.845199663646278E-04;
5.675675675675675E+07;3.877211444052530E-01;8.369932007085318E-01;-1.948809376751729E-03;6.371888905283298E-04;3.877211444052530E-01;8.369932007085318E-01;-1.948809376751729E-03;6.371888905283298E-04;
5.700700700700700E+07;3.864120801025994E-01;8.381700816345337E-01;-1.965009374729530E-03;6.376995351929769E-04;3.864120801025994E-01;8.381700816345337E-01;-1.965009374729530E-03;6.376995351929769E-04;
5.725725725725726E+07;3.848061435840005E-01;8.391058285725449E-01;-1.899327336644826E-03;5.450767278957909E-04;3.848061435840005E-01;8.391058285725449E-01;-1.899327336644826E-03;5.450767278957909E-04;
5.750750750750751E+07;3.831119174967481E-01;8.401037712532338E-01;-1.889581404190264E-03;5.392471966967803E-04;3.831119174967481E-01;8.401037712532338E-01;-1.889581404190264E-03;5.392471966967803E-04;
5.775775775775776E+07;3.811868121206565E-01;8.409360699499381E-01;-1.831566477156906E-03;4.787127205708643E-04;3.811868121206565E-01;8.409360699499381E-01;-1.831566477156906E-03;4.787127205708643E-04;
5.800800800800801E+07;3.793666310767180E-01;8.414398100769540E-01;-1.875705350856266E-03;4.346758272026135E-04;3.793666310767180E-01;8.414398100769540E-01;-1.875705350856266E-03;4.346758272026135E-04;
5.825825825825826E+07;3.774865893871651E-01;8.421511892419601E-01;-1.769107970356869E-03;4.080935727098814E-04;3.774865893871651E-01;8.421511892419601E-01;-1.769107970356869E-03;4.080935727098814E-04;
5.850850850850851E+07;3.754778867137247E-01;8.422650850472440E-01;-1.751750524763073E-03;3.684027573527216E-04;3.754778867137247E-01;8.422650850472440E-01;-1.751750524763073E-03;3.684027573527216E-04;
5.875875875875876E+07;3.735589513399556E-01;8.421149983673968E-01;-1.724248489796550E-03;3.555260487267995E-04;3.735589513399556E-01;8.421149983673968E-01;-1.724248489796550E-03;3.555260487267995E-04;
5.900900900900901E+07;3.710187839555905E-01;8.417227449694439E-01;-1.714832786169635E-03;2.909404121291572E-04;3.710187839555905E-01;8.417227449694439E-01;-1.714832786169635E-03;2.909404121291572E-04;
5.925925925925926E+07;3.684563540743908E-01;8.410675365457839E-01;-1.736983734102041E-03;2.168189928027260E-04;3.684563540743908E-01;8.410675365457839E-01;-1.736983734102041E-03;2.168189928027260E-04;
5.950950950950951E+07;3.653154710800665E-01;8.402236662424483E-01;-1.658096595136279E-03;1.796454540959546E-04;3.653154710800665E-01;8.402236662424483E-01;-1.658096595136279E-03;1.796454540959546E-04;
5.975975975975976E+07;3.614693455022181E-01;8.391676353830031E-01;-1.627194767925972E-03;1.271199464973532E-04;3.614693455022181E-01;8.391676353830031E-01;-1.627194767925972E-03;1.271199464973532E-04;
6.001001001001001E+07;3.569795265629562E-01;8.387957738799346E-01;-1.633631481157202E-03;6.343989308789923E-05;3.569795265629562E-01;8.387957738799346E-01;-1.633631481157202E-03;6.343989308789923E-05;
6.026026026026026E+07;3.525654939636963E-01;8.390498297950322E-01;-1.690665486235996E-03;3.740902574594341E-05;3.525654939636963E-01;8.390498297950322E-01;-1.690665486235996E-03;3.740902574594341E-05;
6.051051051051051E+07;3.478597969583243E-01;8.397809226781483E-01;-1.719933613228165E-03;-1.825122632515856E-05;3.478597969583243E-01;8.397809226781483E-01;-1.719933613228165E-03;-1.825122632515856E-05;
6.076076076076076E+07;3.435381613489265E-01;8.416290755356512E-01;-1.692932214530744E-03;-1.205644342670479E-05;3.435381613489265E-01;8.416290755356512E-01;-1.692932214530744E-03;-1.205644342670479E-05;
6.101101101101101E+07;3.396202345503989E-01;8.440616265120248E-01;-1.739531092144120E-03;3.467415228934969E-05;3.396202345503989E-01;8.440616265120248E-01;-1.739531092144120E-03;3.467415228934969E-05;
6.126126126126126E+07;3.363725117528237E-01;8.469401914343335E-01;-1.724445892351230E-03;-2.637261671068669E-06;3.363725117528237E-01;8.469401914343335E-01;-1.724445892351230E-03;-2.637261671068669E-06;
6.151151151151151E+07;3.342264790130178E-01;8.494920052888295E-01;-1.777371384539496E-03;1.744875778868513E-05;3.342264790130178E-01;8.494920052888295E-01;-1.777371384539496E-03;1.744875778868513E-05;
6.176176176176176E+07;3.325323655636021E-01;8.518242514853616E-01;-1.773723900582341E-03;-5.343650331339484E-05;3.325323655636021E-01;8.518242514853616E-01;-1.773723900582341E-03;-5.343650331339484E-05;
6.201201201201201E+07;3.310696166989361E-01;8.539047753537976E-01;-1.768632451360407E-03;-2.365641084322987E-05;3.310696166989361E-01;8.539047753537976E-01;-1.768632451360407E-03;-2.365641084322987E-05;
6.226226226226226E+07;3.300615568304659E-01;8.556008801391934E-01;-1.763449990566598E-03;-1.346336676507615E-05;3.300615568304659E-01;8.556008801391934E-01;-1.763449990566598E-03;-1.346336676507615E-05;
6.251251251251251E+07;3.293289840969055E-01;8.569188724262807E-01;-1.694649962030608E-03;-1.854871625005750E-05;3.293289840969055E-01;8.569188724262807E-01;-1.694649962030608E-03;-1.854871625005750E-05;
6.276276276276276E+07;3.285108510042553E-01;8.582431639717891E-01;-1.748831486382921E-03;-1.599145949278393E-04;3.285108510042553E-01;8.582431639717891E-01;-1.748831486382921E-03;-1.599145949278393E-04;
6.301301301301301E+07;3.280880765654757E-01;8.590089733912274E-01;-1.710277431252887E-03;-9.732868236545415E-05;3.280880765654757E-01;8.590089733912274E-01;-1.710277431252887E-03;-9.732868236545415E-05;
6.326326326326326E+07;3.277006922860133E-01;8.595247603493069E-01;-1.679218000500115E-03;-1.391566842010732E-04;3.277006922860133E-01;8.595247603493069E-01;-1.679218000500115E-03;-1.391566842010732E-04;
6.351351351351351E+07;3.270387821203959E-01;8.601392862852214E-01;-1.746641459484069E-03;-1.755371598121143E-04;3.270387821203959E-01;8.601392862852214E-01;-1.746641459484069E-03;-1.755371598121143E-04;
6.376376376376376E+07;3.267544716262513E-01;8.604547743885232E-01;-1.732147261846074E-03;-1.939309051591450E-04;3.267544716262513E-01;8.604547743885232E-01;-1.732147261846074E-03;-1.939309051591450E-04;
6.401401401401401E+07;3.264415919971557E-01;8.605844700421185E-01;-1.753274902045109E-03;-2.301969107452020E-04;3.264415919971557E-01;8.605844700421185E-01;-1.753274902045109E-03;-2.301969107452020E-04;
6.426426426426426E+07;3.259981149853706E-01;8.607332883099030E-01;-1.736276633174963E-03;-2.012804875101141E-04;3.259981149853706E-01;8.607332883099030E-01;-1.736276633174963E-03;-2.012804875101141E-04;
6.451451451451451E+07;3.260570303380677E-01;8.605261323060399E-01;-1.730774333688765E-03;-2.292454478359080E-04;3.260570303380677E-01;8.605261323060399E-01;-1.730774333688765E-03;-2.292454478359080E-04;
6.476476476476476E+07;3.258996891714098E-01;8.606606740704246E-01;-1.712742779832521E-03;-2.758399290920653E-04;3.258996891714098E-01;8.606606740704246E-01;-1.712742779832521E-03;-2.758399290920653E-04;
6.501501501501501E+07;3.257842124263079E-01;8.603767678364491E-01;-1.732931590067901E-03;-2.646829056607383E-04;3.257842124263079E-01;8.603767678364491E-01;-1.732931590067901E-03;-2.646829056607383E-04;
6.526526526526526E+07;3.259346607149636E-01;8.599630172009650E-01;-1.753013484744326E-03;-3.246271696928508E-04;3.259346607149636E-01;8.599630172009650E-01;-1.753013484744326E-03;-3.246271696928508E-04;
6.551551551551551E+07;3.261735182559312E-01;8.595860266710906E-01;-1.745034852216763E-03;-3.327053312775721E-04;3.261735182559312E-01;8.595860266710906E-01;-1.745034852216763E-03;-3.327053312775721E-04;
6.576576576576576E+07;3.285951409839027E-01;8.594850881289742E-01;-1.744004182189852E-03;-3.765537324492954E-04;3.285951409839027E-01;8.594850881289742E-01;-1.744004182189852E-03;-3.765537324492954E-04;
6.601601601601601E+07;3.288573604927559E-01;8.588160443238178E-01;-1.764247723898119E-03;-3.943348748196357E-04;3.288573604927559E-01;8.588160443238178E-01;-1.764247723898119E-03;-3.943348748196357E-04;
6.626626626626626E+07;3.291097566089785E-01;8.581833025980015E-01;-1.768278387235817E-03;-3.818368238979943E-04;3.291097566089785E-01;8.581833025980015E-01;-1.768278387235817E-03;-3.818368238979943E-04;
6.651651651651651E+07;3.292149383919344E-01;8.576928984015825E-01;-1.740783621343104E-03;-3.884622949194703E-04;3.292149383919344E-01;8.576928984015825E-01;-1.740783621343104E-03;-3.884622949194703E-04;
6.676676676676676E+07;3.293117712050203E-01;8.571148609087470E-01;-1.765911055602568E-03;-4.288373842985082E-04;3.293117712050203E-01;8.571148609087470E-01;-1.765911055602568E-03;-4.288373842985082E-04;
6.701701701701702E+07;3.309448671252698E-01;8.556111748920786E-01;-1.783576135122038E-03;-4.898584735290482E-04;3.309448671252698E-01;8.556111748920786E-01;-1.783576135122038E-03;-4.898584735290482E-04;
6.726726726726727E+07;3.314670398902874E-01;8.548550970517015E-01;-1.788386914647479E-03;-5.202303277118977E-04;3.314670398902874E-01;8.548550970517015E-01;-1.788386914647479E-03;-5.202303277118977E-04;
6.751751751751752E+07;3.319082844865519E-01;8.541948393402926E-01;-1.811971496822007E-03;-5.530033557525051E-04;3.319082844865519E-01;8.541948393402926E-01;-1.811971496822007E-03;-5.530033557525051E-04;
6.776776776776777E+07;3.322273385331054E-01;8.535162008579249E-01;-1.805996260218817E-03;-5.846473570583324E-04;3.322273385331054E-01;8.535162008579249E-01;-1.805996260218817E-03;-5.846473570583324E-04;
6.801801801801802E+07;3.327424990157832E-01;8.529248408278063E-01;-1.798960036683866E-03;-6.163325493810039E-04;3.327424990157832E-01;8.529248408278063E-01;-1.798960036683866E-03;-6.163325493810039E-04;
6.826826826826827E+07;3.333560459721233E-01;8.520393288070531E-01;-1.837889648292576E-03;-6.147059183338730E-04;3.333560459721233E-01;8.520393288070531E-01;-1.837889648292576E-03;-6.147059183338730E-04;
6.851851851851852E+07;3.347003083745195E-01;8.511586052482921E-01;-1.851214047993976E-03;-6.579280265966490E-04;3.347003083745195E-01;8.511586052482921E-01;-1.851214047993976E-03;-6.579280265966490E-04;
6.876876876876877E+07;3.367185075598470E-01;8.490088764964911E-01;-1.888058693242267E-03;-7.132929384048741E-04;3.367185075598470E-01;8.490088764964911E-01;-1.888058693242267E-03;-7.132929384048741E-04;
6.901901901901902E+07;3.394861917726638E-01;8.471471861768061E-01;-1.853939851581352E-03;-7.919281753135766E-04;3.394861917726638E-01;8.471471861768061E-01;-1.853939851581352E-03;-7.919281753135766E-04;
6.926926926926927E+07;3.426235486331407E-01;8.448287919657778E-01;-1.876011598963656E-03;-8.381857474370788E-04;3.426235486331407E-01;8.448287919657778E-01;-1.876011598963656E-03;-8.381857474370788E-04;
6.951951951951952E+07;3.462150712715453E-01;8.422074481414694E-01;-1.883219788857288E-03;-8.217435855520867E-04;3.462150712715453E-01;8.422074481414694E-01;-1.883219788857288E-03;-8.217435855520867E-04;
6.976976976976977E+07;3.493332435632966E-01;8.394871593469928E-01;-1.897864785356133E-03;-8.646608752792052E-04;3.493332435632966E-01;8.394871593469928E-01;-1.897864785356133E-03;-8.646608752792052E-04;
7.002002002002002E+07;3.526409134775686E-01;8.368428847628688E-01;-1.902816414400318E-03;-9.389037099605224E-04;3.526409134775686E-01;8.368428847628688E-01;-1.902816414400318E-03;-9.389037099605224E-04;
7.027027027027027E+07;3.556302305868319E-01;8.341925165255963E-01;-1.930140223930820E-03;-9.438831177775957E-04;3.556302305868319E-01;8.341925165255963E-01;-1.930140223930820E-03;-9.438831177775957E-04;
7.052052052052052E+07;3.585751796107330E-01;8.316767705137387E-01;-1.945907749293881E-03;-1.018038505135005E-03;3.585751796107330E-01;8.316767705137387E-01;-1.945907749293881E-03;-1.018038505135005E-03;
7.077077077077077E+07;3.614860965329337E-01;8.290003968909447E-01;-1.967271320809516E-03;-1.005782255190250E-03;3.614860965329337E-01;8.290003968909447E-01;-1.967271320809516E-03;-1.005782255190250E-03;
7.102102102102102E+07;3.647358971824288E-01;8.265350162101323E-01;-1.960880228988495E-03;-1.047270054406505E-03;3.647358971824288E-01;8.265350162101323E-01;-1.960880228988495E-03;-1.047270054406505E-03;
7.127127127127127E+07;3.677787878246915E-01;8.237312748305290E-01;-2.028281057257830E-03;-1.080066827757902E-03;3.677787878246915E-01;8.237312748305290E-01;-2.028281057257830E-03;-1.080066827757902E-03;
7.152152152152152E+07;3.708700216542720E-01;8.210468175967005E-01;-2.044662001670272E-03;-1.185797887352418E-03;3.708700216542720E-01;8.210468175967005E-01;-2.044662001670272E-03;-1.185797887352418E-03;
7.177177177177177E+07;3.739459122645569E-01;8.181618838220441E-01;-2.048983895644019E-03;-1.196331450362125E-03;3.739459122645569E-01;8.181618838220441E-01;-2.048983895644019E-03;-1.196331450362125E-03;
7.202202202202202E+07;3.772137560677295E-01;8.153515655951284E-01;-2.081893232158430E-03;-1.249153870186743E-03;3.772137560677295E-01;8.153515655951284E-01;-2.081893232158430E-03;-1.249153870186743E-03;
7.227227227227227E+07;3.811559536952760E-01;8.120402669009005E-01;-2.101119335808116E-03;-1.317436498224114E-03;3.811559536952760E-01;8.120402669009005E-01;-2.101119335808116E-03;-1.317436498224114E-03;
7.252252252252252E+07;3.850680427727997E-01;8.088770132536214E-01;-2.110427253187615E-03;-1.361305638414733E-03;3.850680427727997E-01;8.088770132536214E-01;-2.110427253187615E-03;-1.361305638414733E-03;
7.277277277277277E+07;3.900312257652020E-01;8.047322673144952E-01;-2.174485750617339E-03;-1.434306713125915E-03;3.900312257652020E-01;8.047322673144952E-01;-2.174485750617339E-03;-1.434306713125915E-03;
7.302302302302302E+07;3.952227921895167E-01;8.003678893216808E-01;-2.197424635624906E-03;-1.490346990584981E-03;3.952227921895167E-01;8.003678893216808E-01;-2.197424635624906E-03;-1.490346990584981E-03;
7.327327327327327E+07;4.010414305286783E-01;7.956143431794205E-01;-2.231302958212639E-03;-1.538895699601213E-03;4.010414305286783E-01;7.956143431794205E-01;-2.231302958212639E-03;-1.538895699601213E-03;
7.352352352352352E+07;4.072691983186756E-01;7.905738843070254E-01;-2.262768332412329E-03;-1.577305838099976E-03;4.072691983186756E-01;7.905738843070254E-01;-2.262768332412329E-03;-1.577305838099976E-03;
7.377377377377377E+07;4.134346372654630E-01;7.854431310111415E-01;-2.295167337304799E-03;-1.644127306081746E-03;4.134346372654630E-01;7.854431310111415E-01;-2.295167337304799E-03;-1.644127306081746E-03;
7.402402402402402E+07;4.197246836405181E-01;7.799292992000502E-01;-2.347913098274435E-03;-1.748240865516387E-03;4.197246836405181E-01;7.799292992000502E-01;-2.347913098274435E-03;-1.748240865516387E-03;
