# Version 1.00
#
# Ref Impedances: Z01: 50, Z02: 50
# 
freq[Hz];re:ZMag1_S12;im:ZMag1_S12;re:SMag1_S11;im:SMag1_S11;re:ZPh1_S12;im:ZPh1_S12;re:SPh1_S11;im:SPh1_S11;
5.000000000000000E+07;-1.365112839694669E-03;-6.994421585292660E-03;5.766145805196981E-01;6.309994287531291E-01;-1.365112839694669E-03;-6.994421585292660E-03;5.766145805196981E-01;6.309994287531291E-01;
5.025025025025025E+07;-2.445795735217855E-03;-7.036387662616379E-03;5.573221916086321E-01;6.142955228218719E-01;-2.445795735217855E-03;-7.036387662616379E-03;5.573221916086321E-01;6.142955228218719E-01;
5.050050050050050E+07;-3.529022206864505E-03;-6.860103600032301E-03;5.303911007871990E-01;6.012405685740001E-01;-3.529022206864505E-03;-6.860103600032301E-03;5.303911007871990E-01;6.012405685740001E-01;
5.075075075075075E+07;-4.607439250070389E-03;-6.314584060611776E-03;4.976149123127050E-01;5.950787720476802E-01;-4.607439250070389E-03;-6.314584060611776E-03;4.976149123127050E-01;5.950787720476802E-01;
5.100100100100100E+07;-5.491099835928220E-03;-5.471601955385035E-03;4.623367354843247E-01;5.986536132069433E-01;-5.491099835928220E-03;-5.471601955385035E-03;4.623367354843247E-01;5.986536132069433E-01;
5.125125125125125E+07;-6.084645798901491E-03;-4.459458563103893E-03;4.286632328995040E-01;6.117168735765576E-01;-6.084645798901491E-03;-4.459458563103893E-03;4.286632328995040E-01;6.117168735765576E-01;
5.150150150150150E+07;-6.373590118016730E-03;-3.398835372621437E-03;3.999571752892579E-01;6.326370828534867E-01;-6.373590118016730E-03;-3.398835372621437E-03;3.999571752892579E-01;6.326370828534867E-01;
5.175175175175175E+07;-6.352660110417304E-03;-2.389655177062060E-03;3.784499147743425E-01;6.582169295424456E-01;-6.352660110417304E-03;-2.389655177062060E-03;3.784499147743425E-01;6.582169295424456E-01;
5.200200200200200E+07;-6.020938492087990E-03;-1.483793285292103E-03;3.650173842671470E-01;6.857955567604095E-01;-6.020938492087990E-03;-1.483793285292103E-03;3.650173842671470E-01;6.857955567604095E-01;
5.225225225225225E+07;-5.699143804245886E-03;-8.056448190284056E-04;3.575094314926721E-01;7.105188882791639E-01;-5.699143804245886E-03;-8.056448190284056E-04;3.575094314926721E-01;7.105188882791639E-01;
5.250250250250250E+07;-5.256277233438164E-03;-2.771637315922294E-04;3.549517095282155E-01;7.328150183185397E-01;-5.256277233438164E-03;-2.771637315922294E-04;3.549517095282155E-01;7.328150183185397E-01;
5.275275275275275E+07;-4.800487244646630E-03;5.118472754916520E-05;3.553716398599802E-01;7.512571889975802E-01;-4.800487244646630E-03;5.118472754916520E-05;3.553716398599802E-01;7.512571889975802E-01;
5.300300300300300E+07;-4.382781529535616E-03;3.134493554618856E-04;3.571030772485433E-01;7.662886442795643E-01;-4.382781529535616E-03;3.134493554618856E-04;3.571030772485433E-01;7.662886442795643E-01;
5.325325325325325E+07;-3.995659975290806E-03;4.722507715874756E-04;3.595001212253138E-01;7.787019265377021E-01;-3.995659975290806E-03;4.722507715874756E-04;3.595001212253138E-01;7.787019265377021E-01;
5.350350350350350E+07;-3.664577938639759E-03;5.620960112675595E-04;3.617049579708675E-01;7.885203273902507E-01;-3.664577938639759E-03;5.620960112675595E-04;3.617049579708675E-01;7.885203273902507E-01;
5.375375375375375E+07;-3.356287940318982E-03;5.779966898572819E-04;3.637639533084104E-01;7.966163288438451E-01;-3.356287940318982E-03;5.779966898572819E-04;3.637639533084104E-01;7.966163288438451E-01;
5.400400400400400E+07;-3.117824515564950E-03;6.034094871628839E-04;3.650929802070780E-01;8.030878454140250E-01;-3.117824515564950E-03;6.034094871628839E-04;3.650929802070780E-01;8.030878454140250E-01;
5.425425425425425E+07;-2.894194227429719E-03;6.169121673589148E-04;3.658476971528514E-01;8.087937235521866E-01;-2.894194227429719E-03;6.169121673589148E-04;3.658476971528514E-01;8.087937235521866E-01;
5.450450450450450E+07;-2.714379919171220E-03;5.997702882436553E-04;3.663440102008322E-01;8.137689461863813E-01;-2.714379919171220E-03;5.997702882436553E-04;3.663440102008322E-01;8.137689461863813E-01;
5.475475475475475E+07;-2.557141279225645E-03;5.942950521766723E-04;3.661874058430710E-01;8.182339120291801E-01;-2.557141279225645E-03;5.942950521766723E-04;3.661874058430710E-01;8.182339120291801E-01;
5.500500500500500E+07;-2.409026407780875E-03;5.472919036471094E-04;3.659914971099389E-01;8.219450837236412E-01;-2.409026407780875E-03;5.472919036471094E-04;3.659914971099389E-01;8.219450837236412E-01;
5.525525525525525E+07;-2.281693605902261E-03;5.433874258634649E-04;3.656205782335689E-01;8.256943959626893E-01;-2.281693605902261E-03;5.433874258634649E-04;3.656205782335689E-01;8.256943959626893E-01;
5.550550550550550E+07;-2.167835073829454E-03;5.143447186896529E-04;3.648431136187613E-01;8.289136480606227E-01;-2.167835073829454E-03;5.143447186896529E-04;3.648431136187613E-01;8.289136480606227E-01;
5.575575575575575E+07;-2.047250571308553E-03;4.954861958528682E-04;3.640952765479403E-01;8.316184792410629E-01;-2.047250571308553E-03;4.954861958528682E-04;3.640952765479403E-01;8.316184792410629E-01;
5.600600600600600E+07;-1.959006130347272E-03;4.518679969868446E-04;3.629896315908980E-01;8.337971857356146E-01;-1.959006130347272E-03;4.518679969868446E-04;3.629896315908980E-01;8.337971857356146E-01;
5.625625625625625E+07;-1.907339876363620E-03;4.222957781776490E-04;3.617179178978960E-01;8.359427346986463E-01;-1.907339876363620E-03;4.222957781776490E-04;3.617179178978960E-01;8.359427346986463E-01;
5.650650650650650E+07;-1.813464112578554E-03;3.718171221212147E-04;3.602183322463522E-01;8.374246151894128E-01;-1.813464112578554E-03;3.718171221212147E-04;3.602183322463522E-01;8.374246151894128E-01;
5.675675675675675E+07;-1.746595855201059E-03;3.417369989869170E-04;3.583884613661282E-01;8.389976858188725E-01;-1.746595855201059E-03;3.417369989869170E-04;3.583884613661282E-01;8.389976858188725E-01;
5.700700700700700E+07;-1.681394463048158E-03;3.070858384406333E-04;3.563726489348461E-01;8.401211926129373E-01;-1.681394463048158E-03;3.070858384406333E-04;3.563726489348461E-01;8.401211926129373E-01;
5.725725725725726E+07;-1.640754645527649E-03;2.648830880195818E-04;3.541389756007729E-01;8.410870131933105E-01;-1.640754645527649E-03;2.648830880195818E-04;3.541389756007729E-01;8.410870131933105E-01;
5.750750750750751E+07;-1.579689052026099E-03;2.309706702718500E-04;3.517359491563157E-01;8.420342887652743E-01;-1.579689052026099E-03;2.309706702718500E-04;3.517359491563157E-01;8.420342887652743E-01;
5.775775775775776E+07;-1.538244397123973E-03;2.100101074035594E-04;3.489879768507275E-01;8.427814375324786E-01;-1.538244397123973E-03;2.100101074035594E-04;3.489879768507275E-01;8.427814375324786E-01;
5.800800800800801E+07;-1.502946604606636E-03;1.742751946977126E-04;3.517486476897863E-01;8.408142571959936E-01;-1.502946604606636E-03;1.742751946977126E-04;3.517486476897863E-01;8.408142571959936E-01;
5.825825825825826E+07;-1.480019428851684E-03;1.378550186864282E-04;3.487407682328219E-01;8.414602250802056E-01;-1.480019428851684E-03;1.378550186864282E-04;3.487407682328219E-01;8.414602250802056E-01;
5.850850850850851E+07;-1.458865464282906E-03;1.195877879762971E-04;3.457199898527527E-01;8.419766644281989E-01;-1.458865464282906E-03;1.195877879762971E-04;3.457199898527527E-01;8.419766644281989E-01;
5.875875875875876E+07;-1.424947411548849E-03;7.933308968585505E-05;3.424668978876971E-01;8.421915602150265E-01;-1.424947411548849E-03;7.933308968585505E-05;3.424668978876971E-01;8.421915602150265E-01;
5.900900900900901E+07;-1.402863215070256E-03;3.146240944901494E-05;3.387869663308414E-01;8.425497279730930E-01;-1.402863215070256E-03;3.146240944901494E-05;3.387869663308414E-01;8.425497279730930E-01;
5.925925925925926E+07;-1.401991712067524E-03;1.781607019038433E-05;3.349876649473432E-01;8.429992539268607E-01;-1.401991712067524E-03;1.781607019038433E-05;3.349876649473432E-01;8.429992539268607E-01;
5.950950950950951E+07;-1.377351725430698E-03;2.267445706526897E-06;3.308530785530763E-01;8.434709423646254E-01;-1.377351725430698E-03;2.267445706526897E-06;3.308530785530763E-01;8.434709423646254E-01;
5.975975975975976E+07;-1.376675144350671E-03;-1.176369994850454E-05;3.267336765358447E-01;8.443420707045636E-01;-1.376675144350671E-03;-1.176369994850454E-05;3.267336765358447E-01;8.443420707045636E-01;
6.001001001001001E+07;-1.355503566133858E-03;-5.203269770982421E-05;3.226437399382259E-01;8.452240771581312E-01;-1.355503566133858E-03;-5.203269770982421E-05;3.226437399382259E-01;8.452240771581312E-01;
6.026026026026026E+07;-1.341083840184296E-03;-6.567501454760793E-05;3.187206416270725E-01;8.467898956908366E-01;-1.341083840184296E-03;-6.567501454760793E-05;3.187206416270725E-01;8.467898956908366E-01;
6.051051051051051E+07;-1.350487689210482E-03;-8.619169921198377E-05;3.149364587755831E-01;8.482659621643992E-01;-1.350487689210482E-03;-8.619169921198377E-05;3.149364587755831E-01;8.482659621643992E-01;
6.076076076076076E+07;-1.326157801316225E-03;-9.318881568096094E-05;3.114253853517801E-01;8.500568050966152E-01;-1.326157801316225E-03;-9.318881568096094E-05;3.114253853517801E-01;8.500568050966152E-01;
6.101101101101101E+07;-1.320696866284015E-03;-1.313160176660823E-04;3.081446543668772E-01;8.516861894795523E-01;-1.320696866284015E-03;-1.313160176660823E-04;3.081446543668772E-01;8.516861894795523E-01;
6.126126126126126E+07;-1.309132854840043E-03;-1.186299112156854E-04;3.051107347600863E-01;8.534640497435286E-01;-1.309132854840043E-03;-1.186299112156854E-04;3.051107347600863E-01;8.534640497435286E-01;
6.151151151151151E+07;-1.280328786462028E-03;-1.551754700567533E-04;3.024288168011094E-01;8.549319100127670E-01;-1.280328786462028E-03;-1.551754700567533E-04;3.024288168011094E-01;8.549319100127670E-01;
6.176176176176176E+07;-1.265645250977086E-03;-1.375096562274982E-04;2.999084443648126E-01;8.564698316507481E-01;-1.265645250977086E-03;-1.375096562274982E-04;2.999084443648126E-01;8.564698316507481E-01;
6.201201201201201E+07;-1.275607988281456E-03;-1.633202485381304E-04;2.974830278204614E-01;8.577430076083634E-01;-1.275607988281456E-03;-1.633202485381304E-04;2.974830278204614E-01;8.577430076083634E-01;
6.226226226226226E+07;-1.259070582006125E-03;-1.617473894692428E-04;2.952290025320031E-01;8.590550800646188E-01;-1.259070582006125E-03;-1.617473894692428E-04;2.952290025320031E-01;8.590550800646188E-01;
6.251251251251251E+07;-1.266246676246056E-03;-1.675674220935497E-04;2.928957239223440E-01;8.602268488453511E-01;-1.266246676246056E-03;-1.675674220935497E-04;2.928957239223440E-01;8.602268488453511E-01;
6.276276276276276E+07;-1.243555590365638E-03;-1.991873472566213E-04;2.907558527399151E-01;8.611818360290491E-01;-1.243555590365638E-03;-1.991873472566213E-04;2.907558527399151E-01;8.611818360290491E-01;
6.301301301301301E+07;-1.230664570718362E-03;-2.087651391294359E-04;2.886963362637168E-01;8.622028290049326E-01;-1.230664570718362E-03;-2.087651391294359E-04;2.886963362637168E-01;8.622028290049326E-01;
6.326326326326326E+07;-1.235299194601780E-03;-2.345783176749623E-04;2.865888837490901E-01;8.630236097569801E-01;-1.235299194601780E-03;-2.345783176749623E-04;2.865888837490901E-01;8.630236097569801E-01;
6.351351351351351E+07;-1.198060856108669E-03;-2.356850965037961E-04;2.847018331241412E-01;8.639138225877595E-01;-1.198060856108669E-03;-2.356850965037961E-04;2.847018331241412E-01;8.639138225877595E-01;
6.376376376376376E+07;-1.212518676314969E-03;-2.305583400906538E-04;2.828386251174904E-01;8.646708787484423E-01;-1.212518676314969E-03;-2.305583400906538E-04;2.828386251174904E-01;8.646708787484423E-01;
6.401401401401401E+07;-1.212277732803626E-03;-2.637684724500053E-04;2.811723668476387E-01;8.653803426951557E-01;-1.212277732803626E-03;-2.637684724500053E-04;2.811723668476387E-01;8.653803426951557E-01;
6.426426426426426E+07;-1.191674897017466E-03;-2.592019716551619E-04;2.796369015151315E-01;8.660806858424184E-01;-1.191674897017466E-03;-2.592019716551619E-04;2.796369015151315E-01;8.660806858424184E-01;
6.451451451451451E+07;-1.165442538704354E-03;-2.828592860917589E-04;2.781194328411593E-01;8.666969948609985E-01;-1.165442538704354E-03;-2.828592860917589E-04;2.781194328411593E-01;8.666969948609985E-01;
6.476476476476476E+07;-1.174484641228824E-03;-3.103823409872709E-04;2.768698595451811E-01;8.671575709517736E-01;-1.174484641228824E-03;-3.103823409872709E-04;2.768698595451811E-01;8.671575709517736E-01;
6.501501501501501E+07;-1.172290114031688E-03;-3.064177254416631E-04;2.756111744215855E-01;8.675282057571190E-01;-1.172290114031688E-03;-3.064177254416631E-04;2.756111744215855E-01;8.675282057571190E-01;
6.526526526526526E+07;-1.159002376939467E-03;-3.224719136085635E-04;2.745063338169244E-01;8.677920816845023E-01;-1.159002376939467E-03;-3.224719136085635E-04;2.745063338169244E-01;8.677920816845023E-01;
6.551551551551551E+07;-1.152627083089170E-03;-3.450218388373556E-04;2.733896395664880E-01;8.679676775038663E-01;-1.152627083089170E-03;-3.450218388373556E-04;2.733896395664880E-01;8.679676775038663E-01;
6.576576576576576E+07;-1.139461088287876E-03;-3.649420988618498E-04;2.646694123758946E-01;8.710340510751642E-01;-1.139461088287876E-03;-3.649420988618498E-04;2.646694123758946E-01;8.710340510751642E-01;
6.601601601601601E+07;-1.140361077277812E-03;-3.547531475432923E-04;2.636625571385160E-01;8.709775804119133E-01;-1.140361077277812E-03;-3.547531475432923E-04;2.636625571385160E-01;8.709775804119133E-01;
6.626626626626626E+07;-1.152971856506355E-03;-3.791763054254189E-04;2.624849953697949E-01;8.709685399999120E-01;-1.152971856506355E-03;-3.791763054254189E-04;2.624849953697949E-01;8.709685399999120E-01;
6.651651651651651E+07;-1.117016740262928E-03;-4.021644572236129E-04;2.613042702493092E-01;8.710237614106813E-01;-1.117016740262928E-03;-4.021644572236129E-04;2.613042702493092E-01;8.710237614106813E-01;
6.676676676676676E+07;-1.123892732498040E-03;-3.970587413460854E-04;2.599707546335473E-01;8.710238936334771E-01;-1.123892732498040E-03;-3.970587413460854E-04;2.599707546335473E-01;8.710238936334771E-01;
6.701701701701702E+07;-1.108658110411713E-03;-4.390711478528564E-04;2.598729672797910E-01;8.704118765040058E-01;-1.108658110411713E-03;-4.390711478528564E-04;2.598729672797910E-01;8.704118765040058E-01;
6.726726726726727E+07;-1.111014953325047E-03;-4.430021050614810E-04;2.587992206985623E-01;8.703683800907146E-01;-1.111014953325047E-03;-4.430021050614810E-04;2.587992206985623E-01;8.703683800907146E-01;
6.751751751751752E+07;-1.124201422547584E-03;-4.651753710433688E-04;2.576432866819191E-01;8.704386011993002E-01;-1.124201422547584E-03;-4.651753710433688E-04;2.576432866819191E-01;8.704386011993002E-01;
6.776776776776777E+07;-1.107110654332817E-03;-4.839778538504149E-04;2.563832200858275E-01;8.706209689214860E-01;-1.107110654332817E-03;-4.839778538504149E-04;2.563832200858275E-01;8.706209689214860E-01;
6.801801801801802E+07;-1.110688360272583E-03;-4.911458742685690E-04;2.551283023820378E-01;8.706715636354204E-01;-1.110688360272583E-03;-4.911458742685690E-04;2.551283023820378E-01;8.706715636354204E-01;
6.826826826826827E+07;-1.093642923229723E-03;-5.260010304075171E-04;2.538060853174844E-01;8.707140031160072E-01;-1.093642923229723E-03;-5.260010304075171E-04;2.538060853174844E-01;8.707140031160072E-01;
6.851851851851852E+07;-1.097385482767827E-03;-5.429254075797664E-04;2.529823913612392E-01;8.706006102137996E-01;-1.097385482767827E-03;-5.429254075797664E-04;2.529823913612392E-01;8.706006102137996E-01;
6.876876876876877E+07;-1.085879108742744E-03;-5.566676115461060E-04;2.569072747073973E-01;8.695925762940754E-01;-1.085879108742744E-03;-5.566676115461060E-04;2.569072747073973E-01;8.695925762940754E-01;
6.901901901901902E+07;-1.081224947186627E-03;-5.803738924925265E-04;2.571589001140062E-01;8.689628565782442E-01;-1.081224947186627E-03;-5.803738924925265E-04;2.571589001140062E-01;8.689628565782442E-01;
6.926926926926927E+07;-1.084153217984055E-03;-6.072636782200590E-04;2.580761790868732E-01;8.678792538904853E-01;-1.084153217984055E-03;-6.072636782200590E-04;2.580761790868732E-01;8.678792538904853E-01;
6.951951951951952E+07;-1.088422636548498E-03;-6.325604732937972E-04;2.590954259235649E-01;8.666872885129483E-01;-1.088422636548498E-03;-6.325604732937972E-04;2.590954259235649E-01;8.666872885129483E-01;
6.976976976976977E+07;-1.070139870818424E-03;-6.683108872696772E-04;2.602151193656790E-01;8.654391138627242E-01;-1.070139870818424E-03;-6.683108872696772E-04;2.602151193656790E-01;8.654391138627242E-01;
7.002002002002002E+07;-1.054335153365953E-03;-6.756045141289391E-04;2.610162911081145E-01;8.642870194876566E-01;-1.054335153365953E-03;-6.756045141289391E-04;2.610162911081145E-01;8.642870194876566E-01;
7.027027027027027E+07;-1.059735122297907E-03;-6.975031171583028E-04;2.616310050109469E-01;8.632612752126267E-01;-1.059735122297907E-03;-6.975031171583028E-04;2.616310050109469E-01;8.632612752126267E-01;
7.052052052052052E+07;-1.057291597191696E-03;-7.300555787666266E-04;2.620105575459279E-01;8.624999120480790E-01;-1.057291597191696E-03;-7.300555787666266E-04;2.620105575459279E-01;8.624999120480790E-01;
7.077077077077077E+07;-1.054570364733159E-03;-7.608490818974901E-04;2.625843700600538E-01;8.616192056572146E-01;-1.054570364733159E-03;-7.608490818974901E-04;2.625843700600538E-01;8.616192056572146E-01;
7.102102102102102E+07;-1.051563685714646E-03;-7.681909654870661E-04;2.630246855303944E-01;8.607762973157969E-01;-1.051563685714646E-03;-7.681909654870661E-04;2.630246855303944E-01;8.607762973157969E-01;
7.127127127127127E+07;-1.066136436515193E-03;-7.965055367997109E-04;2.633333679658828E-01;8.597902446992861E-01;-1.066136436515193E-03;-7.965055367997109E-04;2.633333679658828E-01;8.597902446992861E-01;
7.152152152152152E+07;-1.050329561700374E-03;-8.115046133849830E-04;2.635867853457621E-01;8.590436823273667E-01;-1.050329561700374E-03;-8.115046133849830E-04;2.635867853457621E-01;8.590436823273667E-01;
7.177177177177177E+07;-1.067604322698976E-03;-8.218568248612236E-04;2.637272056450783E-01;8.581931091252784E-01;-1.067604322698976E-03;-8.218568248612236E-04;2.637272056450783E-01;8.581931091252784E-01;
7.202202202202202E+07;-1.057372258659014E-03;-8.606164906907747E-04;2.635866318098441E-01;8.575517825540527E-01;-1.057372258659014E-03;-8.606164906907747E-04;2.635866318098441E-01;8.575517825540527E-01;
7.227227227227227E+07;-1.067986949926727E-03;-8.918650272263405E-04;2.637988182434919E-01;8.567234943085839E-01;-1.067986949926727E-03;-8.918650272263405E-04;2.637988182434919E-01;8.567234943085839E-01;
7.252252252252252E+07;-1.060101777322115E-03;-9.163332082155767E-04;2.642001130852552E-01;8.559390495969447E-01;-1.060101777322115E-03;-9.163332082155767E-04;2.642001130852552E-01;8.559390495969447E-01;
7.277277277277277E+07;-1.052080039771418E-03;-9.493799048573829E-04;2.651718402684979E-01;8.549491708913817E-01;-1.052080039771418E-03;-9.493799048573829E-04;2.651718402684979E-01;8.549491708913817E-01;
7.302302302302302E+07;-1.063497669816791E-03;-9.823541646716072E-04;2.667127068188290E-01;8.538318041305671E-01;-1.063497669816791E-03;-9.823541646716072E-04;2.667127068188290E-01;8.538318041305671E-01;
7.327327327327327E+07;-1.058181221886979E-03;-9.985959540636310E-04;2.687249791736361E-01;8.524637445849851E-01;-1.058181221886979E-03;-9.985959540636310E-04;2.687249791736361E-01;8.524637445849851E-01;
7.352352352352352E+07;-1.056891432894304E-03;-1.048053090081294E-03;2.709800574115834E-01;8.510606976135728E-01;-1.056891432894304E-03;-1.048053090081294E-03;2.709800574115834E-01;8.510606976135728E-01;
7.377377377377377E+07;-1.049297845931678E-03;-1.071331844489223E-03;2.733528250423719E-01;8.497190991826088E-01;-1.049297845931678E-03;-1.071331844489223E-03;2.733528250423719E-01;8.497190991826088E-01;
7.402402402402402E+07;-1.057870419160114E-03;-1.094825873514958E-03;2.757094225403235E-01;8.482280870572270E-01;-1.057870419160114E-03;-1.094825873514958E-03;2.757094225403235E-01;8.482280870572270E-01;
