# Version 1.00
#
# Ref Impedances: Z01: 50, Z02: 50
# 
freq[Hz];re:ZMag1_S12;im:ZMag1_S12;re:SMag1_S11;im:SMag1_S11;re:ZPh1_S12;im:ZPh1_S12;re:SPh1_S11;im:SPh1_S11;
5.000000000000000E+07;-9.246553027746643E-03;-8.435876592636122E-04;4.251478174984800E-01;6.414954582111523E-01;-9.246553027746643E-03;-8.435876592636122E-04;4.251478174984800E-01;6.414954582111523E-01;
5.025025025025025E+07;-8.027118547669710E-03;1.703773794082420E-04;4.291127831010037E-01;6.684574570939553E-01;-8.027118547669710E-03;1.703773794082420E-04;4.291127831010037E-01;6.684574570939553E-01;
5.050050050050050E+07;-7.002678641760155E-03;6.393941194162790E-04;4.340635318877963E-01;6.845697601658572E-01;-7.002678641760155E-03;6.393941194162790E-04;4.340635318877963E-01;6.845697601658572E-01;
5.075075075075075E+07;-6.246713987326000E-03;7.777048813209274E-04;4.362983823963814E-01;6.939656589140671E-01;-6.246713987326000E-03;7.777048813209274E-04;4.362983823963814E-01;6.939656589140671E-01;
5.100100100100100E+07;-5.717763825191615E-03;8.125745971964757E-04;4.345494206898612E-01;7.005212248346173E-01;-5.717763825191615E-03;8.125745971964757E-04;4.345494206898612E-01;7.005212248346173E-01;
5.125125125125125E+07;-5.366067562460665E-03;8.663981971568225E-04;4.292198423897165E-01;7.072115811138805E-01;-5.366067562460665E-03;8.663981971568225E-04;4.292198423897165E-01;7.072115811138805E-01;
5.150150150150150E+07;-5.107773980830782E-03;9.223915941082365E-04;4.220293280891756E-01;7.159497220347288E-01;-5.107773980830782E-03;9.223915941082365E-04;4.220293280891756E-01;7.159497220347288E-01;
5.175175175175175E+07;-4.860576862807810E-03;1.063311044114060E-03;4.153078085847126E-01;7.270278145759607E-01;-4.860576862807810E-03;1.063311044114060E-03;4.153078085847126E-01;7.270278145759607E-01;
5.200200200200200E+07;-4.633424265733605E-03;1.175346154298340E-03;4.103926704684245E-01;7.393157163071049E-01;-4.633424265733605E-03;1.175346154298340E-03;4.103926704684245E-01;7.393157163071049E-01;
5.225225225225225E+07;-4.372349344671653E-03;1.266036498584225E-03;4.075400737397692E-01;7.519397364746977E-01;-4.372349344671653E-03;1.266036498584225E-03;4.075400737397692E-01;7.519397364746977E-01;
5.250250250250250E+07;-4.104227201436546E-03;1.364418946366230E-03;4.066624987011009E-01;7.633279617623068E-01;-4.104227201436546E-03;1.364418946366230E-03;4.066624987011009E-01;7.633279617623068E-01;
5.275275275275275E+07;-3.855102656532489E-03;1.406666274799861E-03;4.069430042098098E-01;7.736179387904737E-01;-3.855102656532489E-03;1.406666274799861E-03;4.069430042098098E-01;7.736179387904737E-01;
5.300300300300300E+07;-3.628926795043857E-03;1.405305705257116E-03;4.078521961807945E-01;7.822251958575120E-01;-3.628926795043857E-03;1.405305705257116E-03;4.078521961807945E-01;7.822251958575120E-01;
5.325325325325325E+07;-3.432885356841279E-03;1.411795173592443E-03;4.090408811183913E-01;7.894979383012679E-01;-3.432885356841279E-03;1.411795173592443E-03;4.090408811183913E-01;7.894979383012679E-01;
5.350350350350350E+07;-3.227294941535779E-03;1.379840837679720E-03;4.100875906064959E-01;7.955289177409928E-01;-3.227294941535779E-03;1.379840837679720E-03;4.100875906064959E-01;7.955289177409928E-01;
5.375375375375375E+07;-3.056229323520003E-03;1.351645346899322E-03;4.108151080494630E-01;8.009787621377545E-01;-3.056229323520003E-03;1.351645346899322E-03;4.108151080494630E-01;8.009787621377545E-01;
5.400400400400400E+07;-2.928101824596717E-03;1.303440387384783E-03;4.114044533422935E-01;8.055512158766829E-01;-2.928101824596717E-03;1.303440387384783E-03;4.114044533422935E-01;8.055512158766829E-01;
5.425425425425425E+07;-2.793638925231798E-03;1.277141404130130E-03;4.118572448069537E-01;8.095204874611287E-01;-2.793638925231798E-03;1.277141404130130E-03;4.118572448069537E-01;8.095204874611287E-01;
5.450450450450450E+07;-2.671707485038689E-03;1.222214293491840E-03;4.121630111944559E-01;8.130439535645446E-01;-2.671707485038689E-03;1.222214293491840E-03;4.121630111944559E-01;8.130439535645446E-01;
5.475475475475475E+07;-2.555904679114412E-03;1.183204221833538E-03;4.121611590289045E-01;8.161079449399031E-01;-2.555904679114412E-03;1.183204221833538E-03;4.121611590289045E-01;8.161079449399031E-01;
5.500500500500500E+07;-2.473824166771684E-03;1.120287167878808E-03;4.119778682603265E-01;8.186491789377405E-01;-2.473824166771684E-03;1.120287167878808E-03;4.119778682603265E-01;8.186491789377405E-01;
5.525525525525525E+07;-2.407049412390558E-03;1.065745411897867E-03;4.113883904463616E-01;8.211926206553628E-01;-2.407049412390558E-03;1.065745411897867E-03;4.113883904463616E-01;8.211926206553628E-01;
5.550550550550550E+07;-2.305920942016702E-03;1.028749151929849E-03;4.109468180552107E-01;8.231808965438918E-01;-2.305920942016702E-03;1.028749151929849E-03;4.109468180552107E-01;8.231808965438918E-01;
5.575575575575575E+07;-2.252431120364638E-03;9.793161359884913E-04;4.100644060277647E-01;8.249964973855675E-01;-2.252431120364638E-03;9.793161359884913E-04;4.100644060277647E-01;8.249964973855675E-01;
5.600600600600600E+07;-2.175094457134676E-03;9.285911129146765E-04;4.093524500863328E-01;8.264909473233772E-01;-2.175094457134676E-03;9.285911129146765E-04;4.093524500863328E-01;8.264909473233772E-01;
5.625625625625625E+07;-2.134912667331731E-03;8.929082506871205E-04;4.080807719247587E-01;8.280642135432920E-01;-2.134912667331731E-03;8.929082506871205E-04;4.080807719247587E-01;8.280642135432920E-01;
5.650650650650650E+07;-2.089890636379963E-03;8.268323813205331E-04;4.068198216564538E-01;8.292220945034828E-01;-2.089890636379963E-03;8.268323813205331E-04;4.068198216564538E-01;8.292220945034828E-01;
5.675675675675675E+07;-2.049321442111197E-03;7.860865831479945E-04;4.056768223808095E-01;8.301855254318463E-01;-2.049321442111197E-03;7.860865831479945E-04;4.056768223808095E-01;8.301855254318463E-01;
5.700700700700700E+07;-2.015667076286158E-03;7.465214558977282E-04;4.041710376550261E-01;8.311292169485596E-01;-2.015667076286158E-03;7.465214558977282E-04;4.041710376550261E-01;8.311292169485596E-01;
5.725725725725726E+07;-1.954073021798091E-03;7.163618668943949E-04;4.026063303805290E-01;8.319212157094079E-01;-1.954073021798091E-03;7.163618668943949E-04;4.026063303805290E-01;8.319212157094079E-01;
5.750750750750751E+07;-1.913120972545705E-03;6.633525220195320E-04;4.008399547346640E-01;8.325437264522582E-01;-1.913120972545705E-03;6.633525220195320E-04;4.008399547346640E-01;8.325437264522582E-01;
5.775775775775776E+07;-1.900610945648321E-03;6.048740651576177E-04;3.992248286154446E-01;8.331103034690667E-01;-1.900610945648321E-03;6.048740651576177E-04;3.992248286154446E-01;8.331103034690667E-01;
5.800800800800801E+07;-1.883986135043539E-03;5.761561976677489E-04;4.033361923991656E-01;8.304022650675474E-01;-1.883986135043539E-03;5.761561976677489E-04;4.033361923991656E-01;8.304022650675474E-01;
5.825825825825826E+07;-1.856209345206339E-03;5.280658516117312E-04;4.014709772270326E-01;8.306655159981740E-01;-1.856209345206339E-03;5.280658516117312E-04;4.014709772270326E-01;8.306655159981740E-01;
5.850850850850851E+07;-1.820809410940438E-03;4.862435265358384E-04;3.997868113278296E-01;8.307007663419606E-01;-1.820809410940438E-03;4.862435265358384E-04;3.997868113278296E-01;8.307007663419606E-01;
5.875875875875876E+07;-1.818298698774646E-03;4.426715734801375E-04;3.978794930435199E-01;8.304925777940757E-01;-1.818298698774646E-03;4.426715734801375E-04;3.978794930435199E-01;8.304925777940757E-01;
5.900900900900901E+07;-1.801514772016435E-03;4.026049479591210E-04;3.959089468229213E-01;8.299792765420643E-01;-1.801514772016435E-03;4.026049479591210E-04;3.959089468229213E-01;8.299792765420643E-01;
5.925925925925926E+07;-1.783562024245831E-03;3.495745468105994E-04;3.936036197139872E-01;8.293510241130223E-01;-1.783562024245831E-03;3.495745468105994E-04;3.936036197139872E-01;8.293510241130223E-01;
5.950950950950951E+07;-1.762426134198664E-03;3.113044328419108E-04;3.910562326089100E-01;8.285602622703119E-01;-1.762426134198664E-03;3.113044328419108E-04;3.910562326089100E-01;8.285602622703119E-01;
5.975975975975976E+07;-1.764748906684201E-03;2.678890633100127E-04;3.878860876954166E-01;8.277424522203978E-01;-1.764748906684201E-03;2.678890633100127E-04;3.878860876954166E-01;8.277424522203978E-01;
6.001001001001001E+07;-1.778760399129215E-03;2.283625473450613E-04;3.845323429376245E-01;8.270126315758318E-01;-1.778760399129215E-03;2.283625473450613E-04;3.845323429376245E-01;8.270126315758318E-01;
6.026026026026026E+07;-1.780473849777675E-03;1.731698921523055E-04;3.809153695510044E-01;8.267862634601003E-01;-1.780473849777675E-03;1.731698921523055E-04;3.809153695510044E-01;8.267862634601003E-01;
6.051051051051051E+07;-1.789540741320274E-03;1.497498391468996E-04;3.770768026337507E-01;8.272959200512980E-01;-1.789540741320274E-03;1.497498391468996E-04;3.770768026337507E-01;8.272959200512980E-01;
6.076076076076076E+07;-1.799546925965449E-03;1.308989544670115E-04;3.732075317759494E-01;8.281757841605686E-01;-1.799546925965449E-03;1.308989544670115E-04;3.732075317759494E-01;8.281757841605686E-01;
6.101101101101101E+07;-1.804238622705179E-03;1.011772891559339E-04;3.699321122065283E-01;8.299342702318399E-01;-1.804238622705179E-03;1.011772891559339E-04;3.699321122065283E-01;8.299342702318399E-01;
6.126126126126126E+07;-1.829838437995137E-03;8.678018381986801E-05;3.671035841323517E-01;8.318236063232717E-01;-1.829838437995137E-03;8.678018381986801E-05;3.671035841323517E-01;8.318236063232717E-01;
6.151151151151151E+07;-1.830466900774751E-03;7.545369238634690E-05;3.649050555019141E-01;8.337876713390739E-01;-1.830466900774751E-03;7.545369238634690E-05;3.649050555019141E-01;8.337876713390739E-01;
6.176176176176176E+07;-1.851287168037099E-03;2.984504908053947E-05;3.633616905953913E-01;8.356077619305056E-01;-1.851287168037099E-03;2.984504908053947E-05;3.633616905953913E-01;8.356077619305056E-01;
6.201201201201201E+07;-1.849179534601501E-03;2.667569325485781E-05;3.622449248319536E-01;8.372444044099630E-01;-1.849179534601501E-03;2.667569325485781E-05;3.622449248319536E-01;8.372444044099630E-01;
6.226226226226226E+07;-1.842656493232524E-03;1.486571123287652E-05;3.614593500949655E-01;8.386661398907190E-01;-1.842656493232524E-03;1.486571123287652E-05;3.614593500949655E-01;8.386661398907190E-01;
6.251251251251251E+07;-1.860597261944675E-03;7.737376584771729E-07;3.610461445658429E-01;8.397333399452401E-01;-1.860597261944675E-03;7.737376584771729E-07;3.610461445658429E-01;8.397333399452401E-01;
6.276276276276276E+07;-1.846252760912878E-03;-2.916237719353442E-05;3.606021244971900E-01;8.406757221539867E-01;-1.846252760912878E-03;-2.916237719353442E-05;3.606021244971900E-01;8.406757221539867E-01;
6.301301301301301E+07;-1.845025232289513E-03;-4.081025246911827E-05;3.603977029425429E-01;8.413103465109751E-01;-1.845025232289513E-03;-4.081025246911827E-05;3.603977029425429E-01;8.413103465109751E-01;
6.326326326326326E+07;-1.860593454074422E-03;-6.616388948184072E-05;3.604173065742419E-01;8.417678414947571E-01;-1.860593454074422E-03;-6.616388948184072E-05;3.604173065742419E-01;8.417678414947571E-01;
6.351351351351351E+07;-1.855581732875721E-03;-8.632961194091819E-05;3.604597963353115E-01;8.420611633575216E-01;-1.855581732875721E-03;-8.632961194091819E-05;3.604597963353115E-01;8.420611633575216E-01;
6.376376376376376E+07;-1.863987956715502E-03;-1.083432791330878E-04;3.607040694951433E-01;8.421364548712053E-01;-1.863987956715502E-03;-1.083432791330878E-04;3.607040694951433E-01;8.421364548712053E-01;
6.401401401401401E+07;-1.861763857599936E-03;-1.281204468694729E-04;3.609913532810898E-01;8.420715208356386E-01;-1.861763857599936E-03;-1.281204468694729E-04;3.609913532810898E-01;8.420715208356386E-01;
6.426426426426426E+07;-1.879889586258095E-03;-1.513125887010085E-04;3.613711149796217E-01;8.418557210182378E-01;-1.879889586258095E-03;-1.513125887010085E-04;3.613711149796217E-01;8.418557210182378E-01;
6.451451451451451E+07;-1.850847398410731E-03;-1.739941704043383E-04;3.619693987679397E-01;8.413593088007210E-01;-1.850847398410731E-03;-1.739941704043383E-04;3.619693987679397E-01;8.413593088007210E-01;
6.476476476476476E+07;-1.867905970966701E-03;-2.094724192627881E-04;3.624405251992708E-01;8.408396955365677E-01;-1.867905970966701E-03;-2.094724192627881E-04;3.624405251992708E-01;8.408396955365677E-01;
6.501501501501501E+07;-1.872676364072076E-03;-2.435422498015113E-04;3.630467884932513E-01;8.402095535752997E-01;-1.872676364072076E-03;-2.435422498015113E-04;3.630467884932513E-01;8.402095535752997E-01;
6.526526526526526E+07;-1.863103628636713E-03;-2.661728851611824E-04;3.638283494266109E-01;8.395032447915091E-01;-1.863103628636713E-03;-2.661728851611824E-04;3.638283494266109E-01;8.395032447915091E-01;
6.551551551551551E+07;-1.878245715700509E-03;-2.948695185313967E-04;3.647006012546399E-01;8.386149471213499E-01;-1.878245715700509E-03;-2.948695185313967E-04;3.647006012546399E-01;8.386149471213499E-01;
6.576576576576576E+07;-1.887566117032669E-03;-3.049515907817182E-04;3.579527433970124E-01;8.415695797100969E-01;-1.887566117032669E-03;-3.049515907817182E-04;3.579527433970124E-01;8.415695797100969E-01;
6.601601601601601E+07;-1.888801930957852E-03;-3.217289133598383E-04;3.590023039962413E-01;8.405033336281493E-01;-1.888801930957852E-03;-3.217289133598383E-04;3.590023039962413E-01;8.405033336281493E-01;
6.626626626626626E+07;-1.901004943042238E-03;-3.655748382613304E-04;3.599569547609697E-01;8.395019225868846E-01;-1.901004943042238E-03;-3.655748382613304E-04;3.599569547609697E-01;8.395019225868846E-01;
6.651651651651651E+07;-1.911366054031718E-03;-3.923816948291847E-04;3.609289153744700E-01;8.384866967263495E-01;-1.911366054031718E-03;-3.923816948291847E-04;3.609289153744700E-01;8.384866967263495E-01;
6.676676676676676E+07;-1.917371549669994E-03;-4.221939077558233E-04;3.618981636178170E-01;8.375122011936420E-01;-1.917371549669994E-03;-4.221939077558233E-04;3.618981636178170E-01;8.375122011936420E-01;
6.701701701701702E+07;-1.926080740447041E-03;-4.431672282398021E-04;3.641380668897561E-01;8.355934378875374E-01;-1.926080740447041E-03;-4.431672282398021E-04;3.641380668897561E-01;8.355934378875374E-01;
6.726726726726727E+07;-1.946244666501876E-03;-4.811703527508759E-04;3.654576919705629E-01;8.343896837651531E-01;-1.946244666501876E-03;-4.811703527508759E-04;3.654576919705629E-01;8.343896837651531E-01;
6.751751751751752E+07;-1.959553450367510E-03;-5.072058020863476E-04;3.668486254327032E-01;8.332391858802606E-01;-1.959553450367510E-03;-5.072058020863476E-04;3.668486254327032E-01;8.332391858802606E-01;
6.776776776776777E+07;-1.979894038626394E-03;-5.371140876483283E-04;3.681859404660425E-01;8.320238325136787E-01;-1.979894038626394E-03;-5.371140876483283E-04;3.681859404660425E-01;8.320238325136787E-01;
6.801801801801802E+07;-1.987868807049308E-03;-5.632431014263923E-04;3.696431518625377E-01;8.308852068552954E-01;-1.987868807049308E-03;-5.632431014263923E-04;3.696431518625377E-01;8.308852068552954E-01;
6.826826826826827E+07;-1.993888231388323E-03;-6.006260809183491E-04;3.712426509613052E-01;8.296339262442058E-01;-1.993888231388323E-03;-6.006260809183491E-04;3.712426509613052E-01;8.296339262442058E-01;
6.851851851851852E+07;-2.014844900670847E-03;-6.364102167157020E-04;3.734957791297156E-01;8.278412865916400E-01;-2.014844900670847E-03;-6.364102167157020E-04;3.734957791297156E-01;8.278412865916400E-01;
6.876876876876877E+07;-2.033560376908619E-03;-6.772707994955288E-04;3.805329115277176E-01;8.245590227472847E-01;-2.033560376908619E-03;-6.772707994955288E-04;3.805329115277176E-01;8.245590227472847E-01;
6.901901901901902E+07;-2.035485514226250E-03;-7.272359978978140E-04;3.840513482070245E-01;8.217685971723493E-01;-2.035485514226250E-03;-7.272359978978140E-04;3.840513482070245E-01;8.217685971723493E-01;
6.926926926926927E+07;-2.053575791749960E-03;-7.685833507606827E-04;3.880669232535843E-01;8.185042976803593E-01;-2.053575791749960E-03;-7.685833507606827E-04;3.880669232535843E-01;8.185042976803593E-01;
6.951951951951952E+07;-2.067461414442408E-03;-8.160333890257940E-04;3.922362667711534E-01;8.151557174344327E-01;-2.067461414442408E-03;-8.160333890257940E-04;3.922362667711534E-01;8.151557174344327E-01;
6.976976976976977E+07;-2.092463717455062E-03;-8.624017330508624E-04;3.964145139275788E-01;8.115949641995980E-01;-2.092463717455062E-03;-8.624017330508624E-04;3.964145139275788E-01;8.115949641995980E-01;
7.002002002002002E+07;-2.110553116024626E-03;-9.053295148587546E-04;4.004947151615042E-01;8.081601813814269E-01;-2.110553116024626E-03;-9.053295148587546E-04;4.004947151615042E-01;8.081601813814269E-01;
7.027027027027027E+07;-2.127704393049923E-03;-9.546714579944316E-04;4.044553774976902E-01;8.047637234240156E-01;-2.127704393049923E-03;-9.546714579944316E-04;4.044553774976902E-01;8.047637234240156E-01;
7.052052052052052E+07;-2.153637016148944E-03;-9.952709360109065E-04;4.085683759489360E-01;8.013099813861109E-01;-2.153637016148944E-03;-9.952709360109065E-04;4.085683759489360E-01;8.013099813861109E-01;
7.077077077077077E+07;-2.181331428521130E-03;-1.037401496681090E-03;4.127230130522572E-01;7.977546171861913E-01;-2.181331428521130E-03;-1.037401496681090E-03;4.127230130522572E-01;7.977546171861913E-01;
7.102102102102102E+07;-2.195661590946804E-03;-1.062827849977829E-03;4.168117570862647E-01;7.942123079053386E-01;-2.195661590946804E-03;-1.062827849977829E-03;4.168117570862647E-01;7.942123079053386E-01;
7.127127127127127E+07;-2.237540132857735E-03;-1.116803703760840E-03;4.212056886120417E-01;7.905002502127939E-01;-2.237540132857735E-03;-1.116803703760840E-03;4.212056886120417E-01;7.905002502127939E-01;
7.152152152152152E+07;-2.258591150153530E-03;-1.153028665046335E-03;4.256642133150039E-01;7.866468580969279E-01;-2.258591150153530E-03;-1.153028665046335E-03;4.256642133150039E-01;7.866468580969279E-01;
7.177177177177177E+07;-2.306206155835533E-03;-1.197577517309888E-03;4.300845249056670E-01;7.827291482069491E-01;-2.306206155835533E-03;-1.197577517309888E-03;4.300845249056670E-01;7.827291482069491E-01;
7.202202202202202E+07;-2.325573989701534E-03;-1.253418095396215E-03;4.346448382357265E-01;7.785340518993901E-01;-2.325573989701534E-03;-1.253418095396215E-03;4.346448382357265E-01;7.785340518993901E-01;
7.227227227227227E+07;-2.372497354194774E-03;-1.305889141763688E-03;4.397232627162733E-01;7.740866004347384E-01;-2.372497354194774E-03;-1.305889141763688E-03;4.397232627162733E-01;7.740866004347384E-01;
7.252252252252252E+07;-2.398171293689810E-03;-1.357547390752905E-03;4.452281475285321E-01;7.691875282271374E-01;-2.398171293689810E-03;-1.357547390752905E-03;4.452281475285321E-01;7.691875282271374E-01;
7.277277277277277E+07;-2.437268525016176E-03;-1.444940690209582E-03;4.512828560833175E-01;7.635865508139488E-01;-2.437268525016176E-03;-1.444940690209582E-03;4.512828560833175E-01;7.635865508139488E-01;
7.302302302302302E+07;-2.477283456211945E-03;-1.497159157049054E-03;4.579906666171455E-01;7.575144893159076E-01;-2.477283456211945E-03;-1.497159157049054E-03;4.579906666171455E-01;7.575144893159076E-01;
7.327327327327327E+07;-2.517408513151485E-03;-1.560517658877829E-03;4.650419551288587E-01;7.508210525994509E-01;-2.517408513151485E-03;-1.560517658877829E-03;4.650419551288587E-01;7.508210525994509E-01;
7.352352352352352E+07;-2.561355347727490E-03;-1.618580818153010E-03;4.724756165186410E-01;7.436604196795331E-01;-2.561355347727490E-03;-1.618580818153010E-03;4.724756165186410E-01;7.436604196795331E-01;
7.377377377377377E+07;-2.602001321155429E-03;-1.695224815310878E-03;4.799805481245750E-01;7.363236959355151E-01;-2.602001321155429E-03;-1.695224815310878E-03;4.799805481245750E-01;7.363236959355151E-01;
7.402402402402402E+07;-2.649458315569043E-03;-1.764261530644465E-03;4.876439085731323E-01;7.287684295374605E-01;-2.649458315569043E-03;-1.764261530644465E-03;4.876439085731323E-01;7.287684295374605E-01;
