# Version 1.00
#
# Ref Impedances: Z01: 50, Z02: 50
# 
freq[Hz];re:ZMag1_S12;im:ZMag1_S12;re:SMag1_S11;im:SMag1_S11;re:ZPh1_S12;im:ZPh1_S12;re:SPh1_S11;im:SPh1_S11;
5.000000000000000E+07;-1.209026770754740E-03;-6.843060574069209E-03;5.776128390086964E-01;6.326221682964103E-01;-1.209026770754740E-03;-6.843060574069209E-03;5.776128390086964E-01;6.326221682964103E-01;
5.025025025025025E+07;-2.181400079844032E-03;-7.031377724352207E-03;5.583867711592061E-01;6.166100400612018E-01;-2.181400079844032E-03;-7.031377724352207E-03;5.583867711592061E-01;6.166100400612018E-01;
5.050050050050050E+07;-3.279392897956135E-03;-6.956400049170829E-03;5.318005931516736E-01;6.035245404545465E-01;-3.279392897956135E-03;-6.956400049170829E-03;5.318005931516736E-01;6.035245404545465E-01;
5.075075075075075E+07;-4.410131982812987E-03;-6.601851887459237E-03;4.990219963395505E-01;5.975461866625867E-01;-4.410131982812987E-03;-6.601851887459237E-03;4.990219963395505E-01;5.975461866625867E-01;
5.100100100100100E+07;-5.456824679967776E-03;-5.881379338282326E-03;4.631893712215856E-01;6.011989036914739E-01;-5.456824679967776E-03;-5.881379338282326E-03;4.631893712215856E-01;6.011989036914739E-01;
5.125125125125125E+07;-6.244000976321906E-03;-4.855287313481980E-03;4.290233756810651E-01;6.154540939190510E-01;-6.244000976321906E-03;-4.855287313481980E-03;4.290233756810651E-01;6.154540939190510E-01;
5.150150150150150E+07;-6.680122904303395E-03;-3.676660653067430E-03;4.003035677887944E-01;6.379428212591449E-01;-6.680122904303395E-03;-3.676660653067430E-03;4.003035677887944E-01;6.379428212591449E-01;
5.175175175175175E+07;-6.718024463611202E-03;-2.471647254994081E-03;3.795177145713243E-01;6.658510107212298E-01;-6.718024463611202E-03;-2.471647254994081E-03;3.795177145713243E-01;6.658510107212298E-01;
5.200200200200200E+07;-6.493269662165190E-03;-1.495753145499388E-03;3.670148211537088E-01;6.930747131022450E-01;-6.493269662165190E-03;-1.495753145499388E-03;3.670148211537088E-01;6.930747131022450E-01;
5.225225225225225E+07;-6.058382115875875E-03;-7.118363147922549E-04;3.613715731851693E-01;7.189920905887387E-01;-6.058382115875875E-03;-7.118363147922549E-04;3.613715731851693E-01;7.189920905887387E-01;
5.250250250250250E+07;-5.544700984543243E-03;-1.258515713757586E-04;3.604000234011669E-01;7.410174778154003E-01;-5.544700984543243E-03;-1.258515713757586E-04;3.604000234011669E-01;7.410174778154003E-01;
5.275275275275275E+07;-5.033272293797192E-03;2.686386029089425E-04;3.620779070269415E-01;7.590061335065494E-01;-5.033272293797192E-03;2.686386029089425E-04;3.620779070269415E-01;7.590061335065494E-01;
5.300300300300300E+07;-4.544809042822436E-03;5.158455280910867E-04;3.647453963183573E-01;7.735421290797022E-01;-4.544809042822436E-03;5.158455280910867E-04;3.647453963183573E-01;7.735421290797022E-01;
5.325325325325325E+07;-4.121305422572889E-03;6.415773286936791E-04;3.679145222544552E-01;7.848827198075186E-01;-4.121305422572889E-03;6.415773286936791E-04;3.679145222544552E-01;7.848827198075186E-01;
5.350350350350350E+07;-3.752034542612096E-03;7.258987525278962E-04;3.706838636920831E-01;7.940001801405929E-01;-3.752034542612096E-03;7.258987525278962E-04;3.706838636920831E-01;7.940001801405929E-01;
5.375375375375375E+07;-3.442066044520366E-03;7.618040371560152E-04;3.729528440018457E-01;8.014903488080044E-01;-3.442066044520366E-03;7.618040371560152E-04;3.729528440018457E-01;8.014903488080044E-01;
5.400400400400400E+07;-3.174305810378758E-03;7.666538978135930E-04;3.745095220707433E-01;8.074275091007541E-01;-3.174305810378758E-03;7.666538978135930E-04;3.745095220707433E-01;8.074275091007541E-01;
5.425425425425425E+07;-2.947261209261778E-03;7.372749095825765E-04;3.755738007146806E-01;8.126108708363271E-01;-2.947261209261778E-03;7.372749095825765E-04;3.755738007146806E-01;8.126108708363271E-01;
5.450450450450450E+07;-2.751813784845673E-03;7.252557147444032E-04;3.759797683590552E-01;8.172040237034405E-01;-2.751813784845673E-03;7.252557147444032E-04;3.759797683590552E-01;8.172040237034405E-01;
5.475475475475475E+07;-2.593238851380561E-03;6.988206503289611E-04;3.759799142321937E-01;8.212595448643036E-01;-2.593238851380561E-03;6.988206503289611E-04;3.759799142321937E-01;8.212595448643036E-01;
5.500500500500500E+07;-2.436434578670510E-03;6.748968106983739E-04;3.757764617388148E-01;8.247911734844172E-01;-2.436434578670510E-03;6.748968106983739E-04;3.757764617388148E-01;8.247911734844172E-01;
5.525525525525525E+07;-2.313105690458174E-03;6.378917592580354E-04;3.752759976070143E-01;8.279769491810277E-01;-2.313105690458174E-03;6.378917592580354E-04;3.752759976070143E-01;8.279769491810277E-01;
5.550550550550550E+07;-2.172795205030021E-03;6.147721554452972E-04;3.747441007243196E-01;8.307300126863307E-01;-2.172795205030021E-03;6.147721554452972E-04;3.747441007243196E-01;8.307300126863307E-01;
5.575575575575575E+07;-2.070929837908087E-03;5.646128572588349E-04;3.738433641148396E-01;8.331865713422849E-01;-2.070929837908087E-03;5.646128572588349E-04;3.738433641148396E-01;8.331865713422849E-01;
5.600600600600600E+07;-1.972772164178517E-03;5.280100023504097E-04;3.727157516139428E-01;8.354426573079614E-01;-1.972772164178517E-03;5.280100023504097E-04;3.727157516139428E-01;8.354426573079614E-01;
5.625625625625625E+07;-1.894934720749220E-03;4.988101369574261E-04;3.714477456414050E-01;8.372524065074923E-01;-1.894934720749220E-03;4.988101369574261E-04;3.714477456414050E-01;8.372524065074923E-01;
5.650650650650650E+07;-1.808535878682311E-03;4.384746414619449E-04;3.699413136243264E-01;8.388278031834073E-01;-1.808535878682311E-03;4.384746414619449E-04;3.699413136243264E-01;8.388278031834073E-01;
5.675675675675675E+07;-1.752559322412477E-03;4.168572371475312E-04;3.679829928731574E-01;8.402678604357520E-01;-1.752559322412477E-03;4.168572371475312E-04;3.679829928731574E-01;8.402678604357520E-01;
5.700700700700700E+07;-1.706154615596550E-03;3.723047017615346E-04;3.660656464514002E-01;8.414219261584708E-01;-1.706154615596550E-03;3.723047017615346E-04;3.660656464514002E-01;8.414219261584708E-01;
5.725725725725726E+07;-1.656430663901311E-03;3.244150548431763E-04;3.638394614967026E-01;8.423796818399848E-01;-1.656430663901311E-03;3.244150548431763E-04;3.638394614967026E-01;8.423796818399848E-01;
5.750750750750751E+07;-1.597575551750117E-03;3.084878940657731E-04;3.615041619210566E-01;8.434626962035193E-01;-1.597575551750117E-03;3.084878940657731E-04;3.615041619210566E-01;8.434626962035193E-01;
5.775775775775776E+07;-1.551232184637219E-03;2.651592999833412E-04;3.589143990530975E-01;8.444156836287512E-01;-1.551232184637219E-03;2.651592999833412E-04;3.589143990530975E-01;8.444156836287512E-01;
5.800800800800801E+07;-1.533417631050208E-03;2.245091595963860E-04;3.619985224035242E-01;8.421788242886837E-01;-1.533417631050208E-03;2.245091595963860E-04;3.619985224035242E-01;8.421788242886837E-01;
5.825825825825826E+07;-1.495432604787204E-03;1.868515718430217E-04;3.591052616376196E-01;8.429117201317257E-01;-1.495432604787204E-03;1.868515718430217E-04;3.591052616376196E-01;8.429117201317257E-01;
5.850850850850851E+07;-1.452658269061954E-03;1.600109213895125E-04;3.561608369992584E-01;8.435250202890241E-01;-1.452658269061954E-03;1.600109213895125E-04;3.561608369992584E-01;8.435250202890241E-01;
5.875875875875876E+07;-1.432464775673151E-03;1.173616709061112E-04;3.530574753248160E-01;8.438317065399168E-01;-1.432464775673151E-03;1.173616709061112E-04;3.530574753248160E-01;8.438317065399168E-01;
5.900900900900901E+07;-1.419790786155661E-03;8.772582549990474E-05;3.497499081913737E-01;8.443727606785879E-01;-1.419790786155661E-03;8.772582549990474E-05;3.497499081913737E-01;8.443727606785879E-01;
5.925925925925926E+07;-1.397305754401471E-03;7.047323030857489E-05;3.461957179656971E-01;8.449593706840741E-01;-1.397305754401471E-03;7.047323030857489E-05;3.461957179656971E-01;8.449593706840741E-01;
5.950950950950951E+07;-1.394694169971355E-03;2.719980718908954E-05;3.424076400072286E-01;8.456016418346425E-01;-1.394694169971355E-03;2.719980718908954E-05;3.424076400072286E-01;8.456016418346425E-01;
5.975975975975976E+07;-1.378096840870275E-03;3.970604020443602E-06;3.386863855529895E-01;8.465353634575420E-01;-1.378096840870275E-03;3.970604020443602E-06;3.386863855529895E-01;8.465353634575420E-01;
6.001001001001001E+07;-1.379982277523185E-03;-1.177161735409876E-05;3.350030282436890E-01;8.477259513211756E-01;-1.379982277523185E-03;-1.177161735409876E-05;3.350030282436890E-01;8.477259513211756E-01;
6.026026026026026E+07;-1.373419349966242E-03;-2.824333999511363E-05;3.314946173439167E-01;8.491227868474458E-01;-1.373419349966242E-03;-2.824333999511363E-05;3.314946173439167E-01;8.491227868474458E-01;
6.051051051051051E+07;-1.383683804833452E-03;-3.121327507618205E-05;3.284090804088826E-01;8.506507345302076E-01;-1.383683804833452E-03;-3.121327507618205E-05;3.284090804088826E-01;8.506507345302076E-01;
6.076076076076076E+07;-1.351282518603243E-03;-5.654841400036499E-05;3.254095968066661E-01;8.522772273415961E-01;-1.351282518603243E-03;-5.654841400036499E-05;3.254095968066661E-01;8.522772273415961E-01;
6.101101101101101E+07;-1.353684069811701E-03;-5.423197709805906E-05;3.226742467760846E-01;8.538930214114937E-01;-1.353684069811701E-03;-5.423197709805906E-05;3.226742467760846E-01;8.538930214114937E-01;
6.126126126126126E+07;-1.333303500187329E-03;-9.290648717702390E-05;3.202624692085262E-01;8.553916029791729E-01;-1.333303500187329E-03;-9.290648717702390E-05;3.202624692085262E-01;8.553916029791729E-01;
6.151151151151151E+07;-1.335982462431850E-03;-9.492908611631192E-05;3.178647493440210E-01;8.568586360074676E-01;-1.335982462431850E-03;-9.492908611631192E-05;3.178647493440210E-01;8.568586360074676E-01;
6.176176176176176E+07;-1.311037377133696E-03;-9.610150901151621E-05;3.157666653650001E-01;8.580657713658808E-01;-1.311037377133696E-03;-9.610150901151621E-05;3.157666653650001E-01;8.580657713658808E-01;
6.201201201201201E+07;-1.299560040585035E-03;-1.182573964310605E-04;3.138208391496454E-01;8.592197791165513E-01;-1.299560040585035E-03;-1.182573964310605E-04;3.138208391496454E-01;8.592197791165513E-01;
6.226226226226226E+07;-1.297393022701258E-03;-1.344007609566479E-04;3.120175166823352E-01;8.601377167195896E-01;-1.297393022701258E-03;-1.344007609566479E-04;3.120175166823352E-01;8.601377167195896E-01;
6.251251251251251E+07;-1.288169402231920E-03;-1.449314767067656E-04;3.101878652988179E-01;8.609744695078084E-01;-1.288169402231920E-03;-1.449314767067656E-04;3.101878652988179E-01;8.609744695078084E-01;
6.276276276276276E+07;-1.301937034592908E-03;-1.535384726070067E-04;3.084160242253600E-01;8.617995281025785E-01;-1.301937034592908E-03;-1.535384726070067E-04;3.084160242253600E-01;8.617995281025785E-01;
6.301301301301301E+07;-1.265836694345809E-03;-1.726542625947137E-04;3.065697782075244E-01;8.625044106797920E-01;-1.265836694345809E-03;-1.726542625947137E-04;3.065697782075244E-01;8.625044106797920E-01;
6.326326326326326E+07;-1.262611025385619E-03;-1.818112707868614E-04;3.049483297577102E-01;8.631195688299411E-01;-1.262611025385619E-03;-1.818112707868614E-04;3.049483297577102E-01;8.631195688299411E-01;
6.351351351351351E+07;-1.255804652124297E-03;-1.973090587506102E-04;3.033216786339011E-01;8.637656219222980E-01;-1.255804652124297E-03;-1.973090587506102E-04;3.033216786339011E-01;8.637656219222980E-01;
6.376376376376376E+07;-1.252745566419596E-03;-2.043942812550711E-04;3.019680625004015E-01;8.642627021114637E-01;-1.252745566419596E-03;-2.043942812550711E-04;3.019680625004015E-01;8.642627021114637E-01;
6.401401401401401E+07;-1.246858884655292E-03;-2.093592860240026E-04;3.003963089323916E-01;8.649359644205954E-01;-1.246858884655292E-03;-2.093592860240026E-04;3.003963089323916E-01;8.649359644205954E-01;
6.426426426426426E+07;-1.256516830367907E-03;-2.337937847648406E-04;2.992450336326138E-01;8.653878945058231E-01;-1.256516830367907E-03;-2.337937847648406E-04;2.992450336326138E-01;8.653878945058231E-01;
6.451451451451451E+07;-1.220909912864351E-03;-2.583123320326734E-04;2.980339243159725E-01;8.657210425151223E-01;-1.220909912864351E-03;-2.583123320326734E-04;2.980339243159725E-01;8.657210425151223E-01;
6.476476476476476E+07;-1.220065496572758E-03;-2.619236698927362E-04;2.970963624091105E-01;8.660395943395235E-01;-1.220065496572758E-03;-2.619236698927362E-04;2.970963624091105E-01;8.660395943395235E-01;
6.501501501501501E+07;-1.201964526469045E-03;-2.813287789623756E-04;2.960929448583762E-01;8.662720639435557E-01;-1.201964526469045E-03;-2.813287789623756E-04;2.960929448583762E-01;8.662720639435557E-01;
6.526526526526526E+07;-1.198246644794788E-03;-3.062661596161959E-04;2.952856057559993E-01;8.663004869771425E-01;-1.198246644794788E-03;-3.062661596161959E-04;2.952856057559993E-01;8.663004869771425E-01;
6.551551551551551E+07;-1.197529926426726E-03;-3.245475379661950E-04;2.944920279123351E-01;8.664655303576477E-01;-1.197529926426726E-03;-3.245475379661950E-04;2.944920279123351E-01;8.664655303576477E-01;
6.576576576576576E+07;-1.192628114645499E-03;-3.307714939261661E-04;2.858328683723164E-01;8.696874109280376E-01;-1.192628114645499E-03;-3.307714939261661E-04;2.858328683723164E-01;8.696874109280376E-01;
6.601601601601601E+07;-1.188511298666530E-03;-3.417596468175162E-04;2.852072810229272E-01;8.695351984757510E-01;-1.188511298666530E-03;-3.417596468175162E-04;2.852072810229272E-01;8.695351984757510E-01;
6.626626626626626E+07;-1.181239657962928E-03;-3.663498956810002E-04;2.844437399185929E-01;8.695101571101569E-01;-1.181239657962928E-03;-3.663498956810002E-04;2.844437399185929E-01;8.695101571101569E-01;
6.651651651651651E+07;-1.169852580241238E-03;-3.790164372411885E-04;2.835948399052749E-01;8.694030701878219E-01;-1.169852580241238E-03;-3.790164372411885E-04;2.835948399052749E-01;8.694030701878219E-01;
6.676676676676676E+07;-1.160829904552181E-03;-3.873515442719401E-04;2.827067945564636E-01;8.694213757157725E-01;-1.160829904552181E-03;-3.873515442719401E-04;2.827067945564636E-01;8.694213757157725E-01;
6.701701701701702E+07;-1.170576907069778E-03;-4.218421856809095E-04;2.830448957418131E-01;8.686625617645329E-01;-1.170576907069778E-03;-4.218421856809095E-04;2.830448957418131E-01;8.686625617645329E-01;
6.726726726726727E+07;-1.162966731824699E-03;-4.250590913517971E-04;2.824125385058754E-01;8.685944350315787E-01;-1.162966731824699E-03;-4.250590913517971E-04;2.824125385058754E-01;8.685944350315787E-01;
6.751751751751752E+07;-1.153722765761656E-03;-4.507369911694821E-04;2.817233097666953E-01;8.685226161984225E-01;-1.153722765761656E-03;-4.507369911694821E-04;2.817233097666953E-01;8.685226161984225E-01;
6.776776776776777E+07;-1.157411277461944E-03;-4.482856106869905E-04;2.809268718437753E-01;8.685689137121828E-01;-1.157411277461944E-03;-4.482856106869905E-04;2.809268718437753E-01;8.685689137121828E-01;
6.801801801801802E+07;-1.160263586354056E-03;-4.840255122988315E-04;2.801735638921992E-01;8.687140831368959E-01;-1.160263586354056E-03;-4.840255122988315E-04;2.801735638921992E-01;8.687140831368959E-01;
6.826826826826827E+07;-1.152918008502866E-03;-4.967271315151931E-04;2.794284428354312E-01;8.686665430573740E-01;-1.152918008502866E-03;-4.967271315151931E-04;2.794284428354312E-01;8.686665430573740E-01;
6.851851851851852E+07;-1.160828482639180E-03;-5.154340194118922E-04;2.792378654873404E-01;8.683867912658397E-01;-1.160828482639180E-03;-5.154340194118922E-04;2.792378654873404E-01;8.683867912658397E-01;
6.876876876876877E+07;-1.145655675666125E-03;-5.407704558168180E-04;2.837705294684270E-01;8.671884373378491E-01;-1.145655675666125E-03;-5.407704558168180E-04;2.837705294684270E-01;8.671884373378491E-01;
6.901901901901902E+07;-1.127337758757586E-03;-5.781987939868806E-04;2.846707708637335E-01;8.662885473227475E-01;-1.127337758757586E-03;-5.781987939868806E-04;2.846707708637335E-01;8.662885473227475E-01;
6.926926926926927E+07;-1.148704675569096E-03;-5.973162940697451E-04;2.861545172467495E-01;8.650301982532442E-01;-1.148704675569096E-03;-5.973162940697451E-04;2.861545172467495E-01;8.650301982532442E-01;
6.951951951951952E+07;-1.133093871572492E-03;-6.297734043242814E-04;2.877979570787028E-01;8.635910676589182E-01;-1.133093871572492E-03;-6.297734043242814E-04;2.877979570787028E-01;8.635910676589182E-01;
6.976976976976977E+07;-1.137756782131938E-03;-6.397916548645621E-04;2.894653120285776E-01;8.620997134649474E-01;-1.137756782131938E-03;-6.397916548645621E-04;2.894653120285776E-01;8.620997134649474E-01;
7.002002002002002E+07;-1.141066046380943E-03;-6.635256176709977E-04;2.909402987353438E-01;8.606633803615362E-01;-1.141066046380943E-03;-6.635256176709977E-04;2.909402987353438E-01;8.606633803615362E-01;
7.027027027027027E+07;-1.134370110167862E-03;-6.939958658879665E-04;2.922002942451525E-01;8.594751624626595E-01;-1.134370110167862E-03;-6.939958658879665E-04;2.922002942451525E-01;8.594751624626595E-01;
7.052052052052052E+07;-1.129519235191998E-03;-7.103367530500794E-04;2.932990269407559E-01;8.583327965198225E-01;-1.129519235191998E-03;-7.103367530500794E-04;2.932990269407559E-01;8.583327965198225E-01;
7.077077077077077E+07;-1.131716932851789E-03;-7.382323318690567E-04;2.944077456242646E-01;8.572230881964736E-01;-1.131716932851789E-03;-7.382323318690567E-04;2.944077456242646E-01;8.572230881964736E-01;
7.102102102102102E+07;-1.145161833798529E-03;-7.581930612064598E-04;2.955093691268922E-01;8.560958107438343E-01;-1.145161833798529E-03;-7.581930612064598E-04;2.955093691268922E-01;8.560958107438343E-01;
7.127127127127127E+07;-1.141565182507523E-03;-7.902943237611135E-04;2.965074571159615E-01;8.549592470946789E-01;-1.141565182507523E-03;-7.902943237611135E-04;2.965074571159615E-01;8.549592470946789E-01;
7.152152152152152E+07;-1.152001839651173E-03;-8.143588929558083E-04;2.975706739394515E-01;8.537911514079272E-01;-1.152001839651173E-03;-8.143588929558083E-04;2.975706739394515E-01;8.537911514079272E-01;
7.177177177177177E+07;-1.143388179650874E-03;-8.295572479732234E-04;2.984488418151147E-01;8.527426858033036E-01;-1.143388179650874E-03;-8.295572479732234E-04;2.984488418151147E-01;8.527426858033036E-01;
7.202202202202202E+07;-1.142511281627795E-03;-8.702453510890011E-04;2.991211028569888E-01;8.518208795950823E-01;-1.142511281627795E-03;-8.702453510890011E-04;2.991211028569888E-01;8.518208795950823E-01;
7.227227227227227E+07;-1.147121139540059E-03;-8.925552786837239E-04;3.001745060365587E-01;8.507063361419108E-01;-1.147121139540059E-03;-8.925552786837239E-04;3.001745060365587E-01;8.507063361419108E-01;
7.252252252252252E+07;-1.160663354198177E-03;-9.180808852414996E-04;3.015035476720124E-01;8.494775739819440E-01;-1.160663354198177E-03;-9.180808852414996E-04;3.015035476720124E-01;8.494775739819440E-01;
7.277277277277277E+07;-1.160359366313080E-03;-9.554613063906325E-04;3.032169205211035E-01;8.480808538911945E-01;-1.160359366313080E-03;-9.554613063906325E-04;3.032169205211035E-01;8.480808538911945E-01;
7.302302302302302E+07;-1.161391969358182E-03;-9.792779840892588E-04;3.055635313059012E-01;8.464236523749695E-01;-1.161391969358182E-03;-9.792779840892588E-04;3.055635313059012E-01;8.464236523749695E-01;
7.327327327327327E+07;-1.166750571295220E-03;-1.025578099656129E-03;3.083115329953585E-01;8.445593614241036E-01;-1.166750571295220E-03;-1.025578099656129E-03;3.083115329953585E-01;8.445593614241036E-01;
7.352352352352352E+07;-1.166649113114721E-03;-1.047362984969434E-03;3.114794670467673E-01;8.425259078458176E-01;-1.166649113114721E-03;-1.047362984969434E-03;3.114794670467673E-01;8.425259078458176E-01;
7.377377377377377E+07;-1.182265776560816E-03;-1.082563101078565E-03;3.146706062036932E-01;8.404837319791622E-01;-1.182265776560816E-03;-1.082563101078565E-03;3.146706062036932E-01;8.404837319791622E-01;
7.402402402402402E+07;-1.185751200345245E-03;-1.120207713727108E-03;3.179786515730431E-01;8.384923205877339E-01;-1.185751200345245E-03;-1.120207713727108E-03;3.179786515730431E-01;8.384923205877339E-01;
