# Version 1.00
#
# Ref Impedances: Z01: 50, Z02: 50
# 
freq[Hz];re:SMag2_S11;im:SMag2_S11;re:ZPh2_S12;im:ZPh2_S12;re:SPh2_S11;im:SPh2_S11;re:ZMag2_S12;im:ZMag2_S12;
5.000000000000000E+07;3.654982560844566E-01;8.213872774108790E-01;9.601628122753346E-02;-6.983554211402408E-05;3.654982560844566E-01;8.213872774108790E-01;9.601628122753346E-02;-6.983554211402408E-05;
5.025025025025025E+07;3.602626269596845E-01;8.217294021670860E-01;9.770316505482197E-02;3.982625686647038E-03;3.602626269596845E-01;8.217294021670860E-01;9.770316505482197E-02;3.982625686647038E-03;
5.050050050050050E+07;3.545518360345015E-01;8.217135409957219E-01;1.001986269553317E-01;8.165734779932030E-03;3.545518360345015E-01;8.217135409957219E-01;1.001986269553317E-01;8.165734779932030E-03;
5.075075075075075E+07;3.479797932267527E-01;8.215533454383360E-01;1.039536316751553E-01;1.207145748425167E-02;3.479797932267527E-01;8.215533454383360E-01;1.039536316751553E-01;1.207145748425167E-02;
5.100100100100100E+07;3.405167372250800E-01;8.218711288440435E-01;1.085908548533770E-01;1.515616556435929E-02;3.405167372250800E-01;8.218711288440435E-01;1.085908548533770E-01;1.515616556435929E-02;
5.125125125125125E+07;3.323748625455342E-01;8.228383869214614E-01;1.139852893004604E-01;1.678501531280888E-02;3.323748625455342E-01;8.228383869214614E-01;1.139852893004604E-01;1.678501531280888E-02;
5.150150150150150E+07;3.236191821505676E-01;8.248067831983834E-01;1.193031006114055E-01;1.716301280455303E-02;3.236191821505676E-01;8.248067831983834E-01;1.193031006114055E-01;1.716301280455303E-02;
5.175175175175175E+07;3.153073439109627E-01;8.297542850687515E-01;1.229596552242843E-01;1.255896550258828E-02;3.153073439109627E-01;8.297542850687515E-01;1.229596552242843E-01;1.255896550258828E-02;
5.200200200200200E+07;3.074174954198778E-01;8.316349782310134E-01;1.279529203502570E-01;1.448552949199732E-02;3.074174954198778E-01;8.316349782310134E-01;1.279529203502570E-01;1.448552949199732E-02;
5.225225225225225E+07;3.000605905299627E-01;8.358486816684135E-01;1.303842192632644E-01;1.226733829126956E-02;3.000605905299627E-01;8.358486816684135E-01;1.303842192632644E-01;1.226733829126956E-02;
5.250250250250250E+07;2.933443312668311E-01;8.403883354366112E-01;1.327843006115806E-01;9.719090936357986E-03;2.933443312668311E-01;8.403883354366112E-01;1.327843006115806E-01;9.719090936357986E-03;
5.275275275275275E+07;2.871667806221689E-01;8.447863782754995E-01;1.338847154651795E-01;7.418386699865212E-03;2.871667806221689E-01;8.447863782754995E-01;1.338847154651795E-01;7.418386699865212E-03;
5.300300300300300E+07;2.818738671740222E-01;8.495919380644444E-01;1.343739209132527E-01;5.322985601070076E-03;2.818738671740222E-01;8.495919380644444E-01;1.343739209132527E-01;5.322985601070076E-03;
5.325325325325325E+07;2.768648956151562E-01;8.536529965091664E-01;1.343611859239920E-01;3.635305769321421E-03;2.768648956151562E-01;8.536529965091664E-01;1.343611859239920E-01;3.635305769321421E-03;
5.350350350350350E+07;2.723234690757235E-01;8.579371132120610E-01;1.338318015961976E-01;2.288785895291351E-03;2.723234690757235E-01;8.579371132120610E-01;1.338318015961976E-01;2.288785895291351E-03;
5.375375375375375E+07;2.680249500264317E-01;8.618325839406438E-01;1.329665356453037E-01;1.225080597345696E-03;2.680249500264317E-01;8.618325839406438E-01;1.329665356453037E-01;1.225080597345696E-03;
5.400400400400400E+07;2.640611310900646E-01;8.652965681619591E-01;1.319591777953958E-01;6.411064038246440E-04;2.640611310900646E-01;8.652965681619591E-01;1.319591777953958E-01;6.411064038246440E-04;
5.425425425425425E+07;2.603571536383210E-01;8.684799561111968E-01;1.307518351917026E-01;3.948958658731734E-04;2.603571536383210E-01;8.684799561111968E-01;1.307518351917026E-01;3.948958658731734E-04;
5.450450450450450E+07;2.565885962566997E-01;8.712280972639793E-01;1.294281482311115E-01;5.637634396585988E-04;2.565885962566997E-01;8.712280972639793E-01;1.294281482311115E-01;5.637634396585988E-04;
5.475475475475475E+07;2.529616599350600E-01;8.739508288349350E-01;1.282359306679684E-01;1.130608946445521E-03;2.529616599350600E-01;8.739508288349350E-01;1.282359306679684E-01;1.130608946445521E-03;
5.500500500500500E+07;2.494715381760118E-01;8.762646159686241E-01;1.270504402382054E-01;1.849424220496720E-03;2.494715381760118E-01;8.762646159686241E-01;1.270504402382054E-01;1.849424220496720E-03;
5.525525525525525E+07;2.456518510388595E-01;8.782374848557322E-01;1.258868264479229E-01;2.753963496168498E-03;2.456518510388595E-01;8.782374848557322E-01;1.258868264479229E-01;2.753963496168498E-03;
5.550550550550550E+07;2.425769726365647E-01;8.805493668144210E-01;1.246406250065606E-01;3.865748173070145E-03;2.425769726365647E-01;8.805493668144210E-01;1.246406250065606E-01;3.865748173070145E-03;
5.575575575575575E+07;2.388569200092528E-01;8.820212151108635E-01;1.231397733301943E-01;5.107140311589410E-03;2.388569200092528E-01;8.820212151108635E-01;1.231397733301943E-01;5.107140311589410E-03;
5.600600600600600E+07;2.351240231884974E-01;8.836505542590943E-01;1.224156746927680E-01;6.792430005330785E-03;2.351240231884974E-01;8.836505542590943E-01;1.224156746927680E-01;6.792430005330785E-03;
5.625625625625625E+07;2.313630381232692E-01;8.851901255231094E-01;1.214277806626932E-01;8.441734256685447E-03;2.313630381232692E-01;8.851901255231094E-01;1.214277806626932E-01;8.441734256685447E-03;
5.650650650650650E+07;2.280687004928738E-01;8.864423510444281E-01;1.203556719632002E-01;1.029033018093931E-02;2.280687004928738E-01;8.864423510444281E-01;1.203556719632002E-01;1.029033018093931E-02;
5.675675675675675E+07;2.243055810109530E-01;8.875590663928675E-01;1.194119509241350E-01;1.235472318400894E-02;2.243055810109530E-01;8.875590663928675E-01;1.194119509241350E-01;1.235472318400894E-02;
5.700700700700700E+07;2.207352374018342E-01;8.883737272152994E-01;1.185553856402583E-01;1.447805794274439E-02;2.207352374018342E-01;8.883737272152994E-01;1.185553856402583E-01;1.447805794274439E-02;
5.725725725725726E+07;2.172024074494641E-01;8.892334315957900E-01;1.176521635768082E-01;1.668296763961866E-02;2.172024074494641E-01;8.892334315957900E-01;1.176521635768082E-01;1.668296763961866E-02;
5.750750750750751E+07;2.136157460551296E-01;8.901019879940740E-01;1.167956209773197E-01;1.898377052618678E-02;2.136157460551296E-01;8.901019879940740E-01;1.167956209773197E-01;1.898377052618678E-02;
5.775775775775776E+07;2.099827842966921E-01;8.906172340729024E-01;1.160149932655814E-01;2.143815035727954E-02;2.099827842966921E-01;8.906172340729024E-01;1.160149932655814E-01;2.143815035727954E-02;
5.800800800800801E+07;2.063409754083169E-01;8.911261548708354E-01;1.150442554931656E-01;2.470621132198281E-02;2.063409754083169E-01;8.911261548708354E-01;1.150442554931656E-01;2.470621132198281E-02;
5.825825825825826E+07;2.028553177847564E-01;8.913780752177144E-01;1.139672729164630E-01;2.747668620041224E-02;2.028553177847564E-01;8.913780752177144E-01;1.139672729164630E-01;2.747668620041224E-02;
5.850850850850851E+07;1.992789749296791E-01;8.912915148208110E-01;1.129564452252368E-01;3.056207833470418E-02;1.992789749296791E-01;8.912915148208110E-01;1.129564452252368E-01;3.056207833470418E-02;
5.875875875875876E+07;1.956277229648669E-01;8.908357210854265E-01;1.120369482913611E-01;3.407426521146899E-02;1.956277229648669E-01;8.908357210854265E-01;1.120369482913611E-01;3.407426521146899E-02;
5.900900900900901E+07;1.918068038982354E-01;8.900911256162213E-01;1.113053416440103E-01;3.802252067557330E-02;1.918068038982354E-01;8.900911256162213E-01;1.113053416440103E-01;3.802252067557330E-02;
5.925925925925926E+07;1.876317839937031E-01;8.892468272771299E-01;1.109812513553839E-01;4.240338683035025E-02;1.876317839937031E-01;8.892468272771299E-01;1.109812513553839E-01;4.240338683035025E-02;
5.950950950950951E+07;1.830660250596800E-01;8.884762114004662E-01;1.109139721086630E-01;4.656815378960653E-02;1.830660250596800E-01;8.884762114004662E-01;1.109139721086630E-01;4.656815378960653E-02;
5.975975975975976E+07;1.778789087979749E-01;8.874929477780815E-01;1.123024975536298E-01;5.169934100170141E-02;1.778789087979749E-01;8.874929477780815E-01;1.123024975536298E-01;5.169934100170141E-02;
6.001001001001001E+07;1.724058770060354E-01;8.868785138568185E-01;1.140104573364085E-01;5.638018833734786E-02;1.724058770060354E-01;8.868785138568185E-01;1.140104573364085E-01;5.638018833734786E-02;
6.026026026026026E+07;1.669430671596527E-01;8.867447654567723E-01;1.163922289434115E-01;6.013546348669845E-02;1.669430671596527E-01;8.867447654567723E-01;1.163922289434115E-01;6.013546348669845E-02;
6.051051051051051E+07;1.612664741453966E-01;8.873622799448916E-01;1.191090851628056E-01;6.340339144904003E-02;1.612664741453966E-01;8.873622799448916E-01;1.191090851628056E-01;6.340339144904003E-02;
6.076076076076076E+07;1.556255797502878E-01;8.882685421579423E-01;1.219374019206413E-01;6.583766369153975E-02;1.556255797502878E-01;8.882685421579423E-01;1.219374019206413E-01;6.583766369153975E-02;
6.101101101101101E+07;1.506365874230538E-01;8.898921151929088E-01;1.245472614575157E-01;6.758671822599456E-02;1.506365874230538E-01;8.898921151929088E-01;1.245472614575157E-01;6.758671822599456E-02;
6.126126126126126E+07;1.460127342425648E-01;8.914448452477882E-01;1.266662820931442E-01;6.887541080094500E-02;1.460127342425648E-01;8.914448452477882E-01;1.266662820931442E-01;6.887541080094500E-02;
6.151151151151151E+07;1.416882589122119E-01;8.930308352829461E-01;1.282802637777536E-01;6.991421540875428E-02;1.416882589122119E-01;8.930308352829461E-01;1.282802637777536E-01;6.991421540875428E-02;
6.176176176176176E+07;1.377350810608713E-01;8.945948008773484E-01;1.294281550550840E-01;7.099036304378950E-02;1.377350810608713E-01;8.945948008773484E-01;1.294281550550840E-01;7.099036304378950E-02;
6.201201201201201E+07;1.342891242627675E-01;8.959385028029550E-01;1.303134603384623E-01;7.201162610841642E-02;1.342891242627675E-01;8.959385028029550E-01;1.303134603384623E-01;7.201162610841642E-02;
6.226226226226226E+07;1.309694997108716E-01;8.972672057496975E-01;1.309119551998479E-01;7.311724001482679E-02;1.309694997108716E-01;8.972672057496975E-01;1.309119551998479E-01;7.311724001482679E-02;
6.251251251251251E+07;1.277233311631959E-01;8.984833234277273E-01;1.313640190801516E-01;7.425722239034244E-02;1.277233311631959E-01;8.984833234277273E-01;1.313640190801516E-01;7.425722239034244E-02;
6.276276276276276E+07;1.245928845756743E-01;8.998038194054874E-01;1.314509728520398E-01;7.543458853081403E-02;1.245928845756743E-01;8.998038194054874E-01;1.314509728520398E-01;7.543458853081403E-02;
6.301301301301301E+07;1.220359144907574E-01;9.004306962199164E-01;1.314061672573453E-01;7.673109122971238E-02;1.220359144907574E-01;9.004306962199164E-01;1.314061672573453E-01;7.673109122971238E-02;
6.326326326326326E+07;1.192631344910560E-01;9.012075934568303E-01;1.307986972372615E-01;7.830501209978311E-02;1.192631344910560E-01;9.012075934568303E-01;1.307986972372615E-01;7.830501209978311E-02;
6.351351351351351E+07;1.165548034642365E-01;9.018390075536493E-01;1.308525250678638E-01;8.003582505625870E-02;1.165548034642365E-01;9.018390075536493E-01;1.308525250678638E-01;8.003582505625870E-02;
6.376376376376376E+07;1.139176745549494E-01;9.022660532498596E-01;1.305534770693739E-01;8.186319111754298E-02;1.139176745549494E-01;9.022660532498596E-01;1.305534770693739E-01;8.186319111754298E-02;
6.401401401401401E+07;1.111078574575110E-01;9.026007912705669E-01;1.302751053598883E-01;8.378105345267586E-02;1.111078574575110E-01;9.026007912705669E-01;1.302751053598883E-01;8.378105345267586E-02;
6.426426426426426E+07;1.086702495111174E-01;9.030095092927366E-01;1.299787286648337E-01;8.577345950784192E-02;1.086702495111174E-01;9.030095092927366E-01;1.299787286648337E-01;8.577345950784192E-02;
6.451451451451451E+07;1.060831345697163E-01;9.033173779362967E-01;1.296147536864985E-01;8.783584653474284E-02;1.060831345697163E-01;9.033173779362967E-01;1.296147536864985E-01;8.783584653474284E-02;
6.476476476476476E+07;1.035614304826482E-01;9.034724468958646E-01;1.292661399826893E-01;8.997483062254603E-02;1.035614304826482E-01;9.034724468958646E-01;1.292661399826893E-01;8.997483062254603E-02;
6.501501501501501E+07;1.012343654158982E-01;9.037194334231595E-01;1.288379720818038E-01;9.210391362635009E-02;1.012343654158982E-01;9.037194334231595E-01;1.288379720818038E-01;9.210391362635009E-02;
6.526526526526526E+07;9.890007869091201E-02;9.040076605002357E-01;1.284386507111058E-01;9.423008688836899E-02;9.890007869091201E-02;9.040076605002357E-01;1.284386507111058E-01;9.423008688836899E-02;
6.551551551551551E+07;9.673219584065844E-02;9.041854833477398E-01;1.279419357437052E-01;9.640650059947588E-02;9.673219584065844E-02;9.041854833477398E-01;1.279419357437052E-01;9.640650059947588E-02;
6.576576576576576E+07;9.673093295926782E-02;9.052605750853022E-01;1.282929093640162E-01;9.770215545343786E-02;9.673093295926782E-02;9.052605750853022E-01;1.282929093640162E-01;9.770215545343786E-02;
6.601601601601601E+07;9.502225504076581E-02;9.049519826694236E-01;1.276576129498464E-01;9.983874601283138E-02;9.502225504076581E-02;9.049519826694236E-01;1.276576129498464E-01;9.983874601283138E-02;
6.626626626626626E+07;9.287940325966870E-02;9.048676926683498E-01;1.267466775093999E-01;1.020600371925118E-01;9.287940325966870E-02;9.048676926683498E-01;1.267466775093999E-01;1.020600371925118E-01;
6.651651651651651E+07;9.064379584452345E-02;9.046228837424229E-01;1.262023062364890E-01;1.044691279111620E-01;9.064379584452345E-02;9.046228837424229E-01;1.262023062364890E-01;1.044691279111620E-01;
6.676676676676676E+07;8.833871871084240E-02;9.044359461995806E-01;1.255765736720415E-01;1.068671911156054E-01;8.833871871084240E-02;9.044359461995806E-01;1.255765736720415E-01;1.068671911156054E-01;
6.701701701701702E+07;8.732106905322655E-02;9.037718282950059E-01;1.246061678270947E-01;1.099037855633077E-01;8.732106905322655E-02;9.037718282950059E-01;1.246061678270947E-01;1.099037855633077E-01;
6.726726726726727E+07;8.517713424736227E-02;9.035534754091834E-01;1.240600630984786E-01;1.123586749344806E-01;8.517713424736227E-02;9.035534754091834E-01;1.240600630984786E-01;1.123586749344806E-01;
6.751751751751752E+07;8.299539877733982E-02;9.032630890090293E-01;1.236052299731331E-01;1.148049554205445E-01;8.299539877733982E-02;9.032630890090293E-01;1.236052299731331E-01;1.148049554205445E-01;
6.776776776776777E+07;8.059769134309076E-02;9.030755206938875E-01;1.230835380305258E-01;1.172511417335388E-01;8.059769134309076E-02;9.030755206938875E-01;1.230835380305258E-01;1.172511417335388E-01;
6.801801801801802E+07;7.811654880305857E-02;9.030107424454061E-01;1.224686103210193E-01;1.197763668876196E-01;7.811654880305857E-02;9.030107424454061E-01;1.224686103210193E-01;1.197763668876196E-01;
6.826826826826827E+07;7.608606941389343E-02;9.027301036664160E-01;1.216256451173939E-01;1.226310631186798E-01;7.608606941389343E-02;9.027301036664160E-01;1.216256451173939E-01;1.226310631186798E-01;
6.851851851851852E+07;7.403920535748368E-02;9.021933608589602E-01;1.206663286141593E-01;1.256746237187374E-01;7.403920535748368E-02;9.021933608589602E-01;1.206663286141593E-01;1.256746237187374E-01;
6.876876876876877E+07;7.324496800414060E-02;9.011304026554352E-01;1.188147325365424E-01;1.289417651833864E-01;7.324496800414060E-02;9.011304026554352E-01;1.188147325365424E-01;1.289417651833864E-01;
6.901901901901902E+07;7.238562441787733E-02;9.002609961918767E-01;1.174384876755658E-01;1.323277161720565E-01;7.238562441787733E-02;9.002609961918767E-01;1.174384876755658E-01;1.323277161720565E-01;
6.926926926926927E+07;7.238596646229471E-02;8.991594912164388E-01;1.160165809834066E-01;1.357437491504170E-01;7.238596646229471E-02;8.991594912164388E-01;1.160165809834066E-01;1.357437491504170E-01;
6.951951951951952E+07;7.252590316990679E-02;8.980565211914001E-01;1.145845891385011E-01;1.392033713984829E-01;7.252590316990679E-02;8.980565211914001E-01;1.145845891385011E-01;1.392033713984829E-01;
6.976976976976977E+07;7.281751367557264E-02;8.966153917892745E-01;1.130690466326905E-01;1.426611356241841E-01;7.281751367557264E-02;8.966153917892745E-01;1.130690466326905E-01;1.426611356241841E-01;
7.002002002002002E+07;7.250703056692510E-02;8.952904557323517E-01;1.114735652141932E-01;1.461285331413962E-01;7.250703056692510E-02;8.952904557323517E-01;1.114735652141932E-01;1.461285331413962E-01;
7.027027027027027E+07;7.183554655927016E-02;8.938788572321233E-01;1.104189228050154E-01;1.495814199860337E-01;7.183554655927016E-02;8.938788572321233E-01;1.104189228050154E-01;1.495814199860337E-01;
7.052052052052052E+07;7.129228569710955E-02;8.929480465065449E-01;1.093812143084505E-01;1.529958473909143E-01;7.129228569710955E-02;8.929480465065449E-01;1.093812143084505E-01;1.529958473909143E-01;
7.077077077077077E+07;7.061540924792312E-02;8.917956722014789E-01;1.083123642877369E-01;1.563602805537682E-01;7.061540924792312E-02;8.917956722014789E-01;1.083123642877369E-01;1.563602805537682E-01;
7.102102102102102E+07;6.975391929744908E-02;8.906182104489251E-01;1.073160699993887E-01;1.596862237079979E-01;6.975391929744908E-02;8.906182104489251E-01;1.073160699993887E-01;1.596862237079979E-01;
7.127127127127127E+07;6.898749257360685E-02;8.896012855425666E-01;1.063994821959032E-01;1.630962882250145E-01;6.898749257360685E-02;8.896012855425666E-01;1.063994821959032E-01;1.630962882250145E-01;
7.152152152152152E+07;6.792738350978737E-02;8.884961366981693E-01;1.056131514553811E-01;1.664269710842483E-01;6.792738350978737E-02;8.884961366981693E-01;1.056131514553811E-01;1.664269710842483E-01;
7.177177177177177E+07;6.691743369930073E-02;8.873415453826451E-01;1.048241969398828E-01;1.698743391086462E-01;6.691743369930073E-02;8.873415453826451E-01;1.048241969398828E-01;1.698743391086462E-01;
7.202202202202202E+07;6.574675389089288E-02;8.864668414858625E-01;1.039318878308031E-01;1.734994318343592E-01;6.574675389089288E-02;8.864668414858625E-01;1.039318878308031E-01;1.734994318343592E-01;
7.227227227227227E+07;6.492780251957156E-02;8.852343493190129E-01;1.027350198181317E-01;1.773548682321970E-01;6.492780251957156E-02;8.852343493190129E-01;1.027350198181317E-01;1.773548682321970E-01;
7.252252252252252E+07;6.427563884199060E-02;8.841650054089453E-01;1.013289742611101E-01;1.812145583370888E-01;6.427563884199060E-02;8.841650054089453E-01;1.013289742611101E-01;1.812145583370888E-01;
7.277277277277277E+07;6.423299214899930E-02;8.827994380750238E-01;9.982246792321706E-02;1.853393543199227E-01;6.423299214899930E-02;8.827994380750238E-01;9.982246792321706E-02;1.853393543199227E-01;
7.302302302302302E+07;6.475269184759863E-02;8.814135261896227E-01;9.812389369049464E-02;1.894649352584629E-01;6.475269184759863E-02;8.814135261896227E-01;9.812389369049464E-02;1.894649352584629E-01;
7.327327327327327E+07;6.582140807250675E-02;8.796723024134377E-01;9.653942225112622E-02;1.936399685239226E-01;6.582140807250675E-02;8.796723024134377E-01;9.653942225112622E-02;1.936399685239226E-01;
7.352352352352352E+07;6.733235601043482E-02;8.779501739173713E-01;9.498646145775751E-02;1.979227501974154E-01;6.733235601043482E-02;8.779501739173713E-01;9.498646145775751E-02;1.979227501974154E-01;
7.377377377377377E+07;6.855823701229204E-02;8.761611744015420E-01;9.322382457086675E-02;2.021039034603658E-01;6.855823701229204E-02;8.761611744015420E-01;9.322382457086675E-02;2.021039034603658E-01;
7.402402402402402E+07;6.973081191964457E-02;8.743511587286357E-01;9.204581093256549E-02;2.065059837260445E-01;6.973081191964457E-02;8.743511587286357E-01;9.204581093256549E-02;2.065059837260445E-01;
7.427427427427427E+07;7.080237493130973E-02;8.726818717802763E-01;9.084390007968779E-02;2.108580930908144E-01;7.080237493130973E-02;8.726818717802763E-01;9.084390007968779E-02;2.108580930908144E-01;
7.452452452452452E+07;7.184591480188991E-02;8.706676583706209E-01;8.957892125645441E-02;2.152647690792537E-01;7.184591480188991E-02;8.706676583706209E-01;8.957892125645441E-02;2.152647690792537E-01;
