# Version 1.00
#
# Ref Impedances: Z01: 50, Z02: 50
# 
freq[Hz];re:SMag2_S11;im:SMag2_S11;re:ZPh2_S12;im:ZPh2_S12;re:SPh2_S11;im:SPh2_S11;re:ZMag2_S12;im:ZMag2_S12;
5.000000000000000E+07;3.608894569049312E-01;8.207680951125071E-01;9.519034197417857E-02;-1.110959911560014E-03;3.608894569049312E-01;8.207680951125071E-01;9.519034197417857E-02;-1.110959911560014E-03;
5.025025025025025E+07;3.551879798888822E-01;8.211047544488329E-01;9.744736476492720E-02;2.042058812895215E-03;3.551879798888822E-01;8.211047544488329E-01;9.744736476492720E-02;2.042058812895215E-03;
5.050050050050050E+07;3.486378666546377E-01;8.208776130755996E-01;1.007249804379694E-01;6.792324575448991E-03;3.486378666546377E-01;8.208776130755996E-01;1.007249804379694E-01;6.792324575448991E-03;
5.075075075075075E+07;3.409637999906737E-01;8.203635791074969E-01;1.050907112920758E-01;1.032726540854637E-02;3.409637999906737E-01;8.203635791074969E-01;1.050907112920758E-01;1.032726540854637E-02;
5.100100100100100E+07;3.325673714988618E-01;8.205717178030033E-01;1.106079573198507E-01;1.271104137706927E-02;3.325673714988618E-01;8.205717178030033E-01;1.106079573198507E-01;1.271104137706927E-02;
5.125125125125125E+07;3.234256127889850E-01;8.222656651317904E-01;1.166385156021941E-01;1.355943965508363E-02;3.234256127889850E-01;8.222656651317904E-01;1.166385156021941E-01;1.355943965508363E-02;
5.150150150150150E+07;3.141133070070975E-01;8.270629042749642E-01;1.227095346308256E-01;1.185866949605491E-02;3.141133070070975E-01;8.270629042749642E-01;1.227095346308256E-01;1.185866949605491E-02;
5.175175175175175E+07;3.059553251731654E-01;8.291996049431323E-01;1.274153083282837E-01;1.015318156325042E-02;3.059553251731654E-01;8.291996049431323E-01;1.274153083282837E-01;1.015318156325042E-02;
5.200200200200200E+07;2.979669381964152E-01;8.342674034068726E-01;1.311902703760486E-01;8.237567849962558E-03;2.979669381964152E-01;8.342674034068726E-01;1.311902703760486E-01;8.237567849962558E-03;
5.225225225225225E+07;2.912071433219535E-01;8.394608175144542E-01;1.333650844747058E-01;5.273613856278751E-03;2.912071433219535E-01;8.394608175144542E-01;1.333650844747058E-01;5.273613856278751E-03;
5.250250250250250E+07;2.855324937857052E-01;8.447025534307870E-01;1.344230848624823E-01;2.501720159849290E-03;2.855324937857052E-01;8.447025534307870E-01;1.344230848624823E-01;2.501720159849290E-03;
5.275275275275275E+07;2.803150048874146E-01;8.489897912125949E-01;1.347758957540005E-01;1.991171256891384E-04;2.803150048874146E-01;8.489897912125949E-01;1.347758957540005E-01;1.991171256891384E-04;
5.300300300300300E+07;2.759833219378103E-01;8.536013069137843E-01;1.345135114631661E-01;-1.753588402157848E-03;2.759833219378103E-01;8.536013069137843E-01;1.345135114631661E-01;-1.753588402157848E-03;
5.325325325325325E+07;2.713224803571216E-01;8.576823955432766E-01;1.337027052175775E-01;-3.141238402272662E-03;2.713224803571216E-01;8.576823955432766E-01;1.337027052175775E-01;-3.141238402272662E-03;
5.350350350350350E+07;2.672599612517176E-01;8.615699900336581E-01;1.327637525485780E-01;-3.803574390674331E-03;2.672599612517176E-01;8.615699900336581E-01;1.327637525485780E-01;-3.803574390674331E-03;
5.375375375375375E+07;2.631379214843761E-01;8.654344013272804E-01;1.317671544211532E-01;-4.078218705032049E-03;2.631379214843761E-01;8.654344013272804E-01;1.317671544211532E-01;-4.078218705032049E-03;
5.400400400400400E+07;2.596692002826506E-01;8.686232283928544E-01;1.306106974528981E-01;-4.141091692818613E-03;2.596692002826506E-01;8.686232283928544E-01;1.306106974528981E-01;-4.141091692818613E-03;
5.425425425425425E+07;2.562147362020190E-01;8.712784827508883E-01;1.293849151711776E-01;-3.960267923141685E-03;2.562147362020190E-01;8.712784827508883E-01;1.293849151711776E-01;-3.960267923141685E-03;
5.450450450450450E+07;2.525148102949565E-01;8.740101382949086E-01;1.282364252904905E-01;-3.450639466470422E-03;2.525148102949565E-01;8.740101382949086E-01;1.282364252904905E-01;-3.450639466470422E-03;
5.475475475475475E+07;2.491505775346703E-01;8.762598768107697E-01;1.271167746808182E-01;-2.579969959221345E-03;2.491505775346703E-01;8.762598768107697E-01;1.271167746808182E-01;-2.579969959221345E-03;
5.500500500500500E+07;2.454526502933178E-01;8.783157510524312E-01;1.259984726544674E-01;-1.428554041279914E-03;2.454526502933178E-01;8.783157510524312E-01;1.259984726544674E-01;-1.428554041279914E-03;
5.525525525525525E+07;2.419471187443384E-01;8.802907538242939E-01;1.249520045726823E-01;-1.606254741043885E-04;2.419471187443384E-01;8.802907538242939E-01;1.249520045726823E-01;-1.606254741043885E-04;
5.550550550550550E+07;2.385973210605378E-01;8.821146216742042E-01;1.232555899762378E-01;9.614698317014622E-04;2.385973210605378E-01;8.821146216742042E-01;1.232555899762378E-01;9.614698317014622E-04;
5.575575575575575E+07;2.348461847185521E-01;8.834419840756058E-01;1.232398747784568E-01;2.977281640387605E-03;2.348461847185521E-01;8.834419840756058E-01;1.232398747784568E-01;2.977281640387605E-03;
5.600600600600600E+07;2.308364161670739E-01;8.846116947771353E-01;1.224805257156895E-01;4.811538072797377E-03;2.308364161670739E-01;8.846116947771353E-01;1.224805257156895E-01;4.811538072797377E-03;
5.625625625625625E+07;2.272268760639740E-01;8.858408370163767E-01;1.217827679428224E-01;6.805094893481251E-03;2.272268760639740E-01;8.858408370163767E-01;1.217827679428224E-01;6.805094893481251E-03;
5.650650650650650E+07;2.234541641972389E-01;8.871548202737463E-01;1.212360143557401E-01;8.827513681747653E-03;2.234541641972389E-01;8.871548202737463E-01;1.212360143557401E-01;8.827513681747653E-03;
5.675675675675675E+07;2.197283538573992E-01;8.880941622066623E-01;1.207240703267959E-01;1.096903070412518E-02;2.197283538573992E-01;8.880941622066623E-01;1.207240703267959E-01;1.096903070412518E-02;
5.700700700700700E+07;2.158777478920690E-01;8.888675538481022E-01;1.202792406073505E-01;1.321149460953026E-02;2.158777478920690E-01;8.888675538481022E-01;1.202792406073505E-01;1.321149460953026E-02;
5.725725725725726E+07;2.121665249717013E-01;8.898260063457412E-01;1.198958825687511E-01;1.548081411909944E-02;2.121665249717013E-01;8.898260063457412E-01;1.198958825687511E-01;1.548081411909944E-02;
5.750750750750751E+07;2.082009520390848E-01;8.906905962593622E-01;1.195066418561831E-01;1.778937624544207E-02;2.082009520390848E-01;8.906905962593622E-01;1.195066418561831E-01;1.778937624544207E-02;
5.775775775775776E+07;2.044924886682896E-01;8.914715014745744E-01;1.190836938842536E-01;2.019475599671811E-02;2.044924886682896E-01;8.914715014745744E-01;1.190836938842536E-01;2.019475599671811E-02;
5.800800800800801E+07;2.007276145623625E-01;8.917430795863627E-01;1.186680936727617E-01;2.326305569717883E-02;2.007276145623625E-01;8.917430795863627E-01;1.186680936727617E-01;2.326305569717883E-02;
5.825825825825826E+07;1.971357194796184E-01;8.920922611405343E-01;1.179705404722859E-01;2.592837442096170E-02;1.971357194796184E-01;8.920922611405343E-01;1.179705404722859E-01;2.592837442096170E-02;
5.850850850850851E+07;1.933617811220847E-01;8.922028272390281E-01;1.173223916731229E-01;2.888162853806461E-02;1.933617811220847E-01;8.922028272390281E-01;1.173223916731229E-01;2.888162853806461E-02;
5.875875875875876E+07;1.895886894850681E-01;8.920603981323432E-01;1.168418435958110E-01;3.237480992184144E-02;1.895886894850681E-01;8.920603981323432E-01;1.168418435958110E-01;3.237480992184144E-02;
5.900900900900901E+07;1.857843571990881E-01;8.914822912766944E-01;1.164692891109704E-01;3.601355331553276E-02;1.857843571990881E-01;8.914822912766944E-01;1.164692891109704E-01;3.601355331553276E-02;
5.925925925925926E+07;1.817593763683220E-01;8.911611409771873E-01;1.162803926182311E-01;3.973263892878959E-02;1.817593763683220E-01;8.911611409771873E-01;1.162803926182311E-01;3.973263892878959E-02;
5.950950950950951E+07;1.769671020445521E-01;8.902593888407725E-01;1.171131055990039E-01;4.442199513736494E-02;1.769671020445521E-01;8.902593888407725E-01;1.171131055990039E-01;4.442199513736494E-02;
5.975975975975976E+07;1.719987128024514E-01;8.895432072820512E-01;1.183387615583330E-01;4.878290179714691E-02;1.719987128024514E-01;8.895432072820512E-01;1.183387615583330E-01;4.878290179714691E-02;
6.001001001001001E+07;1.666500197683685E-01;8.893828926835429E-01;1.203122745388726E-01;5.285789232434170E-02;1.666500197683685E-01;8.893828926835429E-01;1.203122745388726E-01;5.285789232434170E-02;
6.026026026026026E+07;1.612333368011727E-01;8.894612686291731E-01;1.227829234595745E-01;5.643189782490637E-02;1.612333368011727E-01;8.894612686291731E-01;1.227829234595745E-01;5.643189782490637E-02;
6.051051051051051E+07;1.560565474266488E-01;8.903008553279121E-01;1.256075604420650E-01;5.930701103945458E-02;1.560565474266488E-01;8.903008553279121E-01;1.256075604420650E-01;5.930701103945458E-02;
6.076076076076076E+07;1.508594135222875E-01;8.915327117958648E-01;1.282492579273995E-01;6.144312736557251E-02;1.508594135222875E-01;8.915327117958648E-01;1.282492579273995E-01;6.144312736557251E-02;
6.101101101101101E+07;1.462044366431084E-01;8.929457700868095E-01;1.307188307048488E-01;6.296199099006555E-02;1.462044366431084E-01;8.929457700868095E-01;1.307188307048488E-01;6.296199099006555E-02;
6.126126126126126E+07;1.422129004677495E-01;8.947025444059595E-01;1.326572349155307E-01;6.412049369123977E-02;1.422129004677495E-01;8.947025444059595E-01;1.326572349155307E-01;6.412049369123977E-02;
6.151151151151151E+07;1.383668185237418E-01;8.962177642908149E-01;1.340626983306505E-01;6.500822946630461E-02;1.383668185237418E-01;8.962177642908149E-01;1.340626983306505E-01;6.500822946630461E-02;
6.176176176176176E+07;1.348766008718019E-01;8.975934062315009E-01;1.350521863707299E-01;6.609361307299931E-02;1.348766008718019E-01;8.975934062315009E-01;1.350521863707299E-01;6.609361307299931E-02;
6.201201201201201E+07;1.316094944093892E-01;8.988977007825938E-01;1.358069291832107E-01;6.712215768687588E-02;1.316094944093892E-01;8.988977007825938E-01;1.358069291832107E-01;6.712215768687588E-02;
6.226226226226226E+07;1.285336377592131E-01;9.001288036927653E-01;1.363507920903793E-01;6.827473112128142E-02;1.285336377592131E-01;9.001288036927653E-01;1.363507920903793E-01;6.827473112128142E-02;
6.251251251251251E+07;1.257801817376147E-01;9.011980624852575E-01;1.366806563646001E-01;6.947244499580466E-02;1.257801817376147E-01;9.011980624852575E-01;1.366806563646001E-01;6.947244499580466E-02;
6.276276276276276E+07;1.229129903100050E-01;9.020775850358883E-01;1.366543128190957E-01;7.073212559206318E-02;1.229129903100050E-01;9.020775850358883E-01;1.366543128190957E-01;7.073212559206318E-02;
6.301301301301301E+07;1.210151970188646E-01;9.026907457273182E-01;1.360660192918057E-01;7.209615275521340E-02;1.210151970188646E-01;9.026907457273182E-01;1.360660192918057E-01;7.209615275521340E-02;
6.326326326326326E+07;1.180238666417062E-01;9.031925180307554E-01;1.362343234372186E-01;7.390965348566593E-02;1.180238666417062E-01;9.031925180307554E-01;1.362343234372186E-01;7.390965348566593E-02;
6.351351351351351E+07;1.155889476452120E-01;9.037386579569529E-01;1.359468856722023E-01;7.580150777886627E-02;1.155889476452120E-01;9.037386579569529E-01;1.359468856722023E-01;7.580150777886627E-02;
6.376376376376376E+07;1.130638998648200E-01;9.040122401968789E-01;1.355983510411890E-01;7.758314431195393E-02;1.130638998648200E-01;9.040122401968789E-01;1.355983510411890E-01;7.758314431195393E-02;
6.401401401401401E+07;1.107274123434844E-01;9.041722151414947E-01;1.351780642603404E-01;7.962219653161529E-02;1.107274123434844E-01;9.041722151414947E-01;1.351780642603404E-01;7.962219653161529E-02;
6.426426426426426E+07;1.081049537833591E-01;9.044012132731479E-01;1.348679783566122E-01;8.178032893962890E-02;1.081049537833591E-01;9.044012132731479E-01;1.348679783566122E-01;8.178032893962890E-02;
6.451451451451451E+07;1.059725114609441E-01;9.045454706731869E-01;1.345046921683257E-01;8.396791354385415E-02;1.059725114609441E-01;9.045454706731869E-01;1.345046921683257E-01;8.396791354385415E-02;
6.476476476476476E+07;1.037793233998895E-01;9.046576665552576E-01;1.341222430633894E-01;8.623955158153358E-02;1.037793233998895E-01;9.046576665552576E-01;1.341222430633894E-01;8.623955158153358E-02;
6.501501501501501E+07;1.016627752268487E-01;9.046761489563629E-01;1.335988034742311E-01;8.862651841401215E-02;1.016627752268487E-01;9.046761489563629E-01;1.335988034742311E-01;8.862651841401215E-02;
6.526526526526526E+07;9.962449493364305E-02;9.045977867916707E-01;1.330568679740013E-01;9.109656065963850E-02;9.962449493364305E-02;9.045977867916707E-01;1.330568679740013E-01;9.109656065963850E-02;
6.551551551551551E+07;9.752747033306949E-02;9.044146602412158E-01;1.325649133062138E-01;9.367336130101125E-02;9.752747033306949E-02;9.044146602412158E-01;1.325649133062138E-01;9.367336130101125E-02;
6.576576576576576E+07;9.779325551749549E-02;9.049110856891479E-01;1.327243070421953E-01;9.563232000879590E-02;9.779325551749549E-02;9.049110856891479E-01;1.327243070421953E-01;9.563232000879590E-02;
6.601601601601601E+07;9.604173957245504E-02;9.045369480206950E-01;1.319615059655542E-01;9.813848294350185E-02;9.604173957245504E-02;9.045369480206950E-01;1.319615059655542E-01;9.813848294350185E-02;
6.626626626626626E+07;9.384299422747627E-02;9.042000531016577E-01;1.318014599410065E-01;1.009059565707085E-01;9.384299422747627E-02;9.042000531016577E-01;1.318014599410065E-01;1.009059565707085E-01;
6.651651651651651E+07;9.173089153507409E-02;9.039818450212115E-01;1.313619835947395E-01;1.035214229291409E-01;9.173089153507409E-02;9.039818450212115E-01;1.313619835947395E-01;1.035214229291409E-01;
6.676676676676676E+07;8.948945778184367E-02;9.036288971874082E-01;1.309879002790200E-01;1.061821563822457E-01;8.948945778184367E-02;9.036288971874082E-01;1.309879002790200E-01;1.061821563822457E-01;
6.701701701701702E+07;8.849537959896542E-02;9.028193469293118E-01;1.303224367376599E-01;1.094015508002622E-01;8.849537959896542E-02;9.028193469293118E-01;1.303224367376599E-01;1.094015508002622E-01;
6.726726726726727E+07;8.652556839189691E-02;9.024400587047212E-01;1.300236696599704E-01;1.120427644277632E-01;8.652556839189691E-02;9.024400587047212E-01;1.300236696599704E-01;1.120427644277632E-01;
6.751751751751752E+07;8.426889118943641E-02;9.020415205649484E-01;1.296816288480096E-01;1.146650020388917E-01;8.426889118943641E-02;9.020415205649484E-01;1.296816288480096E-01;1.146650020388917E-01;
6.776776776776777E+07;8.215842035888579E-02;9.018135620885132E-01;1.293811815196275E-01;1.173402989256466E-01;8.215842035888579E-02;9.018135620885132E-01;1.293811815196275E-01;1.173402989256466E-01;
6.801801801801802E+07;7.984104657462257E-02;9.014878256276773E-01;1.289311059606185E-01;1.201804056704791E-01;7.984104657462257E-02;9.014878256276773E-01;1.289311059606185E-01;1.201804056704791E-01;
6.826826826826827E+07;7.744114525054856E-02;9.011272871143121E-01;1.283340556863707E-01;1.233046627364209E-01;7.744114525054856E-02;9.011272871143121E-01;1.283340556863707E-01;1.233046627364209E-01;
6.851851851851852E+07;7.551296623819448E-02;9.006822475077838E-01;1.277097069639565E-01;1.266034764726073E-01;7.551296623819448E-02;9.006822475077838E-01;1.277097069639565E-01;1.266034764726073E-01;
6.876876876876877E+07;7.479103319981310E-02;8.995104060176321E-01;1.262865088823020E-01;1.301062601723424E-01;7.479103319981310E-02;8.995104060176321E-01;1.262865088823020E-01;1.301062601723424E-01;
6.901901901901902E+07;7.408721051321175E-02;8.989415950523185E-01;1.253872364612900E-01;1.337093534217684E-01;7.408721051321175E-02;8.989415950523185E-01;1.253872364612900E-01;1.337093534217684E-01;
6.926926926926927E+07;7.414551467648253E-02;8.977883065099249E-01;1.242173866086191E-01;1.373148312902965E-01;7.414551467648253E-02;8.977883065099249E-01;1.242173866086191E-01;1.373148312902965E-01;
6.951951951951952E+07;7.447217822797558E-02;8.964695237692257E-01;1.230359750992942E-01;1.408825717349257E-01;7.447217822797558E-02;8.964695237692257E-01;1.230359750992942E-01;1.408825717349257E-01;
6.976976976976977E+07;7.492929443936208E-02;8.950981437649252E-01;1.216080494720023E-01;1.443426483544699E-01;7.492929443936208E-02;8.950981437649252E-01;1.216080494720023E-01;1.443426483544699E-01;
7.002002002002002E+07;7.498693854892263E-02;8.938772330782773E-01;1.207572344096758E-01;1.481676410129590E-01;7.498693854892263E-02;8.938772330782773E-01;1.207572344096758E-01;1.481676410129590E-01;
7.027027027027027E+07;7.452013673773879E-02;8.925611559639344E-01;1.198933701261777E-01;1.516067374189534E-01;7.452013673773879E-02;8.925611559639344E-01;1.198933701261777E-01;1.516067374189534E-01;
7.052052052052052E+07;7.427373195892130E-02;8.913383620908216E-01;1.191250610215103E-01;1.552040712102178E-01;7.427373195892130E-02;8.913383620908216E-01;1.191250610215103E-01;1.552040712102178E-01;
7.077077077077077E+07;7.388999134444030E-02;8.901992888686409E-01;1.183259454995458E-01;1.586646357812691E-01;7.388999134444030E-02;8.901992888686409E-01;1.183259454995458E-01;1.586646357812691E-01;
7.102102102102102E+07;7.320144955102859E-02;8.890042243238735E-01;1.176090851091777E-01;1.621897074708638E-01;7.320144955102859E-02;8.890042243238735E-01;1.176090851091777E-01;1.621897074708638E-01;
7.127127127127127E+07;7.257230885404402E-02;8.878979581158412E-01;1.169191602191947E-01;1.656659749159876E-01;7.257230885404402E-02;8.878979581158412E-01;1.169191602191947E-01;1.656659749159876E-01;
7.152152152152152E+07;7.194244015082880E-02;8.865265252981280E-01;1.163936317638882E-01;1.691924563522591E-01;7.194244015082880E-02;8.865265252981280E-01;1.163936317638882E-01;1.691924563522591E-01;
7.177177177177177E+07;7.115866970761102E-02;8.855210156069969E-01;1.158586661459385E-01;1.727933741162646E-01;7.115866970761102E-02;8.855210156069969E-01;1.158586661459385E-01;1.727933741162646E-01;
7.202202202202202E+07;7.029160539942818E-02;8.843499027547236E-01;1.152661452070927E-01;1.765196525610249E-01;7.029160539942818E-02;8.843499027547236E-01;1.152661452070927E-01;1.765196525610249E-01;
7.227227227227227E+07;6.970046127332598E-02;8.830591545302302E-01;1.143216793236563E-01;1.805555482271955E-01;6.970046127332598E-02;8.830591545302302E-01;1.143216793236563E-01;1.805555482271955E-01;
7.252252252252252E+07;6.938543055096960E-02;8.817399934539527E-01;1.132091184348317E-01;1.847006197374991E-01;6.938543055096960E-02;8.817399934539527E-01;1.132091184348317E-01;1.847006197374991E-01;
7.277277277277277E+07;6.958644564416805E-02;8.803511280616585E-01;1.119256925598383E-01;1.889385850984148E-01;6.958644564416805E-02;8.803511280616585E-01;1.119256925598383E-01;1.889385850984148E-01;
7.302302302302302E+07;7.046645805828548E-02;8.787123456958094E-01;1.105819442780488E-01;1.932065471484304E-01;7.046645805828548E-02;8.787123456958094E-01;1.105819442780488E-01;1.932065471484304E-01;
7.327327327327327E+07;7.156511750624325E-02;8.768132909040257E-01;1.091935742014242E-01;1.976944005253843E-01;7.156511750624325E-02;8.768132909040257E-01;1.091935742014242E-01;1.976944005253843E-01;
7.352352352352352E+07;7.339808660922323E-02;8.748831891613823E-01;1.077110340007386E-01;2.020465061930465E-01;7.339808660922323E-02;8.748831891613823E-01;1.077110340007386E-01;2.020465061930465E-01;
7.377377377377377E+07;7.487554919557428E-02;8.729727159866050E-01;1.066287331699773E-01;2.067170501089242E-01;7.487554919557428E-02;8.729727159866050E-01;1.066287331699773E-01;2.067170501089242E-01;
7.402402402402402E+07;7.636054547117849E-02;8.709577822122736E-01;1.055830307771390E-01;2.111678994255035E-01;7.636054547117849E-02;8.709577822122736E-01;1.055830307771390E-01;2.111678994255035E-01;
7.427427427427427E+07;7.794009560683499E-02;8.690908111926497E-01;1.045076744593083E-01;2.157354514891567E-01;7.794009560683499E-02;8.690908111926497E-01;1.045076744593083E-01;2.157354514891567E-01;
7.452452452452452E+07;7.905533366761607E-02;8.668246453133970E-01;1.035771317696365E-01;2.203699070113745E-01;7.905533366761607E-02;8.668246453133970E-01;1.035771317696365E-01;2.203699070113745E-01;
