# Version 1.00
#
# Ref Impedances: Z01: 50, Z02: 50
# 
freq[Hz];re:SMag2_S11;im:SMag2_S11;re:ZPh2_S12;im:ZPh2_S12;re:SPh2_S11;im:SPh2_S11;re:ZMag2_S12;im:ZMag2_S12;
5.000000000000000E+07;3.561343207289107E-01;8.167539932560425E-01;1.053906981668435E-01;7.426601961800275E-03;3.561343207289107E-01;8.167539932560425E-01;1.053906981668435E-01;7.426601961800275E-03;
5.025025025025025E+07;3.496560750810104E-01;8.173554703783902E-01;1.087038392927015E-01;1.072457805507126E-02;3.496560750810104E-01;8.173554703783902E-01;1.087038392927015E-01;1.072457805507126E-02;
5.050050050050050E+07;3.425898907801820E-01;8.181490029401041E-01;1.128285656474373E-01;1.335076675781941E-02;3.425898907801820E-01;8.181490029401041E-01;1.128285656474373E-01;1.335076675781941E-02;
5.075075075075075E+07;3.345571365011163E-01;8.192422246179900E-01;1.179779431030237E-01;1.508765983039858E-02;3.345571365011163E-01;8.192422246179900E-01;1.179779431030237E-01;1.508765983039858E-02;
5.100100100100100E+07;3.263364668518491E-01;8.209386869727917E-01;1.235514376746919E-01;1.560323421448987E-02;3.263364668518491E-01;8.209386869727917E-01;1.235514376746919E-01;1.560323421448987E-02;
5.125125125125125E+07;3.178600355565868E-01;8.238823644996777E-01;1.288246653433675E-01;1.451702768972042E-02;3.178600355565868E-01;8.238823644996777E-01;1.288246653433675E-01;1.451702768972042E-02;
5.150150150150150E+07;3.095310618410899E-01;8.274608449095708E-01;1.334038718068143E-01;1.224201054050027E-02;3.095310618410899E-01;8.274608449095708E-01;1.334038718068143E-01;1.224201054050027E-02;
5.175175175175175E+07;3.019209140015040E-01;8.320703432304785E-01;1.367316249269607E-01;9.177206787208464E-03;3.019209140015040E-01;8.320703432304785E-01;1.367316249269607E-01;9.177206787208464E-03;
5.200200200200200E+07;2.950638377589933E-01;8.369600534158740E-01;1.389773344170400E-01;5.958611686420976E-03;2.950638377589933E-01;8.369600534158740E-01;1.389773344170400E-01;5.958611686420976E-03;
5.225225225225225E+07;2.896859774999533E-01;8.427136471545813E-01;1.400797694683712E-01;2.691433297389211E-03;2.896859774999533E-01;8.427136471545813E-01;1.400797694683712E-01;2.691433297389211E-03;
5.250250250250250E+07;2.835344487509031E-01;8.470269138518041E-01;1.391912710870994E-01;-1.099461175684208E-03;2.835344487509031E-01;8.470269138518041E-01;1.391912710870994E-01;-1.099461175684208E-03;
5.275275275275275E+07;2.786699239882302E-01;8.515171184351383E-01;1.399372935479475E-01;-2.358616042161850E-03;2.786699239882302E-01;8.515171184351383E-01;1.399372935479475E-01;-2.358616042161850E-03;
5.300300300300300E+07;2.739762672460679E-01;8.559461549558232E-01;1.390533906224696E-01;-4.089214240429244E-03;2.739762672460679E-01;8.559461549558232E-01;1.390533906224696E-01;-4.089214240429244E-03;
5.325325325325325E+07;2.698516741444177E-01;8.598155809497476E-01;1.378877850794660E-01;-5.282467037976341E-03;2.698516741444177E-01;8.598155809497476E-01;1.378877850794660E-01;-5.282467037976341E-03;
5.350350350350350E+07;2.661236929460374E-01;8.635522711976867E-01;1.365514059964662E-01;-6.027017649479231E-03;2.661236929460374E-01;8.635522711976867E-01;1.365514059964662E-01;-6.027017649479231E-03;
5.375375375375375E+07;2.622229137007792E-01;8.669253441347551E-01;1.351589484317550E-01;-6.355613100810386E-03;2.622229137007792E-01;8.669253441347551E-01;1.351589484317550E-01;-6.355613100810386E-03;
5.400400400400400E+07;2.585840707863001E-01;8.699235228804326E-01;1.337292826457690E-01;-6.277732480159098E-03;2.585840707863001E-01;8.699235228804326E-01;1.337292826457690E-01;-6.277732480159098E-03;
5.425425425425425E+07;2.551337646618424E-01;8.726919989151501E-01;1.323578562377451E-01;-5.847830410328726E-03;2.551337646618424E-01;8.726919989151501E-01;1.323578562377451E-01;-5.847830410328726E-03;
5.450450450450450E+07;2.514863411229323E-01;8.752455107830269E-01;1.309480014461689E-01;-5.168570205499429E-03;2.514863411229323E-01;8.752455107830269E-01;1.309480014461689E-01;-5.168570205499429E-03;
5.475475475475475E+07;2.481604367442196E-01;8.772663987545272E-01;1.296616869645303E-01;-4.192225328159229E-03;2.481604367442196E-01;8.772663987545272E-01;1.296616869645303E-01;-4.192225328159229E-03;
5.500500500500500E+07;2.444971835830191E-01;8.794077461327765E-01;1.283444683865440E-01;-2.954999174878415E-03;2.444971835830191E-01;8.794077461327765E-01;1.283444683865440E-01;-2.954999174878415E-03;
5.525525525525525E+07;2.412053111328347E-01;8.813619854052247E-01;1.272491178918284E-01;-1.548747868308143E-03;2.412053111328347E-01;8.813619854052247E-01;1.272491178918284E-01;-1.548747868308143E-03;
5.550550550550550E+07;2.375453117012385E-01;8.827908425711543E-01;1.261779555102039E-01;1.100603310014287E-04;2.375453117012385E-01;8.827908425711543E-01;1.261779555102039E-01;1.100603310014287E-04;
5.575575575575575E+07;2.340087696224527E-01;8.843551721757719E-01;1.251639180397816E-01;1.855868576889665E-03;2.340087696224527E-01;8.843551721757719E-01;1.251639180397816E-01;1.855868576889665E-03;
5.600600600600600E+07;2.302448724108991E-01;8.856685453225274E-01;1.243023481318944E-01;3.863116270915408E-03;2.302448724108991E-01;8.856685453225274E-01;1.243023481318944E-01;3.863116270915408E-03;
5.625625625625625E+07;2.266958461490484E-01;8.868696247202965E-01;1.226234651960583E-01;5.570927096697369E-03;2.266958461490484E-01;8.868696247202965E-01;1.226234651960583E-01;5.570927096697369E-03;
5.650650650650650E+07;2.228187769655662E-01;8.878115374385348E-01;1.228048082310776E-01;8.050119739548188E-03;2.228187769655662E-01;8.878115374385348E-01;1.228048082310776E-01;8.050119739548188E-03;
5.675675675675675E+07;2.191893298432684E-01;8.887703740416286E-01;1.222084831649302E-01;1.033346565604179E-02;2.191893298432684E-01;8.887703740416286E-01;1.222084831649302E-01;1.033346565604179E-02;
5.700700700700700E+07;2.153574357728694E-01;8.897290782019885E-01;1.216758245095540E-01;1.264811680001481E-02;2.153574357728694E-01;8.897290782019885E-01;1.216758245095540E-01;1.264811680001481E-02;
5.725725725725726E+07;2.114785113457557E-01;8.905967821249320E-01;1.211791516901825E-01;1.502201630012580E-02;2.114785113457557E-01;8.905967821249320E-01;1.211791516901825E-01;1.502201630012580E-02;
5.750750750750751E+07;2.077950978135753E-01;8.913869179747641E-01;1.207073696391911E-01;1.738778104860030E-02;2.077950978135753E-01;8.913869179747641E-01;1.207073696391911E-01;1.738778104860030E-02;
5.775775775775776E+07;2.040142077959887E-01;8.919807556881068E-01;1.202732476287845E-01;2.011875426573863E-02;2.040142077959887E-01;8.919807556881068E-01;1.202732476287845E-01;2.011875426573863E-02;
5.800800800800801E+07;2.002952230098771E-01;8.922486729184644E-01;1.196559044901439E-01;2.336193472496084E-02;2.002952230098771E-01;8.922486729184644E-01;1.196559044901439E-01;2.336193472496084E-02;
5.825825825825826E+07;1.963808501362607E-01;8.924657816566807E-01;1.190555614597545E-01;2.627065943934411E-02;1.963808501362607E-01;8.924657816566807E-01;1.190555614597545E-01;2.627065943934411E-02;
5.850850850850851E+07;1.921605714395738E-01;8.925248731784973E-01;1.185290939477348E-01;2.958279446067482E-02;1.921605714395738E-01;8.925248731784973E-01;1.185290939477348E-01;2.958279446067482E-02;
5.875875875875876E+07;1.883184746672076E-01;8.924581069531635E-01;1.182613790276627E-01;3.321599211532161E-02;1.883184746672076E-01;8.924581069531635E-01;1.182613790276627E-01;3.321599211532161E-02;
5.900900900900901E+07;1.842153072724665E-01;8.920229234013898E-01;1.182831837607838E-01;3.709353816124643E-02;1.842153072724665E-01;8.920229234013898E-01;1.182831837607838E-01;3.709353816124643E-02;
5.925925925925926E+07;1.796958745683386E-01;8.916648881878055E-01;1.188548511729421E-01;4.129520631968518E-02;1.796958745683386E-01;8.916648881878055E-01;1.188548511729421E-01;4.129520631968518E-02;
5.950950950950951E+07;1.749788664818571E-01;8.911738022839498E-01;1.206496085723110E-01;4.493649628687638E-02;1.749788664818571E-01;8.911738022839498E-01;1.206496085723110E-01;4.493649628687638E-02;
5.975975975975976E+07;1.699319254288524E-01;8.912032429419433E-01;1.227232053667590E-01;4.786960443133952E-02;1.699319254288524E-01;8.912032429419433E-01;1.227232053667590E-01;4.786960443133952E-02;
6.001001001001001E+07;1.652474975343025E-01;8.914610374347478E-01;1.243841882109259E-01;5.084115349032216E-02;1.652474975343025E-01;8.914610374347478E-01;1.243841882109259E-01;5.084115349032216E-02;
6.026026026026026E+07;1.597819991816066E-01;8.918391894947330E-01;1.268925622206876E-01;5.384742895439470E-02;1.597819991816066E-01;8.918391894947330E-01;1.268925622206876E-01;5.384742895439470E-02;
6.051051051051051E+07;1.549210908609663E-01;8.927415585945352E-01;1.290843884914195E-01;5.602002085227099E-02;1.549210908609663E-01;8.927415585945352E-01;1.290843884914195E-01;5.602002085227099E-02;
6.076076076076076E+07;1.502894298011437E-01;8.941483810642213E-01;1.311162695576391E-01;5.777092980122300E-02;1.502894298011437E-01;8.941483810642213E-01;1.311162695576391E-01;5.777092980122300E-02;
6.101101101101101E+07;1.460707277798115E-01;8.956049366368359E-01;1.326834700722072E-01;5.911868405224805E-02;1.460707277798115E-01;8.956049366368359E-01;1.326834700722072E-01;5.911868405224805E-02;
6.126126126126126E+07;1.419625055011739E-01;8.969902555628393E-01;1.339983199869696E-01;6.032824613556102E-02;1.419625055011739E-01;8.969902555628393E-01;1.339983199869696E-01;6.032824613556102E-02;
6.151151151151151E+07;1.384686804437912E-01;8.984054629946827E-01;1.349601684321437E-01;6.148379523771641E-02;1.384686804437912E-01;8.984054629946827E-01;1.349601684321437E-01;6.148379523771641E-02;
6.176176176176176E+07;1.350585099829443E-01;8.995289675333851E-01;1.356317235277724E-01;6.263194481692266E-02;1.350585099829443E-01;8.995289675333851E-01;1.356317235277724E-01;6.263194481692266E-02;
6.201201201201201E+07;1.318569448618347E-01;9.006586938517336E-01;1.360838789618863E-01;6.385003910484952E-02;1.318569448618347E-01;9.006586938517336E-01;1.360838789618863E-01;6.385003910484952E-02;
6.226226226226226E+07;1.287657601956195E-01;9.016135887774165E-01;1.364094488562148E-01;6.522166098421253E-02;1.287657601956195E-01;9.016135887774165E-01;1.364094488562148E-01;6.522166098421253E-02;
6.251251251251251E+07;1.259817023791488E-01;9.025783148842752E-01;1.364853787862694E-01;6.651585887184898E-02;1.259817023791488E-01;9.025783148842752E-01;1.364853787862694E-01;6.651585887184898E-02;
6.276276276276276E+07;1.236074038809189E-01;9.036516679009727E-01;1.363257143067045E-01;6.806988550536010E-02;1.236074038809189E-01;9.036516679009727E-01;1.363257143067045E-01;6.806988550536010E-02;
6.301301301301301E+07;1.209963391759142E-01;9.043393431033994E-01;1.360618945470504E-01;6.969329599062368E-02;1.209963391759142E-01;9.043393431033994E-01;1.360618945470504E-01;6.969329599062368E-02;
6.326326326326326E+07;1.184984758498345E-01;9.046906823050925E-01;1.357156440462426E-01;7.150958060836927E-02;1.184984758498345E-01;9.046906823050925E-01;1.357156440462426E-01;7.150958060836927E-02;
6.351351351351351E+07;1.156815247390727E-01;9.048220379272472E-01;1.353555380615429E-01;7.350549603886343E-02;1.156815247390727E-01;9.048220379272472E-01;1.353555380615429E-01;7.350549603886343E-02;
6.376376376376376E+07;1.135662875855299E-01;9.051559983832861E-01;1.346995384365276E-01;7.556737184897791E-02;1.135662875855299E-01;9.051559983832861E-01;1.346995384365276E-01;7.556737184897791E-02;
6.401401401401401E+07;1.107907468163902E-01;9.052339341998670E-01;1.346458486511835E-01;7.773820811595546E-02;1.107907468163902E-01;9.052339341998670E-01;1.346458486511835E-01;7.773820811595546E-02;
6.426426426426426E+07;1.083336309197257E-01;9.054892478269746E-01;1.342813574529775E-01;7.996687848956273E-02;1.083336309197257E-01;9.054892478269746E-01;1.342813574529775E-01;7.996687848956273E-02;
6.451451451451451E+07;1.059414542411418E-01;9.055595909895470E-01;1.336877632812082E-01;8.217530264841459E-02;1.059414542411418E-01;9.055595909895470E-01;1.336877632812082E-01;8.217530264841459E-02;
6.476476476476476E+07;1.037710988314584E-01;9.055970303904594E-01;1.332496173826146E-01;8.446144882202322E-02;1.037710988314584E-01;9.055970303904594E-01;1.332496173826146E-01;8.446144882202322E-02;
6.501501501501501E+07;1.014754287039382E-01;9.054869937655173E-01;1.326654095650793E-01;8.688205810712459E-02;1.014754287039382E-01;9.054869937655173E-01;1.326654095650793E-01;8.688205810712459E-02;
6.526526526526526E+07;9.942594652595721E-02;9.054231829719130E-01;1.319867616708204E-01;8.919556588230466E-02;9.942594652595721E-02;9.054231829719130E-01;1.319867616708204E-01;8.919556588230466E-02;
6.551551551551551E+07;9.740228366889998E-02;9.051579123790519E-01;1.314349031420028E-01;9.167884306885724E-02;9.740228366889998E-02;9.051579123790519E-01;1.314349031420028E-01;9.167884306885724E-02;
6.576576576576576E+07;9.741716112269277E-02;9.058240090136284E-01;1.317689510040716E-01;9.353448031147772E-02;9.741716112269277E-02;9.058240090136284E-01;1.317689510040716E-01;9.353448031147772E-02;
6.601601601601601E+07;9.534404096789793E-02;9.053857333585384E-01;1.312925876276584E-01;9.618775488000242E-02;9.534404096789793E-02;9.053857333585384E-01;1.312925876276584E-01;9.618775488000242E-02;
6.626626626626626E+07;9.330351360171418E-02;9.051094088173881E-01;1.308204341381325E-01;9.890569469825036E-02;9.330351360171418E-02;9.051094088173881E-01;1.308204341381325E-01;9.890569469825036E-02;
6.651651651651651E+07;9.102598771010531E-02;9.048055508186067E-01;1.303983404054070E-01;1.015763835366767E-01;9.102598771010531E-02;9.048055508186067E-01;1.303983404054070E-01;1.015763835366767E-01;
6.676676676676676E+07;8.887881457595741E-02;9.045093216259600E-01;1.297993672300599E-01;1.042435479816300E-01;8.887881457595741E-02;9.045093216259600E-01;1.297993672300599E-01;1.042435479816300E-01;
6.701701701701702E+07;8.764243756303362E-02;9.036965873280636E-01;1.293788398719655E-01;1.075277482488521E-01;8.764243756303362E-02;9.036965873280636E-01;1.293788398719655E-01;1.075277482488521E-01;
6.726726726726727E+07;8.540570850799464E-02;9.033434716684678E-01;1.290517687629597E-01;1.102116715995461E-01;8.540570850799464E-02;9.033434716684678E-01;1.290517687629597E-01;1.102116715995461E-01;
6.751751751751752E+07;8.322697405799337E-02;9.030126230179678E-01;1.288145090794788E-01;1.128283241766877E-01;8.322697405799337E-02;9.030126230179678E-01;1.288145090794788E-01;1.128283241766877E-01;
6.776776776776777E+07;8.089270605024453E-02;9.027631233116951E-01;1.285223521776895E-01;1.155053592711743E-01;8.089270605024453E-02;9.027631233116951E-01;1.285223521776895E-01;1.155053592711743E-01;
6.801801801801802E+07;7.855286097560048E-02;9.025545626279268E-01;1.282604313050608E-01;1.184821946485209E-01;7.855286097560048E-02;9.025545626279268E-01;1.282604313050608E-01;1.184821946485209E-01;
6.826826826826827E+07;7.639958613061938E-02;9.022099488849206E-01;1.278442556422693E-01;1.215688296849783E-01;7.639958613061938E-02;9.022099488849206E-01;1.278442556422693E-01;1.215688296849783E-01;
6.851851851851852E+07;7.447209367708021E-02;9.018725514851100E-01;1.271614224821824E-01;1.248346394158673E-01;7.447209367708021E-02;9.018725514851100E-01;1.271614224821824E-01;1.248346394158673E-01;
6.876876876876877E+07;7.347060363575728E-02;9.005632868391378E-01;1.256328610236493E-01;1.282394210420435E-01;7.347060363575728E-02;9.005632868391378E-01;1.256328610236493E-01;1.282394210420435E-01;
6.901901901901902E+07;7.310071419982478E-02;8.995657479694080E-01;1.245835370474964E-01;1.316977424992231E-01;7.310071419982478E-02;8.995657479694080E-01;1.245835370474964E-01;1.316977424992231E-01;
6.926926926926927E+07;7.312970616266505E-02;8.984567488348598E-01;1.232885225257049E-01;1.352273992780618E-01;7.312970616266505E-02;8.984567488348598E-01;1.232885225257049E-01;1.352273992780618E-01;
6.951951951951952E+07;7.326802774724263E-02;8.972067117145084E-01;1.219525879123512E-01;1.387646263644728E-01;7.326802774724263E-02;8.972067117145084E-01;1.219525879123512E-01;1.387646263644728E-01;
6.976976976976977E+07;7.359323439942075E-02;8.956775841519377E-01;1.205369579756944E-01;1.424483605431660E-01;7.359323439942075E-02;8.956775841519377E-01;1.205369579756944E-01;1.424483605431660E-01;
7.002002002002002E+07;7.355464939531693E-02;8.943654186546733E-01;1.192882309078037E-01;1.461556817316088E-01;7.355464939531693E-02;8.943654186546733E-01;1.192882309078037E-01;1.461556817316088E-01;
7.027027027027027E+07;7.297473144779532E-02;8.930355559753453E-01;1.181346381995259E-01;1.496412833198205E-01;7.297473144779532E-02;8.930355559753453E-01;1.181346381995259E-01;1.496412833198205E-01;
7.052052052052052E+07;7.287337922614100E-02;8.919875495054523E-01;1.170670436783897E-01;1.532070339591488E-01;7.287337922614100E-02;8.919875495054523E-01;1.170670436783897E-01;1.532070339591488E-01;
7.077077077077077E+07;7.192473662865281E-02;8.906379838886213E-01;1.163853912139939E-01;1.568681845292979E-01;7.192473662865281E-02;8.906379838886213E-01;1.163853912139939E-01;1.568681845292979E-01;
7.102102102102102E+07;7.140100787416148E-02;8.895454249225545E-01;1.156264049357804E-01;1.604502305828636E-01;7.140100787416148E-02;8.895454249225545E-01;1.156264049357804E-01;1.604502305828636E-01;
7.127127127127127E+07;7.054777712397912E-02;8.884087646191068E-01;1.148848025823313E-01;1.640068239521538E-01;7.054777712397912E-02;8.884087646191068E-01;1.148848025823313E-01;1.640068239521538E-01;
7.152152152152152E+07;6.969442336698796E-02;8.872912132576690E-01;1.143371676760688E-01;1.675753147894268E-01;6.969442336698796E-02;8.872912132576690E-01;1.143371676760688E-01;1.675753147894268E-01;
7.177177177177177E+07;6.902703387735765E-02;8.861931815444447E-01;1.138908453839967E-01;1.710567379345902E-01;6.902703387735765E-02;8.861931815444447E-01;1.138908453839967E-01;1.710567379345902E-01;
7.202202202202202E+07;6.802532331168411E-02;8.850613982852091E-01;1.132165830532890E-01;1.747581184046576E-01;6.802532331168411E-02;8.850613982852091E-01;1.132165830532890E-01;1.747581184046576E-01;
7.227227227227227E+07;6.717989525862576E-02;8.839501600165016E-01;1.122171714816036E-01;1.788006402787982E-01;6.717989525862576E-02;8.839501600165016E-01;1.122171714816036E-01;1.788006402787982E-01;
7.252252252252252E+07;6.691260924754985E-02;8.828497669547161E-01;1.111348925155106E-01;1.828109369786116E-01;6.691260924754985E-02;8.828497669547161E-01;1.111348925155106E-01;1.828109369786116E-01;
7.277277277277277E+07;6.701876004655581E-02;8.813987950088952E-01;1.098218516871326E-01;1.870271672535182E-01;6.701876004655581E-02;8.813987950088952E-01;1.098218516871326E-01;1.870271672535182E-01;
7.302302302302302E+07;6.773615810223041E-02;8.798644678129517E-01;1.083994473678833E-01;1.913196256004860E-01;6.773615810223041E-02;8.798644678129517E-01;1.083994473678833E-01;1.913196256004860E-01;
7.327327327327327E+07;6.899013804694222E-02;8.779863833763172E-01;1.070592524459253E-01;1.956782395777317E-01;6.899013804694222E-02;8.779863833763172E-01;1.070592524459253E-01;1.956782395777317E-01;
7.352352352352352E+07;7.045419706716732E-02;8.761321634339019E-01;1.057290428548992E-01;2.000835715647613E-01;7.045419706716732E-02;8.761321634339019E-01;1.057290428548992E-01;2.000835715647613E-01;
7.377377377377377E+07;7.198157511135751E-02;8.741702843364421E-01;1.045137393503070E-01;2.044883975971521E-01;7.198157511135751E-02;8.741702843364421E-01;1.045137393503070E-01;2.044883975971521E-01;
7.402402402402402E+07;7.342632539849861E-02;8.723111658812637E-01;1.033412226299780E-01;2.088220094870391E-01;7.342632539849861E-02;8.723111658812637E-01;1.033412226299780E-01;2.088220094870391E-01;
7.427427427427427E+07;7.489946562478909E-02;8.702539318227449E-01;1.020776586194775E-01;2.132607381578495E-01;7.489946562478909E-02;8.702539318227449E-01;1.020776586194775E-01;2.132607381578495E-01;
7.452452452452452E+07;7.596853110139788E-02;8.683193065421247E-01;1.012201507320038E-01;2.178910194527116E-01;7.596853110139788E-02;8.683193065421247E-01;1.012201507320038E-01;2.178910194527116E-01;
