# Version 1.00
#
# Ref Impedances: Z01: 50, Z02: 50
# 
freq[Hz];re:ZMag1_S12;im:ZMag1_S12;re:SMag1_S11;im:SMag1_S11;re:ZPh1_S12;im:ZPh1_S12;re:SPh1_S11;im:SPh1_S11;
5.000000000000000E+07;1.088173421749210E-01;1.489260176812669E-02;3.511166916039130E-01;8.131110593392920E-01;1.088173421749210E-01;1.489260176812669E-02;3.511166916039130E-01;8.131110593392920E-01;
5.025025025025025E+07;1.126942804780482E-01;1.737749619377262E-02;3.438793825232862E-01;8.138347314176840E-01;1.126942804780482E-01;1.737749619377262E-02;3.438793825232862E-01;8.138347314176840E-01;
5.050050050050050E+07;1.171703568463121E-01;1.888031709668097E-02;3.359080992345654E-01;8.155903458813460E-01;1.171703568463121E-01;1.888031709668097E-02;3.359080992345654E-01;8.155903458813460E-01;
5.075075075075075E+07;1.219271000499692E-01;1.759904340942416E-02;3.272093306572770E-01;8.180715547582526E-01;1.219271000499692E-01;1.759904340942416E-02;3.272093306572770E-01;8.180715547582526E-01;
5.100100100100100E+07;1.267681584788317E-01;1.884095428198401E-02;3.188752087994920E-01;8.200574136551899E-01;1.267681584788317E-01;1.884095428198401E-02;3.188752087994920E-01;8.200574136551899E-01;
5.125125125125125E+07;1.308944221159828E-01;1.714704552727414E-02;3.106463283248033E-01;8.238738874185907E-01;1.308944221159828E-01;1.714704552727414E-02;3.106463283248033E-01;8.238738874185907E-01;
5.150150150150150E+07;1.341684709040503E-01;1.469716746420562E-02;3.026695196489925E-01;8.281957838883484E-01;1.341684709040503E-01;1.469716746420562E-02;3.026695196489925E-01;8.281957838883484E-01;
5.175175175175175E+07;1.364172813666566E-01;1.177160695756422E-02;2.955713547518457E-01;8.328369432321162E-01;1.364172813666566E-01;1.177160695756422E-02;2.955713547518457E-01;8.328369432321162E-01;
5.200200200200200E+07;1.377257446913421E-01;9.021153807078117E-03;2.888264063123356E-01;8.376586246365559E-01;1.377257446913421E-01;9.021153807078117E-03;2.888264063123356E-01;8.376586246365559E-01;
5.225225225225225E+07;1.384182653541774E-01;6.900343730574941E-03;2.829198305686434E-01;8.425097590371463E-01;1.384182653541774E-01;6.900343730574941E-03;2.829198305686434E-01;8.425097590371463E-01;
5.250250250250250E+07;1.381501026718693E-01;4.323777688892077E-03;2.776117024937524E-01;8.472359809431202E-01;1.381501026718693E-01;4.323777688892077E-03;2.776117024937524E-01;8.472359809431202E-01;
5.275275275275275E+07;1.371064288836458E-01;2.617995834814848E-03;2.724616831251732E-01;8.516838179287824E-01;1.371064288836458E-01;2.617995834814848E-03;2.724616831251732E-01;8.516838179287824E-01;
5.300300300300300E+07;1.366779163871804E-01;1.109197199010003E-03;2.678346684660577E-01;8.559124946477663E-01;1.366779163871804E-01;1.109197199010003E-03;2.678346684660577E-01;8.559124946477663E-01;
5.325325325325325E+07;1.356067407008305E-01;1.474452564784244E-04;2.628737476564616E-01;8.602681425005851E-01;1.356067407008305E-01;1.474452564784244E-04;2.628737476564616E-01;8.602681425005851E-01;
5.350350350350350E+07;1.343769189593363E-01;-4.817003146936170E-04;2.586845882593634E-01;8.640379396044490E-01;1.343769189593363E-01;-4.817003146936170E-04;2.586845882593634E-01;8.640379396044490E-01;
5.375375375375375E+07;1.330919488817038E-01;-8.367595274599266E-04;2.548319944015549E-01;8.671801067671630E-01;1.330919488817038E-01;-8.367595274599266E-04;2.548319944015549E-01;8.671801067671630E-01;
5.400400400400400E+07;1.319618573943760E-01;-1.360443592236895E-03;2.511155277687229E-01;8.701240329780452E-01;1.319618573943760E-01;-1.360443592236895E-03;2.511155277687229E-01;8.701240329780452E-01;
5.425425425425425E+07;1.306692135704835E-01;-1.220917716209327E-03;2.476161242950217E-01;8.727387802044438E-01;1.306692135704835E-01;-1.220917716209327E-03;2.476161242950217E-01;8.727387802044438E-01;
5.450450450450450E+07;1.276344912660324E-01;-9.886020474152866E-04;2.446536553677380E-01;8.755346447755692E-01;1.276344912660324E-01;-9.886020474152866E-04;2.446536553677380E-01;8.755346447755692E-01;
5.475475475475475E+07;1.277440622352809E-01;4.922593463785366E-04;2.400991122656605E-01;8.773655432349707E-01;1.277440622352809E-01;4.922593463785366E-04;2.400991122656605E-01;8.773655432349707E-01;
5.500500500500500E+07;1.264853945784362E-01;1.696312799501830E-03;2.365233159728857E-01;8.793265382600279E-01;1.264853945784362E-01;1.696312799501830E-03;2.365233159728857E-01;8.793265382600279E-01;
5.525525525525525E+07;1.252418073610977E-01;3.009818314983203E-03;2.326453466011860E-01;8.810026525229557E-01;1.252418073610977E-01;3.009818314983203E-03;2.326453466011860E-01;8.810026525229557E-01;
5.550550550550550E+07;1.240732293854278E-01;4.480302914882637E-03;2.289544247574881E-01;8.826612884497613E-01;1.240732293854278E-01;4.480302914882637E-03;2.289544247574881E-01;8.826612884497613E-01;
5.575575575575575E+07;1.229552812072378E-01;6.140789508962067E-03;2.252370267296944E-01;8.839770336823853E-01;1.229552812072378E-01;6.140789508962067E-03;2.252370267296944E-01;8.839770336823853E-01;
5.600600600600600E+07;1.219187863137040E-01;7.933222253734532E-03;2.214720175496819E-01;8.854300180645144E-01;1.219187863137040E-01;7.933222253734532E-03;2.214720175496819E-01;8.854300180645144E-01;
5.625625625625625E+07;1.209321860643058E-01;9.860974269451508E-03;2.177192338578792E-01;8.865924064558096E-01;1.209321860643058E-01;9.860974269451508E-03;2.177192338578792E-01;8.865924064558096E-01;
5.650650650650650E+07;1.200092019115245E-01;1.193731160438542E-02;2.139066543435088E-01;8.875779988168909E-01;1.200092019115245E-01;1.193731160438542E-02;2.139066543435088E-01;8.875779988168909E-01;
5.675675675675675E+07;1.191804474997332E-01;1.417362376137292E-02;2.099855658880888E-01;8.885184277612446E-01;1.191804474997332E-01;1.417362376137292E-02;2.099855658880888E-01;8.885184277612446E-01;
5.700700700700700E+07;1.184309153279810E-01;1.651246085058490E-02;2.061216947917744E-01;8.892910673972531E-01;1.184309153279810E-01;1.651246085058490E-02;2.061216947917744E-01;8.892910673972531E-01;
5.725725725725726E+07;1.178012002207377E-01;1.894258902539844E-02;2.023365490811782E-01;8.899271296037368E-01;1.178012002207377E-01;1.894258902539844E-02;2.023365490811782E-01;8.899271296037368E-01;
5.750750750750751E+07;1.172642191456177E-01;2.149487707034327E-02;1.983065377845241E-01;8.904694752945438E-01;1.172642191456177E-01;2.149487707034327E-02;1.983065377845241E-01;8.904694752945438E-01;
5.775775775775776E+07;1.168172471910007E-01;2.406276522777771E-02;1.943237139451971E-01;8.908919880224404E-01;1.168172471910007E-01;2.406276522777771E-02;1.943237139451971E-01;8.908919880224404E-01;
5.800800800800801E+07;1.167401885792754E-01;2.649293473702856E-02;1.962114795691925E-01;8.898633214725262E-01;1.167401885792754E-01;2.649293473702856E-02;1.962114795691925E-01;8.898633214725262E-01;
5.825825825825826E+07;1.159628101924800E-01;2.912024859261461E-02;1.924966984013193E-01;8.902347368411666E-01;1.159628101924800E-01;2.912024859261461E-02;1.924966984013193E-01;8.902347368411666E-01;
5.850850850850851E+07;1.160857375262245E-01;3.249179610586650E-02;1.885643459850326E-01;8.898581441817882E-01;1.160857375262245E-01;3.249179610586650E-02;1.885643459850326E-01;8.898581441817882E-01;
5.875875875875876E+07;1.160748034652388E-01;3.583532965349314E-02;1.845765290939754E-01;8.895998863116298E-01;1.160748034652388E-01;3.583532965349314E-02;1.845765290939754E-01;8.895998863116298E-01;
5.900900900900901E+07;1.164583106729529E-01;3.925149788054483E-02;1.801763757344191E-01;8.892168224195519E-01;1.164583106729529E-01;3.925149788054483E-02;1.801763757344191E-01;8.892168224195519E-01;
5.925925925925926E+07;1.160261302475654E-01;4.291777792614079E-02;1.754724274909605E-01;8.887417384492535E-01;1.160261302475654E-01;4.291777792614079E-02;1.754724274909605E-01;8.887417384492535E-01;
5.950950950950951E+07;1.167563044870639E-01;4.675124070040706E-02;1.704965106835546E-01;8.885037651024104E-01;1.167563044870639E-01;4.675124070040706E-02;1.704965106835546E-01;8.885037651024104E-01;
5.975975975975976E+07;1.182192128297020E-01;5.022039364623003E-02;1.652116162407789E-01;8.884335247044892E-01;1.182192128297020E-01;5.022039364623003E-02;1.652116162407789E-01;8.884335247044892E-01;
6.001001001001001E+07;1.201300455834628E-01;5.320529045157728E-02;1.597398700254554E-01;8.888912844036401E-01;1.201300455834628E-01;5.320529045157728E-02;1.597398700254554E-01;8.888912844036401E-01;
6.026026026026026E+07;1.222641499366543E-01;5.551697887312432E-02;1.545730347642648E-01;8.898719538213795E-01;1.222641499366543E-01;5.551697887312432E-02;1.545730347642648E-01;8.898719538213795E-01;
6.051051051051051E+07;1.243783169493729E-01;5.741629193340932E-02;1.495411650279505E-01;8.912357881460351E-01;1.243783169493729E-01;5.741629193340932E-02;1.495411650279505E-01;8.912357881460351E-01;
6.076076076076076E+07;1.260420085805093E-01;5.853806794883302E-02;1.452036865147151E-01;8.926903155116912E-01;1.260420085805093E-01;5.853806794883302E-02;1.452036865147151E-01;8.926903155116912E-01;
6.101101101101101E+07;1.273969853532824E-01;5.946946038461737E-02;1.410240452242698E-01;8.943110798690301E-01;1.273969853532824E-01;5.946946038461737E-02;1.410240452242698E-01;8.943110798690301E-01;
6.126126126126126E+07;1.282667482815777E-01;6.031867228654365E-02;1.371181610190951E-01;8.960378638094186E-01;1.282667482815777E-01;6.031867228654365E-02;1.371181610190951E-01;8.960378638094186E-01;
6.151151151151151E+07;1.287919488765125E-01;6.118472002939455E-02;1.335990690385652E-01;8.974268191502895E-01;1.287919488765125E-01;6.118472002939455E-02;1.335990690385652E-01;8.974268191502895E-01;
6.176176176176176E+07;1.290421087323736E-01;6.219354656599642E-02;1.302675007749362E-01;8.986584043963920E-01;1.290421087323736E-01;6.219354656599642E-02;1.302675007749362E-01;8.986584043963920E-01;
6.201201201201201E+07;1.285968707922156E-01;6.320348903766126E-02;1.276860416127024E-01;8.997528621300058E-01;1.285968707922156E-01;6.320348903766126E-02;1.276860416127024E-01;8.997528621300058E-01;
6.226226226226226E+07;1.290469242557489E-01;6.450806094006373E-02;1.242983920526651E-01;9.008918702114919E-01;1.290469242557489E-01;6.450806094006373E-02;1.242983920526651E-01;9.008918702114919E-01;
6.251251251251251E+07;1.288143678051517E-01;6.577371866250367E-02;1.214513387162476E-01;9.017459763144881E-01;1.288143678051517E-01;6.577371866250367E-02;1.214513387162476E-01;9.017459763144881E-01;
6.276276276276276E+07;1.284230104861059E-01;6.719204757991895E-02;1.186710823237136E-01;9.024048004866582E-01;1.284230104861059E-01;6.719204757991895E-02;1.186710823237136E-01;9.024048004866582E-01;
6.301301301301301E+07;1.279229184839479E-01;6.877956024459037E-02;1.161145620468601E-01;9.030194497813140E-01;1.279229184839479E-01;6.877956024459037E-02;1.161145620468601E-01;9.030194497813140E-01;
6.326326326326326E+07;1.273837566892057E-01;7.052119328804123E-02;1.134028949643034E-01;9.034943783586907E-01;1.273837566892057E-01;7.052119328804123E-02;1.134028949643034E-01;9.034943783586907E-01;
6.351351351351351E+07;1.268539719555472E-01;7.239551994310414E-02;1.107985929866748E-01;9.038739376405233E-01;1.268539719555472E-01;7.239551994310414E-02;1.107985929866748E-01;9.038739376405233E-01;
6.376376376376376E+07;1.263402570557181E-01;7.437192423791578E-02;1.083696463928161E-01;9.041857471915107E-01;1.263402570557181E-01;7.437192423791578E-02;1.083696463928161E-01;9.041857471915107E-01;
6.401401401401401E+07;1.258397441610100E-01;7.639456935626757E-02;1.057967495607997E-01;9.044416319856522E-01;1.258397441610100E-01;7.639456935626757E-02;1.057967495607997E-01;9.044416319856522E-01;
6.426426426426426E+07;1.253003398469707E-01;7.842291866730546E-02;1.034369765163674E-01;9.046362438558888E-01;1.253003398469707E-01;7.842291866730546E-02;1.034369765163674E-01;9.046362438558888E-01;
6.451451451451451E+07;1.247118484545668E-01;8.047617438991911E-02;1.011199078375100E-01;9.049348868428713E-01;1.247118484545668E-01;8.047617438991911E-02;1.011199078375100E-01;9.049348868428713E-01;
6.476476476476476E+07;1.240435716565663E-01;8.261950900601919E-02;9.875749321611586E-02;9.050433205704347E-01;1.240435716565663E-01;8.261950900601919E-02;9.875749321611586E-02;9.050433205704347E-01;
6.501501501501501E+07;1.233675885879676E-01;8.485819875995924E-02;9.653800226211788E-02;9.050558229319222E-01;1.233675885879676E-01;8.485819875995924E-02;9.653800226211788E-02;9.050558229319222E-01;
6.526526526526526E+07;1.226411096731470E-01;8.714726419744617E-02;9.433269923635633E-02;9.050302525848748E-01;1.226411096731470E-01;8.714726419744617E-02;9.433269923635633E-02;9.050302525848748E-01;
6.551551551551551E+07;1.219293217887932E-01;8.953547109055959E-02;9.223465463139388E-02;9.049184648939727E-01;1.219293217887932E-01;8.953547109055959E-02;9.223465463139388E-02;9.049184648939727E-01;
6.576576576576576E+07;1.203088355225231E-01;9.247401644227363E-02;8.289416945008171E-02;9.062703850754037E-01;1.203088355225231E-01;9.247401644227363E-02;8.289416945008171E-02;9.062703850754037E-01;
6.601601601601601E+07;1.196455948659166E-01;9.490898912241805E-02;8.102521017519759E-02;9.059772668526473E-01;1.196455948659166E-01;9.490898912241805E-02;8.102521017519759E-02;9.059772668526473E-01;
6.626626626626626E+07;1.189469060782288E-01;9.741829734583160E-02;7.898716592239341E-02;9.057629718055072E-01;1.189469060782288E-01;9.741829734583160E-02;7.898716592239341E-02;9.057629718055072E-01;
6.651651651651651E+07;1.183333716898346E-01;9.988963844931185E-02;7.668343193569423E-02;9.055805363834438E-01;1.183333716898346E-01;9.988963844931185E-02;7.668343193569423E-02;9.055805363834438E-01;
6.676676676676676E+07;1.177776473291365E-01;1.023171170115540E-01;7.456676085122645E-02;9.053630118840635E-01;1.177776473291365E-01;1.023171170115540E-01;7.456676085122645E-02;9.053630118840635E-01;
6.701701701701702E+07;1.169641627014571E-01;1.052638127839226E-01;7.343608743295563E-02;9.047965763969635E-01;1.169641627014571E-01;1.052638127839226E-01;7.343608743295563E-02;9.047965763969635E-01;
6.726726726726727E+07;1.165296649091486E-01;1.077106294385504E-01;7.134155067868349E-02;9.046681846200364E-01;1.165296649091486E-01;1.077106294385504E-01;7.134155067868349E-02;9.046681846200364E-01;
6.751751751751752E+07;1.160529553195619E-01;1.100512990285585E-01;6.911778450264497E-02;9.045461022421272E-01;1.160529553195619E-01;1.100512990285585E-01;6.911778450264497E-02;9.045461022421272E-01;
6.776776776776777E+07;1.154527731919366E-01;1.121527291021265E-01;6.701472141548748E-02;9.044205235573970E-01;1.154527731919366E-01;1.121527291021265E-01;6.701472141548748E-02;9.044205235573970E-01;
6.801801801801802E+07;1.147907498746728E-01;1.143510811248524E-01;6.478038734800756E-02;9.044287146483589E-01;1.147907498746728E-01;1.143510811248524E-01;6.478038734800756E-02;9.044287146483589E-01;
6.826826826826827E+07;1.140695869960179E-01;1.166843571301101E-01;6.247400056028583E-02;9.043659860772154E-01;1.140695869960179E-01;1.166843571301101E-01;6.247400056028583E-02;9.043659860772154E-01;
6.851851851851852E+07;1.131318835528058E-01;1.193295638051714E-01;6.020964041340605E-02;9.041946384244127E-01;1.131318835528058E-01;1.193295638051714E-01;6.020964041340605E-02;9.041946384244127E-01;
6.876876876876877E+07;1.120443903415777E-01;1.220895353032971E-01;6.289444603785885E-02;9.038198511765867E-01;1.120443903415777E-01;1.220895353032971E-01;6.289444603785885E-02;9.038198511765867E-01;
6.901901901901902E+07;1.108949762633779E-01;1.252519695787040E-01;6.150581150819124E-02;9.032849338156346E-01;1.108949762633779E-01;1.252519695787040E-01;6.150581150819124E-02;9.032849338156346E-01;
6.926926926926927E+07;1.093994098592699E-01;1.285585066014709E-01;6.112203537453510E-02;9.024578490996388E-01;1.093994098592699E-01;1.285585066014709E-01;6.112203537453510E-02;9.024578490996388E-01;
6.951951951951952E+07;1.078724154894902E-01;1.318346800707553E-01;6.121354032911606E-02;9.013925002412477E-01;1.078724154894902E-01;1.318346800707553E-01;6.121354032911606E-02;9.013925002412477E-01;
6.976976976976977E+07;1.063496180947150E-01;1.351883357787991E-01;6.142292687640197E-02;9.002528134385503E-01;1.063496180947150E-01;1.351883357787991E-01;6.142292687640197E-02;9.002528134385503E-01;
7.002002002002002E+07;1.048866463672070E-01;1.385215887793774E-01;6.162573238702608E-02;8.990081741973319E-01;1.048866463672070E-01;1.385215887793774E-01;6.162573238702608E-02;8.990081741973319E-01;
7.027027027027027E+07;1.036681130270400E-01;1.417089136787246E-01;6.154034835080647E-02;8.979031629142223E-01;1.036681130270400E-01;1.417089136787246E-01;6.154034835080647E-02;8.979031629142223E-01;
7.052052052052052E+07;1.024739477911886E-01;1.449026333553396E-01;6.119173287292864E-02;8.968341272967032E-01;1.024739477911886E-01;1.449026333553396E-01;6.119173287292864E-02;8.968341272967032E-01;
7.077077077077077E+07;1.013322976071487E-01;1.480517857577405E-01;6.070144625141762E-02;8.958632831965796E-01;1.013322976071487E-01;1.480517857577405E-01;6.070144625141762E-02;8.958632831965796E-01;
7.102102102102102E+07;1.002317305531483E-01;1.511952671750650E-01;6.010003452555727E-02;8.948385849894347E-01;1.002317305531483E-01;1.511952671750650E-01;6.010003452555727E-02;8.948385849894347E-01;
7.127127127127127E+07;9.917235584886944E-02;1.543565732883115E-01;5.966778113482839E-02;8.939798967481805E-01;9.917235584886944E-02;1.543565732883115E-01;5.966778113482839E-02;8.939798967481805E-01;
7.152152152152152E+07;9.824954993284088E-02;1.574934966288326E-01;5.905053808150083E-02;8.930933273678870E-01;9.824954993284088E-02;1.574934966288326E-01;5.905053808150083E-02;8.930933273678870E-01;
7.177177177177177E+07;9.736161895698911E-02;1.605779857895256E-01;5.831560394665083E-02;8.921531901604044E-01;9.736161895698911E-02;1.605779857895256E-01;5.831560394665083E-02;8.921531901604044E-01;
7.202202202202202E+07;9.640835022311234E-02;1.636768973289723E-01;5.739897743722563E-02;8.911748282710944E-01;9.640835022311234E-02;1.636768973289723E-01;5.739897743722563E-02;8.911748282710944E-01;
7.227227227227227E+07;9.531842058385909E-02;1.666983020582430E-01;5.666954743418418E-02;8.903250878342780E-01;9.531842058385909E-02;1.666983020582430E-01;5.666954743418418E-02;8.903250878342780E-01;
7.252252252252252E+07;9.369945048924089E-02;1.699854958279272E-01;5.615735234927380E-02;8.892197149719401E-01;9.369945048924089E-02;1.699854958279272E-01;5.615735234927380E-02;8.892197149719401E-01;
7.277277277277277E+07;9.242950228637777E-02;1.738267218217674E-01;5.564419412706663E-02;8.882625021330083E-01;9.242950228637777E-02;1.738267218217674E-01;5.564419412706663E-02;8.882625021330083E-01;
7.302302302302302E+07;9.068832220724014E-02;1.776962357540555E-01;5.597351791093486E-02;8.870434395432338E-01;9.068832220724014E-02;1.776962357540555E-01;5.597351791093486E-02;8.870434395432338E-01;
7.327327327327327E+07;8.887827889833896E-02;1.816296888410232E-01;5.686712621009518E-02;8.856024502552142E-01;8.887827889833896E-02;1.816296888410232E-01;5.686712621009518E-02;8.856024502552142E-01;
7.352352352352352E+07;8.714107534319378E-02;1.856472483544844E-01;5.822160723008485E-02;8.840284576395961E-01;8.714107534319378E-02;1.856472483544844E-01;5.822160723008485E-02;8.840284576395961E-01;
7.377377377377377E+07;8.545057445758719E-02;1.896323458619033E-01;5.978117144723338E-02;8.823743934287065E-01;8.545057445758719E-02;1.896323458619033E-01;5.978117144723338E-02;8.823743934287065E-01;
7.402402402402402E+07;8.381185478805142E-02;1.936613163859713E-01;6.134075237462335E-02;8.806566354432922E-01;8.381185478805142E-02;1.936613163859713E-01;6.134075237462335E-02;8.806566354432922E-01;
7.427427427427427E+07;8.227908181086727E-02;1.977346098465937E-01;6.287149107653059E-02;8.789558559068978E-01;8.227908181086727E-02;1.977346098465937E-01;6.287149107653059E-02;8.789558559068978E-01;
7.452452452452452E+07;8.076705528379349E-02;2.018825803618501E-01;6.409308330149173E-02;8.771625727708162E-01;8.076705528379349E-02;2.018825803618501E-01;6.409308330149173E-02;8.771625727708162E-01;
