# Version 1.00
#
# Ref Impedances: Z01: 50, Z02: 50
# 
freq[Hz];re:SMag2_S11;im:SMag2_S11;re:ZPh2_S12;im:ZPh2_S12;re:SPh2_S11;im:SPh2_S11;re:ZMag2_S12;im:ZMag2_S12;
5.000000000000000E+07;3.688667829328442E-01;7.965292971149154E-01;1.015058868947297E-01;4.175125240933258E-02;3.688667829328442E-01;7.965292971149154E-01;1.015058868947297E-01;4.175125240933258E-02;
5.025025025025025E+07;3.602149286532429E-01;7.954894965421545E-01;1.081893057295676E-01;4.657170377644393E-02;3.602149286532429E-01;7.954894965421545E-01;1.081893057295676E-01;4.657170377644393E-02;
5.050050050050050E+07;3.503824344645624E-01;7.949499573616217E-01;1.166624383320338E-01;4.977944874762923E-02;3.503824344645624E-01;7.949499573616217E-01;1.166624383320338E-01;4.977944874762923E-02;
5.075075075075075E+07;3.390871213961504E-01;7.955553907605332E-01;1.261993105141610E-01;5.128173260737054E-02;3.390871213961504E-01;7.955553907605332E-01;1.261993105141610E-01;5.128173260737054E-02;
5.100100100100100E+07;3.275561126712136E-01;7.985237955794017E-01;1.357664714820650E-01;4.849553168904788E-02;3.275561126712136E-01;7.985237955794017E-01;1.357664714820650E-01;4.849553168904788E-02;
5.125125125125125E+07;3.160023771619493E-01;8.031208687325072E-01;1.437874732156224E-01;4.398350999325362E-02;3.160023771619493E-01;8.031208687325072E-01;1.437874732156224E-01;4.398350999325362E-02;
5.150150150150150E+07;3.057895480869209E-01;8.093720496080721E-01;1.497287396125685E-01;3.767051665482759E-02;3.057895480869209E-01;8.093720496080721E-01;1.497287396125685E-01;3.767051665482759E-02;
5.175175175175175E+07;2.969930680047356E-01;8.162380474367227E-01;1.533495254858839E-01;3.086563260061480E-02;2.969930680047356E-01;8.162380474367227E-01;1.533495254858839E-01;3.086563260061480E-02;
5.200200200200200E+07;2.906844621389106E-01;8.249950889515146E-01;1.544150312634408E-01;2.409884371247347E-02;2.906844621389106E-01;8.249950889515146E-01;1.544150312634408E-01;2.409884371247347E-02;
5.225225225225225E+07;2.848378850037717E-01;8.315163594843319E-01;1.527300747875693E-01;1.689596091554416E-02;2.848378850037717E-01;8.315163594843319E-01;1.527300747875693E-01;1.689596091554416E-02;
5.250250250250250E+07;2.801220908247599E-01;8.350883779798217E-01;1.533918647745059E-01;1.358494970861236E-02;2.801220908247599E-01;8.350883779798217E-01;1.533918647745059E-01;1.358494970861236E-02;
5.275275275275275E+07;2.756138009809704E-01;8.407958379792337E-01;1.515217518307125E-01;9.654029363091071E-03;2.756138009809704E-01;8.407958379792337E-01;1.515217518307125E-01;9.654029363091071E-03;
5.300300300300300E+07;2.713479834231974E-01;8.463264631345401E-01;1.491585646225007E-01;6.706269517971745E-03;2.713479834231974E-01;8.463264631345401E-01;1.491585646225007E-01;6.706269517971745E-03;
5.325325325325325E+07;2.674168297126840E-01;8.516188983952970E-01;1.459586927188888E-01;4.976620481824091E-03;2.674168297126840E-01;8.516188983952970E-01;1.459586927188888E-01;4.976620481824091E-03;
5.350350350350350E+07;2.639315940180188E-01;8.559945988789226E-01;1.437882261047609E-01;5.541910659971555E-03;2.639315940180188E-01;8.559945988789226E-01;1.437882261047609E-01;5.541910659971555E-03;
5.375375375375375E+07;2.603623998299133E-01;8.602525807056539E-01;1.415936463995673E-01;4.794924344247479E-03;2.603623998299133E-01;8.602525807056539E-01;1.415936463995673E-01;4.794924344247479E-03;
5.400400400400400E+07;2.569774039968332E-01;8.640299757920827E-01;1.391489356579002E-01;4.269113603379094E-03;2.569774039968332E-01;8.640299757920827E-01;1.391489356579002E-01;4.269113603379094E-03;
5.425425425425425E+07;2.538825875673889E-01;8.673476625308466E-01;1.367601457142640E-01;3.994985933160625E-03;2.538825875673889E-01;8.673476625308466E-01;1.367601457142640E-01;3.994985933160625E-03;
5.450450450450450E+07;2.505127610880210E-01;8.702620549299638E-01;1.344403376286241E-01;4.265650880975662E-03;2.505127610880210E-01;8.702620549299638E-01;1.344403376286241E-01;4.265650880975662E-03;
5.475475475475475E+07;2.476766229484397E-01;8.729997396481624E-01;1.321279528431149E-01;4.810424175412119E-03;2.476766229484397E-01;8.729997396481624E-01;1.321279528431149E-01;4.810424175412119E-03;
5.500500500500500E+07;2.442022559266702E-01;8.752446894638608E-01;1.300957632601491E-01;5.724246927577553E-03;2.442022559266702E-01;8.752446894638608E-01;1.300957632601491E-01;5.724246927577553E-03;
5.525525525525525E+07;2.413422351066483E-01;8.772547615724929E-01;1.282195731488905E-01;6.920362997627975E-03;2.413422351066483E-01;8.772547615724929E-01;1.282195731488905E-01;6.920362997627975E-03;
5.550550550550550E+07;2.378462514762525E-01;8.790272065852613E-01;1.265033946812874E-01;8.315950441836122E-03;2.378462514762525E-01;8.790272065852613E-01;1.265033946812874E-01;8.315950441836122E-03;
5.575575575575575E+07;2.345685474903022E-01;8.808422879968794E-01;1.248734086487194E-01;9.865406540300733E-03;2.345685474903022E-01;8.808422879968794E-01;1.248734086487194E-01;9.865406540300733E-03;
5.600600600600600E+07;2.317598847663673E-01;8.824525018995732E-01;1.217696387843500E-01;1.114540327219573E-02;2.317598847663673E-01;8.824525018995732E-01;1.217696387843500E-01;1.114540327219573E-02;
5.625625625625625E+07;2.275590224170985E-01;8.836792133996778E-01;1.219742299509407E-01;1.343951320144666E-02;2.275590224170985E-01;8.836792133996778E-01;1.219742299509407E-01;1.343951320144666E-02;
5.650650650650650E+07;2.239371032262614E-01;8.847551502715113E-01;1.206799469018368E-01;1.544551116414102E-02;2.239371032262614E-01;8.847551502715113E-01;1.206799469018368E-01;1.544551116414102E-02;
5.675675675675675E+07;2.204530232344690E-01;8.858693269785555E-01;1.194883376076887E-01;1.762976065364130E-02;2.204530232344690E-01;8.858693269785555E-01;1.194883376076887E-01;1.762976065364130E-02;
5.700700700700700E+07;2.168853253926590E-01;8.866890294395869E-01;1.183740067120825E-01;1.991472711886505E-02;2.168853253926590E-01;8.866890294395869E-01;1.183740067120825E-01;1.991472711886505E-02;
5.725725725725726E+07;2.131928363776182E-01;8.873963889822203E-01;1.173722075158157E-01;2.233183803437725E-02;2.131928363776182E-01;8.873963889822203E-01;1.173722075158157E-01;2.233183803437725E-02;
5.750750750750751E+07;2.095110028550942E-01;8.879972333045362E-01;1.165226925875872E-01;2.480950503934124E-02;2.095110028550942E-01;8.879972333045362E-01;1.165226925875872E-01;2.480950503934124E-02;
5.775775775775776E+07;2.057048453523962E-01;8.885564188334145E-01;1.156583388638757E-01;2.754007206840198E-02;2.057048453523962E-01;8.885564188334145E-01;1.156583388638757E-01;2.754007206840198E-02;
5.800800800800801E+07;2.018891171172966E-01;8.888084577732407E-01;1.148993026839494E-01;3.027014824605470E-02;2.018891171172966E-01;8.888084577732407E-01;1.148993026839494E-01;3.027014824605470E-02;
5.825825825825826E+07;1.979718099629255E-01;8.887204026875645E-01;1.140112137201019E-01;3.328590324109049E-02;1.979718099629255E-01;8.887204026875645E-01;1.140112137201019E-01;3.328590324109049E-02;
5.850850850850851E+07;1.941431710006503E-01;8.887645956484060E-01;1.133474033463081E-01;3.670226384813037E-02;1.941431710006503E-01;8.887645956484060E-01;1.133474033463081E-01;3.670226384813037E-02;
5.875875875875876E+07;1.901028097280831E-01;8.882387435828595E-01;1.128623985488916E-01;4.036132780543924E-02;1.901028097280831E-01;8.882387435828595E-01;1.128623985488916E-01;4.036132780543924E-02;
5.900900900900901E+07;1.854611583325393E-01;8.876198814350783E-01;1.128869822270046E-01;4.443997998394414E-02;1.854611583325393E-01;8.876198814350783E-01;1.128869822270046E-01;4.443997998394414E-02;
5.925925925925926E+07;1.806386285736985E-01;8.869522470265521E-01;1.135558772616868E-01;4.867978994096237E-02;1.806386285736985E-01;8.869522470265521E-01;1.135558772616868E-01;4.867978994096237E-02;
5.950950950950951E+07;1.752209007813029E-01;8.864331509640940E-01;1.149466354330941E-01;5.286027419497792E-02;1.752209007813029E-01;8.864331509640940E-01;1.149466354330941E-01;5.286027419497792E-02;
5.975975975975976E+07;1.701366172583703E-01;8.866694775690920E-01;1.164155006455263E-01;5.606466281237761E-02;1.701366172583703E-01;8.866694775690920E-01;1.164155006455263E-01;5.606466281237761E-02;
6.001001001001001E+07;1.634992268342018E-01;8.867618224800428E-01;1.196861771875378E-01;5.952087906450387E-02;1.634992268342018E-01;8.867618224800428E-01;1.196861771875378E-01;5.952087906450387E-02;
6.026026026026026E+07;1.576876600428720E-01;8.881262904566964E-01;1.225409707309468E-01;6.170246832155868E-02;1.576876600428720E-01;8.881262904566964E-01;1.225409707309468E-01;6.170246832155868E-02;
6.051051051051051E+07;1.525256678347007E-01;8.899503238674420E-01;1.251246169354847E-01;6.299366827019325E-02;1.525256678347007E-01;8.899503238674420E-01;1.251246169354847E-01;6.299366827019325E-02;
6.076076076076076E+07;1.475638178102594E-01;8.919675523751911E-01;1.272986077381878E-01;6.371875814002838E-02;1.475638178102594E-01;8.919675523751911E-01;1.272986077381878E-01;6.371875814002838E-02;
6.101101101101101E+07;1.433526392658779E-01;8.939838986304917E-01;1.287626501173728E-01;6.398404237120960E-02;1.433526392658779E-01;8.939838986304917E-01;1.287626501173728E-01;6.398404237120960E-02;
6.126126126126126E+07;1.394594048535919E-01;8.960775122744917E-01;1.298029238679302E-01;6.427681397740032E-02;1.394594048535919E-01;8.960775122744917E-01;1.298029238679302E-01;6.427681397740032E-02;
6.151151151151151E+07;1.361633502342277E-01;8.978560837673140E-01;1.302409117518460E-01;6.466805753760971E-02;1.361633502342277E-01;8.978560837673140E-01;1.302409117518460E-01;6.466805753760971E-02;
6.176176176176176E+07;1.333080070144370E-01;8.999498422197787E-01;1.303924510517249E-01;6.523337863216670E-02;1.333080070144370E-01;8.999498422197787E-01;1.303924510517249E-01;6.523337863216670E-02;
6.201201201201201E+07;1.308432574198083E-01;9.012928606343263E-01;1.303072255093328E-01;6.594255393272325E-02;1.308432574198083E-01;9.012928606343263E-01;1.303072255093328E-01;6.594255393272325E-02;
6.226226226226226E+07;1.278289541069257E-01;9.025307842174968E-01;1.300866815772362E-01;6.665986826004938E-02;1.278289541069257E-01;9.025307842174968E-01;1.300866815772362E-01;6.665986826004938E-02;
6.251251251251251E+07;1.250557105537202E-01;9.035282782283027E-01;1.293113601499562E-01;6.728440195695731E-02;1.250557105537202E-01;9.035282782283027E-01;1.293113601499562E-01;6.728440195695731E-02;
6.276276276276276E+07;1.223891683362999E-01;9.044394343135991E-01;1.280212812984415E-01;6.812345053097978E-02;1.223891683362999E-01;9.044394343135991E-01;1.280212812984415E-01;6.812345053097978E-02;
6.301301301301301E+07;1.198312593469467E-01;9.051531425687909E-01;1.273344788771731E-01;6.955314283544282E-02;1.198312593469467E-01;9.051531425687909E-01;1.273344788771731E-01;6.955314283544282E-02;
6.326326326326326E+07;1.173936004638689E-01;9.057545053579950E-01;1.265843870945805E-01;7.114355807414045E-02;1.173936004638689E-01;9.057545053579950E-01;1.265843870945805E-01;7.114355807414045E-02;
6.351351351351351E+07;1.152064099035991E-01;9.058933154428842E-01;1.252367007697698E-01;7.299844672200122E-02;1.152064099035991E-01;9.058933154428842E-01;1.252367007697698E-01;7.299844672200122E-02;
6.376376376376376E+07;1.123801955545283E-01;9.064998322058962E-01;1.251189083607657E-01;7.468751518806034E-02;1.123801955545283E-01;9.064998322058962E-01;1.251189083607657E-01;7.468751518806034E-02;
6.401401401401401E+07;1.100461655977960E-01;9.067430108212530E-01;1.244310284136255E-01;7.673008603488642E-02;1.100461655977960E-01;9.067430108212530E-01;1.244310284136255E-01;7.673008603488642E-02;
6.426426426426426E+07;1.076514589539508E-01;9.070447983278264E-01;1.237490124684566E-01;7.864915480829678E-02;1.076514589539508E-01;9.070447983278264E-01;1.237490124684566E-01;7.864915480829678E-02;
6.451451451451451E+07;1.053112225133600E-01;9.072455461377821E-01;1.229363729526490E-01;8.063544466494212E-02;1.053112225133600E-01;9.072455461377821E-01;1.229363729526490E-01;8.063544466494212E-02;
6.476476476476476E+07;1.029575704004588E-01;9.072677398807611E-01;1.221911273105521E-01;8.258669560893073E-02;1.029575704004588E-01;9.072677398807611E-01;1.221911273105521E-01;8.258669560893073E-02;
6.501501501501501E+07;1.008272055479838E-01;9.074418335391465E-01;1.213146526688988E-01;8.476349577672189E-02;1.008272055479838E-01;9.074418335391465E-01;1.213146526688988E-01;8.476349577672189E-02;
6.526526526526526E+07;9.870321779263437E-02;9.073165746468767E-01;1.204854461511526E-01;8.691082728259132E-02;9.870321779263437E-02;9.073165746468767E-01;1.204854461511526E-01;8.691082728259132E-02;
6.551551551551551E+07;9.650806556616126E-02;9.071793107919984E-01;1.196274085571691E-01;8.922809439184293E-02;9.650806556616126E-02;9.071793107919984E-01;1.196274085571691E-01;8.922809439184293E-02;
6.576576576576576E+07;9.713142463370422E-02;9.084412290525321E-01;1.186797828910022E-01;9.175833659692212E-02;9.713142463370422E-02;9.084412290525321E-01;1.186797828910022E-01;9.175833659692212E-02;
6.601601601601601E+07;9.509035296383687E-02;9.079464012869622E-01;1.178339705992290E-01;9.409043020835905E-02;9.509035296383687E-02;9.079464012869622E-01;1.178339705992290E-01;9.409043020835905E-02;
6.626626626626626E+07;9.305019890018161E-02;9.077651034831948E-01;1.169603594616989E-01;9.640012360891353E-02;9.305019890018161E-02;9.077651034831948E-01;1.169603594616989E-01;9.640012360891353E-02;
6.651651651651651E+07;9.119890551550180E-02;9.071039428530286E-01;1.156107117204946E-01;9.834772593955912E-02;9.119890551550180E-02;9.071039428530286E-01;1.156107117204946E-01;9.834772593955912E-02;
6.676676676676676E+07;8.852226067110407E-02;9.071656737775831E-01;1.154445212684927E-01;1.006761785589789E-01;8.852226067110407E-02;9.071656737775831E-01;1.154445212684927E-01;1.006761785589789E-01;
6.701701701701702E+07;8.735346885880961E-02;9.066229241770141E-01;1.144433690597067E-01;1.035772538543425E-01;8.735346885880961E-02;9.066229241770141E-01;1.144433690597067E-01;1.035772538543425E-01;
6.726726726726727E+07;8.523713325222827E-02;9.062687256480549E-01;1.137852153895351E-01;1.059722480041713E-01;8.523713325222827E-02;9.062687256480549E-01;1.137852153895351E-01;1.059722480041713E-01;
6.751751751751752E+07;8.313018869347234E-02;9.060681829214183E-01;1.132442836426302E-01;1.082556323142863E-01;8.313018869347234E-02;9.060681829214183E-01;1.132442836426302E-01;1.082556323142863E-01;
6.776776776776777E+07;8.102717235223383E-02;9.059639427581763E-01;1.126020729432440E-01;1.104800702356435E-01;8.102717235223383E-02;9.059639427581763E-01;1.126020729432440E-01;1.104800702356435E-01;
6.801801801801802E+07;7.863127852584145E-02;9.058239375464683E-01;1.119092439641187E-01;1.127815763760483E-01;7.863127852584145E-02;9.058239375464683E-01;1.119092439641187E-01;1.127815763760483E-01;
6.826826826826827E+07;7.629111953800632E-02;9.055607459353552E-01;1.110126860324848E-01;1.152006144281582E-01;7.629111953800632E-02;9.055607459353552E-01;1.110126860324848E-01;1.152006144281582E-01;
6.851851851851852E+07;7.418517201299228E-02;9.052255685586073E-01;1.099754805983766E-01;1.178906891396086E-01;7.418517201299228E-02;9.052255685586073E-01;1.099754805983766E-01;1.178906891396086E-01;
6.876876876876877E+07;7.310329524166150E-02;9.039665198873188E-01;1.086800659206347E-01;1.207804480125958E-01;7.310329524166150E-02;9.039665198873188E-01;1.086800659206347E-01;1.207804480125958E-01;
6.901901901901902E+07;7.189872466800611E-02;9.033566808422935E-01;1.072722494764052E-01;1.238358139523388E-01;7.189872466800611E-02;9.033566808422935E-01;1.072722494764052E-01;1.238358139523388E-01;
6.926926926926927E+07;7.158520793247720E-02;9.023707564537260E-01;1.057527242672811E-01;1.269742601638303E-01;7.158520793247720E-02;9.023707564537260E-01;1.057527242672811E-01;1.269742601638303E-01;
6.951951951951952E+07;7.169036715397596E-02;9.012472037286869E-01;1.041021867325849E-01;1.301793073032365E-01;7.169036715397596E-02;9.012472037286869E-01;1.041021867325849E-01;1.301793073032365E-01;
6.976976976976977E+07;7.199518794599839E-02;8.999248757184840E-01;1.025014367929948E-01;1.333574517752281E-01;7.199518794599839E-02;8.999248757184840E-01;1.025014367929948E-01;1.333574517752281E-01;
7.002002002002002E+07;7.206803194787059E-02;8.986549147138919E-01;1.008875810038185E-01;1.365644303463341E-01;7.206803194787059E-02;8.986549147138919E-01;1.008875810038185E-01;1.365644303463341E-01;
7.027027027027027E+07;7.225299439499033E-02;8.971498338479599E-01;9.901683842832351E-02;1.395891211157041E-01;7.225299439499033E-02;8.971498338479599E-01;9.901683842832351E-02;1.395891211157041E-01;
7.052052052052052E+07;7.131593432261819E-02;8.962270105204333E-01;9.812995781712845E-02;1.427178882152766E-01;7.131593432261819E-02;8.962270105204333E-01;9.812995781712845E-02;1.427178882152766E-01;
7.077077077077077E+07;7.060253412706140E-02;8.951236001716234E-01;9.687423214279511E-02;1.457862008508119E-01;7.060253412706140E-02;8.951236001716234E-01;9.687423214279511E-02;1.457862008508119E-01;
7.102102102102102E+07;6.984306990123663E-02;8.939709749413556E-01;9.561455124364543E-02;1.488126613057257E-01;6.984306990123663E-02;8.939709749413556E-01;9.561455124364543E-02;1.488126613057257E-01;
7.127127127127127E+07;6.924673894982886E-02;8.927754723895208E-01;9.431781480038451E-02;1.519286876366324E-01;6.924673894982886E-02;8.927754723895208E-01;9.431781480038451E-02;1.519286876366324E-01;
7.152152152152152E+07;6.827757517845504E-02;8.917146967162779E-01;9.331034070267785E-02;1.554397393542351E-01;6.827757517845504E-02;8.917146967162779E-01;9.331034070267785E-02;1.554397393542351E-01;
7.177177177177177E+07;6.754935058046249E-02;8.908203813268983E-01;9.248359744544710E-02;1.587021065892247E-01;6.754935058046249E-02;8.908203813268983E-01;9.248359744544710E-02;1.587021065892247E-01;
7.202202202202202E+07;6.662290161359744E-02;8.896921451291223E-01;9.147393090584439E-02;1.619700065482798E-01;6.662290161359744E-02;8.896921451291223E-01;9.147393090584439E-02;1.619700065482798E-01;
7.227227227227227E+07;6.564870928268983E-02;8.885550488907484E-01;9.023253104049865E-02;1.653045051557188E-01;6.564870928268983E-02;8.885550488907484E-01;9.023253104049865E-02;1.653045051557188E-01;
7.252252252252252E+07;6.482447480731415E-02;8.877426339438865E-01;8.873747585532635E-02;1.688037310617747E-01;6.482447480731415E-02;8.877426339438865E-01;8.873747585532635E-02;1.688037310617747E-01;
7.277277277277277E+07;6.435857351348048E-02;8.864363084471796E-01;8.702687988913643E-02;1.724559295515162E-01;6.435857351348048E-02;8.864363084471796E-01;8.702687988913643E-02;1.724559295515162E-01;
7.302302302302302E+07;6.481100514324596E-02;8.849672174571226E-01;8.519888902325951E-02;1.761869998310912E-01;6.481100514324596E-02;8.849672174571226E-01;8.519888902325951E-02;1.761869998310912E-01;
7.327327327327327E+07;6.536420118783320E-02;8.835233626847336E-01;8.334192182820743E-02;1.800663742955688E-01;6.536420118783320E-02;8.835233626847336E-01;8.334192182820743E-02;1.800663742955688E-01;
7.352352352352352E+07;6.678582469100243E-02;8.817457281405391E-01;8.145903139933004E-02;1.839015764402602E-01;6.678582469100243E-02;8.817457281405391E-01;8.145903139933004E-02;1.839015764402602E-01;
7.377377377377377E+07;6.821815425382578E-02;8.802125837908261E-01;7.962277076347414E-02;1.878359421871962E-01;6.821815425382578E-02;8.802125837908261E-01;7.962277076347414E-02;1.878359421871962E-01;
7.402402402402402E+07;6.974557531741046E-02;8.782343329012370E-01;7.749667208989927E-02;1.917793143218343E-01;6.974557531741046E-02;8.782343329012370E-01;7.749667208989927E-02;1.917793143218343E-01;
7.427427427427427E+07;7.103271712761465E-02;8.767011889764859E-01;7.623325059581187E-02;1.957168464253028E-01;7.103271712761465E-02;8.767011889764859E-01;7.623325059581187E-02;1.957168464253028E-01;
7.452452452452452E+07;7.213042212323081E-02;8.750406214730004E-01;7.471400680206000E-02;1.997419663018743E-01;7.213042212323081E-02;8.750406214730004E-01;7.471400680206000E-02;1.997419663018743E-01;
