# Version 1.00
#
# Ref Impedances: Z01: 50, Z02: 50
# 
freq[Hz];re:SMag2_S11;im:SMag2_S11;re:ZPh2_S12;im:ZPh2_S12;re:SPh2_S11;im:SPh2_S11;re:ZMag2_S12;im:ZMag2_S12;
5.000000000000000E+07;3.579289869652435E-01;8.144083724901232E-01;1.083972416425742E-01;1.588503400111830E-02;3.579289869652435E-01;8.144083724901232E-01;1.083972416425742E-01;1.588503400111830E-02;
5.025025025025025E+07;3.509044114283680E-01;8.153945816058349E-01;1.127398711117830E-01;1.840726660538062E-02;3.509044114283680E-01;8.153945816058349E-01;1.127398711117830E-01;1.840726660538062E-02;
5.050050050050050E+07;3.430665087636586E-01;8.175481316180296E-01;1.174144443899174E-01;1.704133051510527E-02;3.430665087636586E-01;8.175481316180296E-01;1.174144443899174E-01;1.704133051510527E-02;
5.075075075075075E+07;3.342740401047941E-01;8.181114559815444E-01;1.226661376651913E-01;2.058590854971433E-02;3.342740401047941E-01;8.181114559815444E-01;1.226661376651913E-01;2.058590854971433E-02;
5.100100100100100E+07;3.243925069509823E-01;8.201573651448235E-01;1.276601926640896E-01;1.996086807455361E-02;3.243925069509823E-01;8.201573651448235E-01;1.276601926640896E-01;1.996086807455361E-02;
5.125125125125125E+07;3.168034397134019E-01;8.240481396773240E-01;1.322450947633425E-01;1.807033645787319E-02;3.168034397134019E-01;8.240481396773240E-01;1.322450947633425E-01;1.807033645787319E-02;
5.150150150150150E+07;3.091231033612900E-01;8.288366612763909E-01;1.359690297742082E-01;1.530962497460120E-02;3.091231033612900E-01;8.288366612763909E-01;1.359690297742082E-01;1.530962497460120E-02;
5.175175175175175E+07;3.024846450356292E-01;8.336099161587095E-01;1.413428389352878E-01;1.068167923573251E-02;3.024846450356292E-01;8.336099161587095E-01;1.413428389352878E-01;1.068167923573251E-02;
5.200200200200200E+07;2.964470958305689E-01;8.384048044910737E-01;1.418183561635399E-01;7.488741079795662E-03;2.964470958305689E-01;8.384048044910737E-01;1.418183561635399E-01;7.488741079795662E-03;
5.225225225225225E+07;2.908852803394527E-01;8.433006021162266E-01;1.417170483624687E-01;4.755005572395585E-03;2.908852803394527E-01;8.433006021162266E-01;1.417170483624687E-01;4.755005572395585E-03;
5.250250250250250E+07;2.858733816939763E-01;8.477178544907674E-01;1.409148536898582E-01;2.495328512580994E-03;2.858733816939763E-01;8.477178544907674E-01;1.409148536898582E-01;2.495328512580994E-03;
5.275275275275275E+07;2.811413949746951E-01;8.520676727467699E-01;1.400549892721562E-01;6.671414511359910E-04;2.811413949746951E-01;8.520676727467699E-01;1.400549892721562E-01;6.671414511359910E-04;
5.300300300300300E+07;2.765413794388301E-01;8.561887043722192E-01;1.387847585928018E-01;-6.953870852853381E-04;2.765413794388301E-01;8.561887043722192E-01;1.387847585928018E-01;-6.953870852853381E-04;
5.325325325325325E+07;2.722540649878057E-01;8.599476985469658E-01;1.374098944260053E-01;-1.551931181681161E-03;2.722540649878057E-01;8.599476985469658E-01;1.374098944260053E-01;-1.551931181681161E-03;
5.350350350350350E+07;2.682853126414525E-01;8.633915113565170E-01;1.359152391145643E-01;-2.053037181914244E-03;2.682853126414525E-01;8.633915113565170E-01;1.359152391145643E-01;-2.053037181914244E-03;
5.375375375375375E+07;2.642921115178564E-01;8.668302529945279E-01;1.343794937000188E-01;-2.282715850603419E-03;2.642921115178564E-01;8.668302529945279E-01;1.343794937000188E-01;-2.282715850603419E-03;
5.400400400400400E+07;2.604371441871127E-01;8.698162702660257E-01;1.327829850896622E-01;-2.136997716948439E-03;2.604371441871127E-01;8.698162702660257E-01;1.327829850896622E-01;-2.136997716948439E-03;
5.425425425425425E+07;2.576115359823591E-01;8.729725437630260E-01;1.293805530660916E-01;-2.255586254693014E-03;2.576115359823591E-01;8.729725437630260E-01;1.293805530660916E-01;-2.255586254693014E-03;
5.450450450450450E+07;2.530701321294025E-01;8.750498422729233E-01;1.297007518003967E-01;-9.496730728814708E-04;2.530701321294025E-01;8.750498422729233E-01;1.297007518003967E-01;-9.496730728814708E-04;
5.475475475475475E+07;2.494425029414290E-01;8.773396260574426E-01;1.282085976999148E-01;1.303219280918422E-04;2.494425029414290E-01;8.773396260574426E-01;1.282085976999148E-01;1.303219280918422E-04;
5.500500500500500E+07;2.458588518301112E-01;8.793575989993854E-01;1.269305811786321E-01;1.212755742708786E-03;2.458588518301112E-01;8.793575989993854E-01;1.269305811786321E-01;1.212755742708786E-03;
5.525525525525525E+07;2.420867094180672E-01;8.811675693304721E-01;1.256222430173250E-01;2.604773195330910E-03;2.420867094180672E-01;8.811675693304721E-01;1.256222430173250E-01;2.604773195330910E-03;
5.550550550550550E+07;2.384566608638764E-01;8.830281348476507E-01;1.244823551729898E-01;4.083174714602721E-03;2.384566608638764E-01;8.830281348476507E-01;1.244823551729898E-01;4.083174714602721E-03;
5.575575575575575E+07;2.346547237456227E-01;8.844855647091647E-01;1.233562537987141E-01;5.761056525823679E-03;2.346547237456227E-01;8.844855647091647E-01;1.233562537987141E-01;5.761056525823679E-03;
5.600600600600600E+07;2.310186350849290E-01;8.860780261603979E-01;1.223613943359758E-01;7.599000647621475E-03;2.310186350849290E-01;8.860780261603979E-01;1.223613943359758E-01;7.599000647621475E-03;
5.625625625625625E+07;2.274529532883137E-01;8.871585288069930E-01;1.212956309536787E-01;9.498603472768714E-03;2.274529532883137E-01;8.871585288069930E-01;1.212956309536787E-01;9.498603472768714E-03;
5.650650650650650E+07;2.237772102544415E-01;8.883487245741799E-01;1.204063911931170E-01;1.157357420444485E-02;2.237772102544415E-01;8.883487245741799E-01;1.204063911931170E-01;1.157357420444485E-02;
5.675675675675675E+07;2.200050322344368E-01;8.893138638020019E-01;1.195259776569742E-01;1.381860218900918E-02;2.200050322344368E-01;8.893138638020019E-01;1.195259776569742E-01;1.381860218900918E-02;
5.700700700700700E+07;2.161386742100116E-01;8.900831616541296E-01;1.184315251579687E-01;1.627943618242896E-02;2.161386742100116E-01;8.900831616541296E-01;1.184315251579687E-01;1.627943618242896E-02;
5.725725725725726E+07;2.124215739648240E-01;8.911217280558587E-01;1.176902669338638E-01;1.873457555196529E-02;2.124215739648240E-01;8.911217280558587E-01;1.176902669338638E-01;1.873457555196529E-02;
5.750750750750751E+07;2.084711288593738E-01;8.917980569774503E-01;1.170555377392540E-01;2.128528383522474E-02;2.084711288593738E-01;8.917980569774503E-01;1.170555377392540E-01;2.128528383522474E-02;
5.775775775775776E+07;2.044881653332016E-01;8.924262509012707E-01;1.163910842405820E-01;2.386893666185178E-02;2.044881653332016E-01;8.924262509012707E-01;1.163910842405820E-01;2.386893666185178E-02;
5.800800800800801E+07;2.008385266787835E-01;8.927034491317382E-01;1.155209309805808E-01;2.619397908381365E-02;2.008385266787835E-01;8.927034491317382E-01;1.155209309805808E-01;2.619397908381365E-02;
5.825825825825826E+07;1.967503881626721E-01;8.928422854465463E-01;1.153791046646231E-01;2.945167274849856E-02;1.967503881626721E-01;8.928422854465463E-01;1.153791046646231E-01;2.945167274849856E-02;
5.850850850850851E+07;1.924507726998012E-01;8.928468150333561E-01;1.148173134406138E-01;3.236384378687897E-02;1.924507726998012E-01;8.928468150333561E-01;1.148173134406138E-01;3.236384378687897E-02;
5.875875875875876E+07;1.882299990397590E-01;8.927900820497504E-01;1.145446468875391E-01;3.579196213845935E-02;1.882299990397590E-01;8.927900820497504E-01;1.145446468875391E-01;3.579196213845935E-02;
5.900900900900901E+07;1.839894477285241E-01;8.924402174004719E-01;1.146588124623651E-01;3.951703129955769E-02;1.839894477285241E-01;8.924402174004719E-01;1.146588124623651E-01;3.951703129955769E-02;
5.925925925925926E+07;1.793756613281682E-01;8.922095245341946E-01;1.151902575711731E-01;4.326130159763754E-02;1.793756613281682E-01;8.922095245341946E-01;1.151902575711731E-01;4.326130159763754E-02;
5.950950950950951E+07;1.743228029765948E-01;8.916651708421468E-01;1.163522787177679E-01;4.701469298134555E-02;1.743228029765948E-01;8.916651708421468E-01;1.163522787177679E-01;4.701469298134555E-02;
5.975975975975976E+07;1.691723809625506E-01;8.916860063664044E-01;1.180343888248954E-01;5.044526694293235E-02;1.691723809625506E-01;8.916860063664044E-01;1.180343888248954E-01;5.044526694293235E-02;
6.001001001001001E+07;1.636828212864342E-01;8.921282526089472E-01;1.201454210999468E-01;5.342924366277755E-02;1.636828212864342E-01;8.921282526089472E-01;1.201454210999468E-01;5.342924366277755E-02;
6.026026026026026E+07;1.584874720869200E-01;8.929386311598604E-01;1.223123509398845E-01;5.573817473129641E-02;1.584874720869200E-01;8.929386311598604E-01;1.223123509398845E-01;5.573817473129641E-02;
6.051051051051051E+07;1.536771101354451E-01;8.943011897073048E-01;1.245446793489771E-01;5.745291627938146E-02;1.536771101354451E-01;8.943011897073048E-01;1.245446793489771E-01;5.745291627938146E-02;
6.076076076076076E+07;1.487255455804888E-01;8.959970283666758E-01;1.263182121706779E-01;5.854080137223990E-02;1.487255455804888E-01;8.959970283666758E-01;1.263182121706779E-01;5.854080137223990E-02;
6.101101101101101E+07;1.445344942883214E-01;8.975831876635407E-01;1.276719163098184E-01;5.944275032995885E-02;1.445344942883214E-01;8.975831876635407E-01;1.276719163098184E-01;5.944275032995885E-02;
6.126126126126126E+07;1.407799543122031E-01;8.992532503222764E-01;1.285862658429873E-01;6.024476198350424E-02;1.407799543122031E-01;8.992532503222764E-01;1.285862658429873E-01;6.024476198350424E-02;
6.151151151151151E+07;1.371294963469414E-01;9.006748616738876E-01;1.291068068848790E-01;6.108019677034018E-02;1.371294963469414E-01;9.006748616738876E-01;1.291068068848790E-01;6.108019677034018E-02;
6.176176176176176E+07;1.342011768254920E-01;9.019630243857291E-01;1.288157856713762E-01;6.193204133081819E-02;1.342011768254920E-01;9.019630243857291E-01;1.288157856713762E-01;6.193204133081819E-02;
6.201201201201201E+07;1.305764763381527E-01;9.031277230317395E-01;1.294354233923491E-01;6.312810574451359E-02;1.305764763381527E-01;9.031277230317395E-01;1.294354233923491E-01;6.312810574451359E-02;
6.226226226226226E+07;1.275290063722722E-01;9.041665507082799E-01;1.293597187410477E-01;6.420822827346805E-02;1.275290063722722E-01;9.041665507082799E-01;1.293597187410477E-01;6.420822827346805E-02;
6.251251251251251E+07;1.246864490427254E-01;9.051793994080719E-01;1.291374886172767E-01;6.545975894895524E-02;1.246864490427254E-01;9.051793994080719E-01;1.291374886172767E-01;6.545975894895524E-02;
6.276276276276276E+07;1.219373504061423E-01;9.058681512285285E-01;1.286919292974780E-01;6.690849068002500E-02;1.219373504061423E-01;9.058681512285285E-01;1.286919292974780E-01;6.690849068002500E-02;
6.301301301301301E+07;1.192200617275892E-01;9.064909467313833E-01;1.282031226210459E-01;6.845227535295846E-02;1.192200617275892E-01;9.064909467313833E-01;1.282031226210459E-01;6.845227535295846E-02;
6.326326326326326E+07;1.164908468847786E-01;9.069776107383798E-01;1.275990239703179E-01;7.023206034904353E-02;1.164908468847786E-01;9.069776107383798E-01;1.275990239703179E-01;7.023206034904353E-02;
6.351351351351351E+07;1.137717660645238E-01;9.074775895395685E-01;1.270427877577646E-01;7.210023930628374E-02;1.137717660645238E-01;9.074775895395685E-01;1.270427877577646E-01;7.210023930628374E-02;
6.376376376376376E+07;1.110858487302477E-01;9.076772895042893E-01;1.265904417861618E-01;7.407683965261082E-02;1.110858487302477E-01;9.076772895042893E-01;1.265904417861618E-01;7.407683965261082E-02;
6.401401401401401E+07;1.084973022566785E-01;9.080134483789545E-01;1.260515195722216E-01;7.602679189280623E-02;1.084973022566785E-01;9.080134483789545E-01;1.260515195722216E-01;7.602679189280623E-02;
6.426426426426426E+07;1.062344374994280E-01;9.082887537623724E-01;1.254987360071955E-01;7.806990850939995E-02;1.062344374994280E-01;9.082887537623724E-01;1.254987360071955E-01;7.806990850939995E-02;
6.451451451451451E+07;1.037173811887390E-01;9.084132637980582E-01;1.249056681408307E-01;8.012770375294756E-02;1.037173811887390E-01;9.084132637980582E-01;1.249056681408307E-01;8.012770375294756E-02;
6.476476476476476E+07;1.013954149925891E-01;9.084161774473614E-01;1.242768627241738E-01;8.223381738488340E-02;1.013954149925891E-01;9.084161774473614E-01;1.242768627241738E-01;8.223381738488340E-02;
6.501501501501501E+07;9.899611452668906E-02;9.085230031849646E-01;1.236181729195522E-01;8.444741589549774E-02;9.899611452668906E-02;9.085230031849646E-01;1.236181729195522E-01;8.444741589549774E-02;
6.526526526526526E+07;9.703519070094196E-02;9.085367682786890E-01;1.228617051848981E-01;8.678569588789714E-02;9.703519070094196E-02;9.085367682786890E-01;1.228617051848981E-01;8.678569588789714E-02;
6.551551551551551E+07;9.501928669914431E-02;9.082829403876184E-01;1.221592287887849E-01;8.918818264126237E-02;9.501928669914431E-02;9.082829403876184E-01;1.221592287887849E-01;8.918818264126237E-02;
6.576576576576576E+07;9.513497158782973E-02;9.092361107799706E-01;1.207561660051438E-01;9.169312279485152E-02;9.513497158782973E-02;9.092361107799706E-01;1.207561660051438E-01;9.169312279485152E-02;
6.601601601601601E+07;9.306988864403871E-02;9.088732122812093E-01;1.202063841537133E-01;9.408878154719551E-02;9.306988864403871E-02;9.088732122812093E-01;1.202063841537133E-01;9.408878154719551E-02;
6.626626626626626E+07;9.099284453484797E-02;9.085277678689477E-01;1.194868495365941E-01;9.661601946547013E-02;9.099284453484797E-02;9.085277678689477E-01;1.194868495365941E-01;9.661601946547013E-02;
6.651651651651651E+07;8.856952198434000E-02;9.083214333439779E-01;1.189533541731042E-01;9.914513232431314E-02;8.856952198434000E-02;9.083214333439779E-01;1.189533541731042E-01;9.914513232431314E-02;
6.676676676676676E+07;8.637344402834977E-02;9.081706805756755E-01;1.184006159238736E-01;1.015400503743619E-01;8.637344402834977E-02;9.081706805756755E-01;1.184006159238736E-01;1.015400503743619E-01;
6.701701701701702E+07;8.503084404300293E-02;9.075351328683464E-01;1.176194699680351E-01;1.044984982959622E-01;8.503084404300293E-02;9.075351328683464E-01;1.176194699680351E-01;1.044984982959622E-01;
6.726726726726727E+07;8.283882556425248E-02;9.074233269934162E-01;1.171477783344040E-01;1.069386079440047E-01;8.283882556425248E-02;9.074233269934162E-01;1.171477783344040E-01;1.069386079440047E-01;
6.751751751751752E+07;8.067187257643976E-02;9.072209289509878E-01;1.167456796953953E-01;1.093662876556445E-01;8.067187257643976E-02;9.072209289509878E-01;1.167456796953953E-01;1.093662876556445E-01;
6.776776776776777E+07;7.843577471807017E-02;9.071200056854343E-01;1.163872070946783E-01;1.115464155822451E-01;7.843577471807017E-02;9.071200056854343E-01;1.163872070946783E-01;1.115464155822451E-01;
6.801801801801802E+07;7.616290691496581E-02;9.069808734184956E-01;1.158749912486266E-01;1.137758006559654E-01;7.616290691496581E-02;9.069808734184956E-01;1.158749912486266E-01;1.137758006559654E-01;
6.826826826826827E+07;7.380044866096251E-02;9.069203947836533E-01;1.151660981332982E-01;1.161041569035677E-01;7.380044866096251E-02;9.069203947836533E-01;1.151660981332982E-01;1.161041569035677E-01;
6.851851851851852E+07;7.168874615615689E-02;9.065677304248216E-01;1.142065537719145E-01;1.187666828346650E-01;7.168874615615689E-02;9.065677304248216E-01;1.142065537719145E-01;1.187666828346650E-01;
6.876876876876877E+07;7.056356676622931E-02;9.054414859148110E-01;1.131312285272567E-01;1.216246022757923E-01;7.056356676622931E-02;9.054414859148110E-01;1.131312285272567E-01;1.216246022757923E-01;
6.901901901901902E+07;6.958567616502651E-02;9.048760823788567E-01;1.116974022994125E-01;1.247937617900580E-01;6.958567616502651E-02;9.048760823788567E-01;1.116974022994125E-01;1.247937617900580E-01;
6.926926926926927E+07;6.903994043920478E-02;9.039525757650692E-01;1.102924391060579E-01;1.280185326066906E-01;6.903994043920478E-02;9.039525757650692E-01;1.102924391060579E-01;1.280185326066906E-01;
6.951951951951952E+07;6.896235337693066E-02;9.028790671918432E-01;1.087605042663749E-01;1.313306240863385E-01;6.896235337693066E-02;9.028790671918432E-01;1.087605042663749E-01;1.313306240863385E-01;
6.976976976976977E+07;6.926490829694265E-02;9.015861189156111E-01;1.071948231809598E-01;1.346359402864445E-01;6.926490829694265E-02;9.015861189156111E-01;1.071948231809598E-01;1.346359402864445E-01;
7.002002002002002E+07;6.933530508221060E-02;9.003580683989331E-01;1.057676119151236E-01;1.377601896120357E-01;6.933530508221060E-02;9.003580683989331E-01;1.057676119151236E-01;1.377601896120357E-01;
7.027027027027027E+07;6.922882597803340E-02;8.991122929616940E-01;1.046058535969523E-01;1.408780818126612E-01;6.922882597803340E-02;8.991122929616940E-01;1.046058535969523E-01;1.408780818126612E-01;
7.052052052052052E+07;6.875922253943467E-02;8.980221566140780E-01;1.034599119780234E-01;1.441424607236638E-01;6.875922253943467E-02;8.980221566140780E-01;1.034599119780234E-01;1.441424607236638E-01;
7.077077077077077E+07;6.817184752521109E-02;8.969509095268020E-01;1.023113501314956E-01;1.472318085862908E-01;6.817184752521109E-02;8.969509095268020E-01;1.023113501314956E-01;1.472318085862908E-01;
7.102102102102102E+07;6.768239787243112E-02;8.959070280141765E-01;1.012559517527954E-01;1.504447266103203E-01;6.768239787243112E-02;8.959070280141765E-01;1.012559517527954E-01;1.504447266103203E-01;
7.127127127127127E+07;6.703946047941402E-02;8.949206690398445E-01;1.001891519495105E-01;1.536418703441398E-01;6.703946047941402E-02;8.949206690398445E-01;1.001891519495105E-01;1.536418703441398E-01;
7.152152152152152E+07;6.635241462180605E-02;8.936792017811774E-01;9.929246177486847E-02;1.566999609838770E-01;6.635241462180605E-02;8.936792017811774E-01;9.929246177486847E-02;1.566999609838770E-01;
7.177177177177177E+07;6.569460134088684E-02;8.927951112535576E-01;9.848889650538915E-02;1.598171487321921E-01;6.569460134088684E-02;8.927951112535576E-01;9.848889650538915E-02;1.598171487321921E-01;
7.202202202202202E+07;6.462313436746860E-02;8.918090734864824E-01;9.758334598341681E-02;1.629637915860753E-01;6.462313436746860E-02;8.918090734864824E-01;9.758334598341681E-02;1.629637915860753E-01;
7.227227227227227E+07;6.398360121108813E-02;8.906939810877287E-01;9.611413872653149E-02;1.661926482673471E-01;6.398360121108813E-02;8.906939810877287E-01;9.611413872653149E-02;1.661926482673471E-01;
7.252252252252252E+07;6.308020247904614E-02;8.897223624846338E-01;9.515628103887282E-02;1.698077308089948E-01;6.308020247904614E-02;8.897223624846338E-01;9.515628103887282E-02;1.698077308089948E-01;
7.277277277277277E+07;6.269767405663654E-02;8.886309953916730E-01;9.357851270814496E-02;1.734972013953960E-01;6.269767405663654E-02;8.886309953916730E-01;9.357851270814496E-02;1.734972013953960E-01;
7.302302302302302E+07;6.291195626688854E-02;8.872667056123169E-01;9.185434951054772E-02;1.772785495442909E-01;6.291195626688854E-02;8.872667056123169E-01;9.185434951054772E-02;1.772785495442909E-01;
7.327327327327327E+07;6.376160211041575E-02;8.859577744998124E-01;9.008266548960674E-02;1.812462867249655E-01;6.376160211041575E-02;8.859577744998124E-01;9.008266548960674E-02;1.812462867249655E-01;
7.352352352352352E+07;6.496518818130971E-02;8.841351526025307E-01;8.837108690544673E-02;1.852779201770944E-01;6.496518818130971E-02;8.841351526025307E-01;8.837108690544673E-02;1.852779201770944E-01;
7.377377377377377E+07;6.656128895123219E-02;8.824458401443427E-01;8.670313344842222E-02;1.893430139658990E-01;6.656128895123219E-02;8.824458401443427E-01;8.670313344842222E-02;1.893430139658990E-01;
7.402402402402402E+07;6.802183332392095E-02;8.807914641494675E-01;8.511334046469775E-02;1.933544704214426E-01;6.802183332392095E-02;8.807914641494675E-01;8.511334046469775E-02;1.933544704214426E-01;
7.427427427427427E+07;6.915410243980771E-02;8.788550330267364E-01;8.355069311420450E-02;1.974347562061181E-01;6.915410243980771E-02;8.788550330267364E-01;8.355069311420450E-02;1.974347562061181E-01;
7.452452452452452E+07;7.033385507490582E-02;8.770414522088025E-01;8.213650987251146E-02;2.015537606863070E-01;7.033385507490582E-02;8.770414522088025E-01;8.213650987251146E-02;2.015537606863070E-01;
