# Version 1.00
#
# Ref Impedances: Z01: 50, Z02: 50
# 
freq[Hz];re:SMag2_S11;im:SMag2_S11;re:ZPh2_S12;im:ZPh2_S12;re:SPh2_S11;im:SPh2_S11;re:ZMag2_S12;im:ZMag2_S12;
5.000000000000000E+07;3.572474783738186E-01;8.216747494007750E-01;9.940514743755734E-02;1.489152345432647E-03;3.572474783738186E-01;8.216747494007750E-01;9.940514743755734E-02;1.489152345432647E-03;
5.025025025025025E+07;3.516719225939641E-01;8.221124091528421E-01;1.011276558398790E-01;5.258763677546892E-03;3.516719225939641E-01;8.221124091528421E-01;1.011276558398790E-01;5.258763677546892E-03;
5.050050050050050E+07;3.456211637765821E-01;8.222211713301497E-01;1.038631182084700E-01;8.836136638368288E-03;3.456211637765821E-01;8.222211713301497E-01;1.038631182084700E-01;8.836136638368288E-03;
5.075075075075075E+07;3.387531781907014E-01;8.226954854350212E-01;1.074939408324512E-01;1.219123540697190E-02;3.387531781907014E-01;8.226954854350212E-01;1.074939408324512E-01;1.219123540697190E-02;
5.100100100100100E+07;3.312624201849237E-01;8.235845040129859E-01;1.118623355183554E-01;1.357313467493166E-02;3.312624201849237E-01;8.235845040129859E-01;1.118623355183554E-01;1.357313467493166E-02;
5.125125125125125E+07;3.232624215166178E-01;8.252406003290833E-01;1.163217409963934E-01;1.577558879179984E-02;3.232624215166178E-01;8.252406003290833E-01;1.163217409963934E-01;1.577558879179984E-02;
5.150150150150150E+07;3.151028926630126E-01;8.273636377144911E-01;1.208516422865630E-01;1.601268992542237E-02;3.151028926630126E-01;8.273636377144911E-01;1.208516422865630E-01;1.601268992542237E-02;
5.175175175175175E+07;3.070293188187172E-01;8.307306212525990E-01;1.248988582421294E-01;1.518361207032614E-02;3.070293188187172E-01;8.307306212525990E-01;1.248988582421294E-01;1.518361207032614E-02;
5.200200200200200E+07;2.994980017919210E-01;8.348078699298436E-01;1.281242678038632E-01;1.367104071267186E-02;2.994980017919210E-01;8.348078699298436E-01;1.281242678038632E-01;1.367104071267186E-02;
5.225225225225225E+07;2.925853664836939E-01;8.387126830107782E-01;1.306250721162177E-01;1.200039055363461E-02;2.925853664836939E-01;8.387126830107782E-01;1.306250721162177E-01;1.200039055363461E-02;
5.250250250250250E+07;2.862034727889489E-01;8.432059223380167E-01;1.323330610578097E-01;1.003877649265631E-02;2.862034727889489E-01;8.432059223380167E-01;1.323330610578097E-01;1.003877649265631E-02;
5.275275275275275E+07;2.801933730808648E-01;8.474375213688509E-01;1.335427743264438E-01;8.175034727107648E-03;2.801933730808648E-01;8.474375213688509E-01;1.335427743264438E-01;8.175034727107648E-03;
5.300300300300300E+07;2.750604515804951E-01;8.517596520110277E-01;1.340379481765485E-01;6.460647866185563E-03;2.750604515804951E-01;8.517596520110277E-01;1.340379481765485E-01;6.460647866185563E-03;
5.325325325325325E+07;2.701250876373728E-01;8.560465530858565E-01;1.341548452560213E-01;4.936633355566927E-03;2.701250876373728E-01;8.560465530858565E-01;1.341548452560213E-01;4.936633355566927E-03;
5.350350350350350E+07;2.660436294910775E-01;8.598423205449037E-01;1.337829235934473E-01;3.628823692816639E-03;2.660436294910775E-01;8.598423205449037E-01;1.337829235934473E-01;3.628823692816639E-03;
5.375375375375375E+07;2.614141672248075E-01;8.636735922264953E-01;1.330951811436040E-01;2.701601054459703E-03;2.614141672248075E-01;8.636735922264953E-01;1.330951811436040E-01;2.701601054459703E-03;
5.400400400400400E+07;2.571780630977998E-01;8.671384133543140E-01;1.321171002841323E-01;2.098195585761564E-03;2.571780630977998E-01;8.671384133543140E-01;1.321171002841323E-01;2.098195585761564E-03;
5.425425425425425E+07;2.535464668525445E-01;8.702781466464409E-01;1.308599533664282E-01;1.900020770411639E-03;2.535464668525445E-01;8.702781466464409E-01;1.308599533664282E-01;1.900020770411639E-03;
5.450450450450450E+07;2.497290531117879E-01;8.732375887643352E-01;1.296815819843954E-01;2.104289917248581E-03;2.497290531117879E-01;8.732375887643352E-01;1.296815819843954E-01;2.104289917248581E-03;
5.475475475475475E+07;2.469933840197267E-01;8.760688368755919E-01;1.272939841288377E-01;2.110546199458907E-03;2.469933840197267E-01;8.760688368755919E-01;1.272939841288377E-01;2.110546199458907E-03;
5.500500500500500E+07;2.424502943144576E-01;8.779676719968540E-01;1.270765248602269E-01;3.426177759527380E-03;2.424502943144576E-01;8.779676719968540E-01;1.270765248602269E-01;3.426177759527380E-03;
5.525525525525525E+07;2.388438310111310E-01;8.801141749049741E-01;1.259206173876140E-01;4.355191482839313E-03;2.388438310111310E-01;8.801141749049741E-01;1.259206173876140E-01;4.355191482839313E-03;
5.550550550550550E+07;2.350607648541383E-01;8.819166884428140E-01;1.248355116985890E-01;5.549322763525229E-03;2.350607648541383E-01;8.819166884428140E-01;1.248355116985890E-01;5.549322763525229E-03;
5.575575575575575E+07;2.314469878373808E-01;8.835945672912959E-01;1.237244975792363E-01;6.959272097022288E-03;2.314469878373808E-01;8.835945672912959E-01;1.237244975792363E-01;6.959272097022288E-03;
5.600600600600600E+07;2.279528799536663E-01;8.851539757871378E-01;1.226747302010497E-01;8.453161499377576E-03;2.279528799536663E-01;8.851539757871378E-01;1.226747302010497E-01;8.453161499377576E-03;
5.625625625625625E+07;2.241242344676605E-01;8.866602071725947E-01;1.216646221561184E-01;1.015162464261757E-02;2.241242344676605E-01;8.866602071725947E-01;1.216646221561184E-01;1.015162464261757E-02;
5.650650650650650E+07;2.204059229351020E-01;8.878674368514052E-01;1.207320429127795E-01;1.204625042453584E-02;2.204059229351020E-01;8.878674368514052E-01;1.207320429127795E-01;1.204625042453584E-02;
5.675675675675675E+07;2.167973372704107E-01;8.890825863534650E-01;1.197873787876974E-01;1.402168212776588E-02;2.167973372704107E-01;8.890825863534650E-01;1.197873787876974E-01;1.402168212776588E-02;
5.700700700700700E+07;2.130812169597949E-01;8.899559988158325E-01;1.188994460860936E-01;1.609386308603523E-02;2.130812169597949E-01;8.899559988158325E-01;1.188994460860936E-01;1.609386308603523E-02;
5.725725725725726E+07;2.094502647923463E-01;8.906999900489178E-01;1.180538727825330E-01;1.830474431814259E-02;2.094502647923463E-01;8.906999900489178E-01;1.180538727825330E-01;1.830474431814259E-02;
5.750750750750751E+07;2.056725036425643E-01;8.915736649787005E-01;1.172986583195371E-01;2.065842067850862E-02;2.056725036425643E-01;8.915736649787005E-01;1.172986583195371E-01;2.065842067850862E-02;
5.775775775775776E+07;2.018346349608024E-01;8.922947013312470E-01;1.165250127751604E-01;2.304419067479407E-02;2.018346349608024E-01;8.922947013312470E-01;1.165250127751604E-01;2.304419067479407E-02;
5.800800800800801E+07;1.981261543208916E-01;8.928602461775271E-01;1.156816251019223E-01;2.635352787340081E-02;1.981261543208916E-01;8.928602461775271E-01;1.156816251019223E-01;2.635352787340081E-02;
5.825825825825826E+07;1.942748089052515E-01;8.930800305491789E-01;1.146377677792037E-01;2.926015491131898E-02;1.942748089052515E-01;8.930800305491789E-01;1.146377677792037E-01;2.926015491131898E-02;
5.850850850850851E+07;1.909444687593012E-01;8.932137798677330E-01;1.136957055179654E-01;3.204284916761122E-02;1.909444687593012E-01;8.932137798677330E-01;1.136957055179654E-01;3.204284916761122E-02;
5.875875875875876E+07;1.869341998244720E-01;8.926178872291910E-01;1.130608196410747E-01;3.561041745690788E-02;1.869341998244720E-01;8.926178872291910E-01;1.130608196410747E-01;3.561041745690788E-02;
5.900900900900901E+07;1.828921618227703E-01;8.923711524759471E-01;1.125364272694540E-01;3.946297105422292E-02;1.828921618227703E-01;8.923711524759471E-01;1.125364272694540E-01;3.946297105422292E-02;
5.925925925925926E+07;1.785632216997943E-01;8.918600287542399E-01;1.124657171479705E-01;4.360595341027169E-02;1.785632216997943E-01;8.918600287542399E-01;1.124657171479705E-01;4.360595341027169E-02;
5.950950950950951E+07;1.738950600143365E-01;8.910546240443511E-01;1.129655539497342E-01;4.787415080600951E-02;1.738950600143365E-01;8.910546240443511E-01;1.129655539497342E-01;4.787415080600951E-02;
5.975975975975976E+07;1.687717821310434E-01;8.906964893784985E-01;1.141314369773539E-01;5.217726612745530E-02;1.687717821310434E-01;8.906964893784985E-01;1.141314369773539E-01;5.217726612745530E-02;
6.001001001001001E+07;1.633490135243927E-01;8.905429061530437E-01;1.158375085858617E-01;5.620138485008677E-02;1.633490135243927E-01;8.905429061530437E-01;1.158375085858617E-01;5.620138485008677E-02;
6.026026026026026E+07;1.581140044213549E-01;8.906906605491124E-01;1.181291166309792E-01;5.968211007962286E-02;1.581140044213549E-01;8.906906605491124E-01;1.181291166309792E-01;5.968211007962286E-02;
6.051051051051051E+07;1.527271979664619E-01;8.916475706652087E-01;1.206088921472842E-01;6.247859691762547E-02;1.527271979664619E-01;8.916475706652087E-01;1.206088921472842E-01;6.247859691762547E-02;
6.076076076076076E+07;1.476139476926808E-01;8.927784263040829E-01;1.230771760457125E-01;6.462070966060858E-02;1.476139476926808E-01;8.927784263040829E-01;1.230771760457125E-01;6.462070966060858E-02;
6.101101101101101E+07;1.430205840392154E-01;8.941235888296154E-01;1.252301091604121E-01;6.610876906500043E-02;1.430205840392154E-01;8.941235888296154E-01;1.252301091604121E-01;6.610876906500043E-02;
6.126126126126126E+07;1.386586217272894E-01;8.956108513520529E-01;1.269768197675412E-01;6.729923388622190E-02;1.386586217272894E-01;8.956108513520529E-01;1.269768197675412E-01;6.729923388622190E-02;
6.151151151151151E+07;1.346853478134684E-01;8.972041573631111E-01;1.283609521556482E-01;6.835795755338329E-02;1.346853478134684E-01;8.972041573631111E-01;1.283609521556482E-01;6.835795755338329E-02;
6.176176176176176E+07;1.311824263889386E-01;8.986257064888584E-01;1.291957884283066E-01;6.933841648379213E-02;1.311824263889386E-01;8.986257064888584E-01;1.291957884283066E-01;6.933841648379213E-02;
6.201201201201201E+07;1.275185821540723E-01;8.997958943014970E-01;1.297879607022382E-01;7.048193698591382E-02;1.275185821540723E-01;8.997958943014970E-01;1.297879607022382E-01;7.048193698591382E-02;
6.226226226226226E+07;1.245307113006746E-01;9.008851318940909E-01;1.300021125715540E-01;7.153289147502694E-02;1.245307113006746E-01;9.008851318940909E-01;1.300021125715540E-01;7.153289147502694E-02;
6.251251251251251E+07;1.211746970606979E-01;9.020280064477127E-01;1.305104605390483E-01;7.274124397473619E-02;1.211746970606979E-01;9.020280064477127E-01;1.305104605390483E-01;7.274124397473619E-02;
6.276276276276276E+07;1.180865720085965E-01;9.028693163861340E-01;1.305381656919054E-01;7.393250596778750E-02;1.180865720085965E-01;9.028693163861340E-01;1.305381656919054E-01;7.393250596778750E-02;
6.301301301301301E+07;1.152609616498714E-01;9.036306192950243E-01;1.303926270353689E-01;7.527860744921550E-02;1.152609616498714E-01;9.036306192950243E-01;1.303926270353689E-01;7.527860744921550E-02;
6.326326326326326E+07;1.124437217510091E-01;9.042503780170967E-01;1.300914791016000E-01;7.685192591892222E-02;1.124437217510091E-01;9.042503780170967E-01;1.300914791016000E-01;7.685192591892222E-02;
6.351351351351351E+07;1.097715250714764E-01;9.046688604373340E-01;1.296940146264231E-01;7.860625328732818E-02;1.097715250714764E-01;9.046688604373340E-01;1.296940146264231E-01;7.860625328732818E-02;
6.376376376376376E+07;1.069637389712929E-01;9.050004450379644E-01;1.293201800231557E-01;8.040492764065327E-02;1.069637389712929E-01;9.050004450379644E-01;1.293201800231557E-01;8.040492764065327E-02;
6.401401401401401E+07;1.043041922254300E-01;9.054060476380079E-01;1.288877105497608E-01;8.235746842668198E-02;1.043041922254300E-01;9.054060476380079E-01;1.288877105497608E-01;8.235746842668198E-02;
6.426426426426426E+07;1.015211125224646E-01;9.056174683085144E-01;1.284881146967176E-01;8.438100506029955E-02;1.015211125224646E-01;9.056174683085144E-01;1.284881146967176E-01;8.438100506029955E-02;
6.451451451451451E+07;9.889470327663540E-02;9.059598069252769E-01;1.280854602342786E-01;8.637704514597920E-02;9.889470327663540E-02;9.059598069252769E-01;1.280854602342786E-01;8.637704514597920E-02;
6.476476476476476E+07;9.640151054822983E-02;9.061721764210950E-01;1.275973824583434E-01;8.848749231004065E-02;9.640151054822983E-02;9.061721764210950E-01;1.275973824583434E-01;8.848749231004065E-02;
6.501501501501501E+07;9.408046775041654E-02;9.063261198680658E-01;1.271382319618572E-01;9.061451356796235E-02;9.408046775041654E-02;9.063261198680658E-01;1.271382319618572E-01;9.061451356796235E-02;
6.526526526526526E+07;9.150919442651388E-02;9.065354269407571E-01;1.266585962692903E-01;9.275676374049663E-02;9.150919442651388E-02;9.065354269407571E-01;1.266585962692903E-01;9.275676374049663E-02;
6.551551551551551E+07;8.928573904929031E-02;9.065365377972484E-01;1.260618974688349E-01;9.498271559788844E-02;8.928573904929031E-02;9.065365377972484E-01;1.260618974688349E-01;9.498271559788844E-02;
6.576576576576576E+07;8.910979817164860E-02;9.074925009716381E-01;1.264875737094786E-01;9.625606161708317E-02;8.910979817164860E-02;9.074925009716381E-01;1.264875737094786E-01;9.625606161708317E-02;
6.601601601601601E+07;8.706396254855922E-02;9.073489263102241E-01;1.258360514468161E-01;9.843696108792969E-02;8.706396254855922E-02;9.073489263102241E-01;1.258360514468161E-01;9.843696108792969E-02;
6.626626626626626E+07;8.477606176158062E-02;9.072348782167308E-01;1.251155505868372E-01;1.006376084260963E-01;8.477606176158062E-02;9.072348782167308E-01;1.251155505868372E-01;1.006376084260963E-01;
6.651651651651651E+07;8.241864905043070E-02;9.070798398791180E-01;1.243850751941361E-01;1.030201334873076E-01;8.241864905043070E-02;9.070798398791180E-01;1.243850751941361E-01;1.030201334873076E-01;
6.676676676676676E+07;7.999546005120189E-02;9.069029685398410E-01;1.237900660728979E-01;1.053866859536383E-01;7.999546005120189E-02;9.069029685398410E-01;1.237900660728979E-01;1.053866859536383E-01;
6.701701701701702E+07;7.887860010229523E-02;9.062864538806085E-01;1.228933588929342E-01;1.083083138239374E-01;7.887860010229523E-02;9.062864538806085E-01;1.228933588929342E-01;1.083083138239374E-01;
6.726726726726727E+07;7.657659827586137E-02;9.060819092375163E-01;1.223523448782608E-01;1.107421089611837E-01;7.657659827586137E-02;9.060819092375163E-01;1.223523448782608E-01;1.107421089611837E-01;
6.751751751751752E+07;7.423039426274010E-02;9.057895549979633E-01;1.219428921917278E-01;1.130552459995518E-01;7.423039426274010E-02;9.057895549979633E-01;1.219428921917278E-01;1.130552459995518E-01;
6.776776776776777E+07;7.164258648126066E-02;9.057352448412982E-01;1.213815120203818E-01;1.154190542824262E-01;7.164258648126066E-02;9.057352448412982E-01;1.213815120203818E-01;1.154190542824262E-01;
6.801801801801802E+07;6.911011635153735E-02;9.055820406144984E-01;1.207923409155704E-01;1.178589856993315E-01;6.911011635153735E-02;9.055820406144984E-01;1.207923409155704E-01;1.178589856993315E-01;
6.826826826826827E+07;6.667586078135615E-02;9.053817647451430E-01;1.199640987076729E-01;1.205369799756345E-01;6.667586078135615E-02;9.053817647451430E-01;1.199640987076729E-01;1.205369799756345E-01;
6.851851851851852E+07;6.450110164270932E-02;9.050758716245272E-01;1.189229684353658E-01;1.234550847512055E-01;6.450110164270932E-02;9.050758716245272E-01;1.189229684353658E-01;1.234550847512055E-01;
6.876876876876877E+07;6.347070100760305E-02;9.039353661497579E-01;1.171027774708569E-01;1.266040957125350E-01;6.347070100760305E-02;9.039353661497579E-01;1.171027774708569E-01;1.266040957125350E-01;
6.901901901901902E+07;6.273645092920527E-02;9.032711282747000E-01;1.155969025999115E-01;1.297881090392340E-01;6.273645092920527E-02;9.032711282747000E-01;1.155969025999115E-01;1.297881090392340E-01;
6.926926926926927E+07;6.226649622454232E-02;9.021545798587224E-01;1.143352474689361E-01;1.331285510013474E-01;6.226649622454232E-02;9.021545798587224E-01;1.143352474689361E-01;1.331285510013474E-01;
6.951951951951952E+07;6.216934064221676E-02;9.010299305119074E-01;1.128849157568341E-01;1.364865367070539E-01;6.216934064221676E-02;9.010299305119074E-01;1.128849157568341E-01;1.364865367070539E-01;
6.976976976976977E+07;6.212162637229316E-02;8.998179480607933E-01;1.113712149527587E-01;1.398282081585532E-01;6.212162637229316E-02;8.998179480607933E-01;1.113712149527587E-01;1.398282081585532E-01;
7.002002002002002E+07;6.175025072983423E-02;8.985870151272274E-01;1.099416952730902E-01;1.431661340843248E-01;6.175025072983423E-02;8.985870151272274E-01;1.099416952730902E-01;1.431661340843248E-01;
7.027027027027027E+07;6.120397485055445E-02;8.974744037615042E-01;1.087041258083902E-01;1.463795051547202E-01;6.120397485055445E-02;8.974744037615042E-01;1.087041258083902E-01;1.463795051547202E-01;
7.052052052052052E+07;6.028404052504489E-02;8.964104295828158E-01;1.075633399139029E-01;1.496673814176962E-01;6.028404052504489E-02;8.964104295828158E-01;1.075633399139029E-01;1.496673814176962E-01;
7.077077077077077E+07;5.919050505409696E-02;8.954165851873293E-01;1.065382704359323E-01;1.528968169755702E-01;5.919050505409696E-02;8.954165851873293E-01;1.065382704359323E-01;1.528968169755702E-01;
7.102102102102102E+07;5.815930855179871E-02;8.943937740258240E-01;1.054638897627241E-01;1.560613836590978E-01;5.815930855179871E-02;8.943937740258240E-01;1.054638897627241E-01;1.560613836590978E-01;
7.127127127127127E+07;5.705288495172924E-02;8.935453841724685E-01;1.045610256568484E-01;1.593087148274530E-01;5.705288495172924E-02;8.935453841724685E-01;1.045610256568484E-01;1.593087148274530E-01;
7.152152152152152E+07;5.606336899269772E-02;8.923846216811440E-01;1.037912835837774E-01;1.625804393024516E-01;5.606336899269772E-02;8.923846216811440E-01;1.037912835837774E-01;1.625804393024516E-01;
7.177177177177177E+07;5.472619632533509E-02;8.914988744788285E-01;1.029638767499456E-01;1.657991376429873E-01;5.472619632533509E-02;8.914988744788285E-01;1.029638767499456E-01;1.657991376429873E-01;
7.202202202202202E+07;5.327766404775443E-02;8.906224345419385E-01;1.020255231653346E-01;1.691955752027777E-01;5.327766404775443E-02;8.906224345419385E-01;1.020255231653346E-01;1.691955752027777E-01;
7.227227227227227E+07;5.227192370217272E-02;8.895973038733311E-01;1.007720635994944E-01;1.728682094994083E-01;5.227192370217272E-02;8.895973038733311E-01;1.007720635994944E-01;1.728682094994083E-01;
7.252252252252252E+07;5.120438527282001E-02;8.888548835492848E-01;9.949220955309609E-02;1.765916509978188E-01;5.120438527282001E-02;8.888548835492848E-01;9.949220955309609E-02;1.765916509978188E-01;
7.277277277277277E+07;5.108180103741288E-02;8.876472154778249E-01;9.782638014193969E-02;1.803523861925847E-01;5.108180103741288E-02;8.876472154778249E-01;9.782638014193969E-02;1.803523861925847E-01;
7.302302302302302E+07;5.110304491948457E-02;8.863651301357581E-01;9.640988899342869E-02;1.844487345277834E-01;5.110304491948457E-02;8.863651301357581E-01;9.640988899342869E-02;1.844487345277834E-01;
7.327327327327327E+07;5.178793361348685E-02;8.849270782739407E-01;9.479007669455009E-02;1.883512383073147E-01;5.178793361348685E-02;8.849270782739407E-01;9.479007669455009E-02;1.883512383073147E-01;
7.352352352352352E+07;5.271109946013738E-02;8.832415083212765E-01;9.316460076333526E-02;1.923642463842202E-01;5.271109946013738E-02;8.832415083212765E-01;9.316460076333526E-02;1.923642463842202E-01;
7.377377377377377E+07;5.381596970957023E-02;8.818126763237050E-01;9.169435830439752E-02;1.963803056520471E-01;5.381596970957023E-02;8.818126763237050E-01;9.169435830439752E-02;1.963803056520471E-01;
7.402402402402402E+07;5.460234036173010E-02;8.799626704046970E-01;9.029824408153997E-02;2.004795738900530E-01;5.460234036173010E-02;8.799626704046970E-01;9.029824408153997E-02;2.004795738900530E-01;
7.427427427427427E+07;5.546413556715458E-02;8.784809031608175E-01;8.903912079898282E-02;2.044964856725822E-01;5.546413556715458E-02;8.784809031608175E-01;8.903912079898282E-02;2.044964856725822E-01;
7.452452452452452E+07;5.615663175119580E-02;8.769083817758019E-01;8.778033063488147E-02;2.086565355364383E-01;5.615663175119580E-02;8.769083817758019E-01;8.778033063488147E-02;2.086565355364383E-01;
