# Version 1.00
#
# Ref Impedances: Z01: 50, Z02: 50
# 
freq[Hz];re:ZMag1_S12;im:ZMag1_S12;re:SMag1_S11;im:SMag1_S11;re:ZPh1_S12;im:ZPh1_S12;re:SPh1_S11;im:SPh1_S11;
5.000000000000000E+07;1.009507443062462E-01;-2.346846100111338E-03;3.593859389670780E-01;8.189218358832361E-01;1.009507443062462E-01;-2.346846100111338E-03;3.593859389670780E-01;8.189218358832361E-01;
5.025025025025025E+07;1.040438539156180E-01;-1.440460963937134E-03;3.525191215983860E-01;8.207005728790037E-01;1.040438539156180E-01;-1.440460963937134E-03;3.525191215983860E-01;8.207005728790037E-01;
5.050050050050050E+07;1.073771446287634E-01;3.662979404900465E-03;3.465382232471411E-01;8.198341458119320E-01;1.073771446287634E-01;3.662979404900465E-03;3.465382232471411E-01;8.198341458119320E-01;
5.075075075075075E+07;1.117404599099257E-01;5.766811801797363E-03;3.391083427008890E-01;8.208557296177065E-01;1.117404599099257E-01;5.766811801797363E-03;3.391083427008890E-01;8.208557296177065E-01;
5.100100100100100E+07;1.164687180051476E-01;6.870866271112602E-03;3.311304522122527E-01;8.224570614501900E-01;1.164687180051476E-01;6.870866271112602E-03;3.311304522122527E-01;8.224570614501900E-01;
5.125125125125125E+07;1.210740765938851E-01;6.682325030442256E-03;3.229437292942249E-01;8.249019412866830E-01;1.210740765938851E-01;6.682325030442256E-03;3.229437292942249E-01;8.249019412866830E-01;
5.150150150150150E+07;1.250971363925040E-01;5.487108988272899E-03;3.146757802722699E-01;8.283484563992005E-01;1.250971363925040E-01;5.487108988272899E-03;3.146757802722699E-01;8.283484563992005E-01;
5.175175175175175E+07;1.282045261900986E-01;3.628647731718129E-03;3.067470804661588E-01;8.330358430113413E-01;1.282045261900986E-01;3.628647731718129E-03;3.067470804661588E-01;8.330358430113413E-01;
5.200200200200200E+07;1.304977075470416E-01;1.600141604667591E-03;3.002946112243107E-01;8.372623576995748E-01;1.304977075470416E-01;1.600141604667591E-03;3.002946112243107E-01;8.372623576995748E-01;
5.225225225225225E+07;1.316578120313381E-01;-5.884911833305744E-04;2.941925105325648E-01;8.415342195179439E-01;1.316578120313381E-01;-5.884911833305744E-04;2.941925105325648E-01;8.415342195179439E-01;
5.250250250250250E+07;1.323165329243266E-01;-2.920271546678601E-03;2.886709744504735E-01;8.457091453810751E-01;1.323165329243266E-01;-2.920271546678601E-03;2.886709744504735E-01;8.457091453810751E-01;
5.275275275275275E+07;1.322854692490915E-01;-4.569134613221720E-03;2.837236741727764E-01;8.497753995515714E-01;1.322854692490915E-01;-4.569134613221720E-03;2.837236741727764E-01;8.497753995515714E-01;
5.300300300300300E+07;1.319953169994346E-01;-5.486350808591630E-03;2.790547231805887E-01;8.534817621220230E-01;1.319953169994346E-01;-5.486350808591630E-03;2.790547231805887E-01;8.534817621220230E-01;
5.325325325325325E+07;1.315020230848796E-01;-5.980106291347284E-03;2.746010536575808E-01;8.570711192457059E-01;1.315020230848796E-01;-5.980106291347284E-03;2.746010536575808E-01;8.570711192457059E-01;
5.350350350350350E+07;1.308873225157554E-01;-6.266829571204850E-03;2.703579268173359E-01;8.602656265075597E-01;1.308873225157554E-01;-6.266829571204850E-03;2.703579268173359E-01;8.602656265075597E-01;
5.375375375375375E+07;1.301685978380759E-01;-6.312412370825005E-03;2.661077287581015E-01;8.632758059680111E-01;1.301685978380759E-01;-6.312412370825005E-03;2.661077287581015E-01;8.632758059680111E-01;
5.400400400400400E+07;1.280490051449694E-01;-6.525286284691806E-03;2.629630794734125E-01;8.664963019170701E-01;1.280490051449694E-01;-6.525286284691806E-03;2.629630794734125E-01;8.664963019170701E-01;
5.425425425425425E+07;1.283471944193693E-01;-5.563090946095883E-03;2.582113373047799E-01;8.687048827457922E-01;1.283471944193693E-01;-5.563090946095883E-03;2.582113373047799E-01;8.687048827457922E-01;
5.450450450450450E+07;1.274397329084215E-01;-4.711623170292787E-03;2.546336213650657E-01;8.709382723321104E-01;1.274397329084215E-01;-4.711623170292787E-03;2.546336213650657E-01;8.709382723321104E-01;
5.475475475475475E+07;1.264754532338908E-01;-3.729399904227706E-03;2.509188223166046E-01;8.728711047614374E-01;1.264754532338908E-01;-3.729399904227706E-03;2.509188223166046E-01;8.728711047614374E-01;
5.500500500500500E+07;1.256326047767796E-01;-2.481107745905666E-03;2.471435717589036E-01;8.747516241326314E-01;1.256326047767796E-01;-2.481107745905666E-03;2.471435717589036E-01;8.747516241326314E-01;
5.525525525525525E+07;1.248429640069917E-01;-1.033776829558017E-03;2.433852872409127E-01;8.765350902398681E-01;1.248429640069917E-01;-1.033776829558017E-03;2.433852872409127E-01;8.765350902398681E-01;
5.550550550550550E+07;1.241159792495072E-01;5.788373097746611E-04;2.394598509857950E-01;8.780040521412442E-01;1.241159792495072E-01;5.788373097746611E-04;2.394598509857950E-01;8.780040521412442E-01;
5.575575575575575E+07;1.234455238552552E-01;2.297142819455917E-03;2.356935368829402E-01;8.794270295259717E-01;1.234455238552552E-01;2.297142819455917E-03;2.356935368829402E-01;8.794270295259717E-01;
5.600600600600600E+07;1.228447452129400E-01;4.125928736324975E-03;2.320323305614543E-01;8.806460785823620E-01;1.228447452129400E-01;4.125928736324975E-03;2.320323305614543E-01;8.806460785823620E-01;
5.625625625625625E+07;1.222701269050130E-01;6.056910061899793E-03;2.281164115592834E-01;8.818210937287287E-01;1.222701269050130E-01;6.056910061899793E-03;2.281164115592834E-01;8.818210937287287E-01;
5.650650650650650E+07;1.216933842597645E-01;8.151765113092856E-03;2.243878769165657E-01;8.829623718378512E-01;1.216933842597645E-01;8.151765113092856E-03;2.243878769165657E-01;8.829623718378512E-01;
5.675675675675675E+07;1.211844524113635E-01;1.031618073817697E-02;2.207204830557723E-01;8.839772762823467E-01;1.211844524113635E-01;1.031618073817697E-02;2.207204830557723E-01;8.839772762823467E-01;
5.700700700700700E+07;1.207277633869817E-01;1.256319583726988E-02;2.168676043329109E-01;8.847453356440528E-01;1.207277633869817E-01;1.256319583726988E-02;2.168676043329109E-01;8.847453356440528E-01;
5.725725725725726E+07;1.203322958354806E-01;1.493725573008706E-02;2.133348722731183E-01;8.853440624182506E-01;1.203322958354806E-01;1.493725573008706E-02;2.133348722731183E-01;8.853440624182506E-01;
5.750750750750751E+07;1.199100930063536E-01;1.741033784069669E-02;2.093717963680423E-01;8.858863117605559E-01;1.199100930063536E-01;1.741033784069669E-02;2.093717963680423E-01;8.858863117605559E-01;
5.775775775775776E+07;1.195180655221737E-01;1.996195431450741E-02;2.057728530173041E-01;8.864914356812994E-01;1.195180655221737E-01;1.996195431450741E-02;2.057728530173041E-01;8.864914356812994E-01;
5.800800800800801E+07;1.192211459028285E-01;2.296300632004710E-02;2.078790334296082E-01;8.849819579061644E-01;1.192211459028285E-01;2.296300632004710E-02;2.078790334296082E-01;8.849819579061644E-01;
5.825825825825826E+07;1.188821402945137E-01;2.592929577365832E-02;2.040680844611179E-01;8.850988949527129E-01;1.188821402945137E-01;2.592929577365832E-02;2.040680844611179E-01;8.850988949527129E-01;
5.850850850850851E+07;1.184643474974843E-01;2.911716433152009E-02;2.000371696815169E-01;8.849170714859083E-01;1.184643474974843E-01;2.911716433152009E-02;2.000371696815169E-01;8.849170714859083E-01;
5.875875875875876E+07;1.182396095759805E-01;3.263060942140931E-02;1.963479161340853E-01;8.844323792960044E-01;1.182396095759805E-01;3.263060942140931E-02;1.963479161340853E-01;8.844323792960044E-01;
5.900900900900901E+07;1.183289162020497E-01;3.642717403101272E-02;1.921406992081532E-01;8.839705232174817E-01;1.183289162020497E-01;3.642717403101272E-02;1.921406992081532E-01;8.839705232174817E-01;
5.925925925925926E+07;1.190161577794389E-01;4.040630016410156E-02;1.876895060092301E-01;8.832363409727123E-01;1.190161577794389E-01;4.040630016410156E-02;1.876895060092301E-01;8.832363409727123E-01;
5.950950950950951E+07;1.200913770492619E-01;4.463257174668243E-02;1.829171593549099E-01;8.825658792059652E-01;1.200913770492619E-01;4.463257174668243E-02;1.829171593549099E-01;8.825658792059652E-01;
5.975975975975976E+07;1.217125370585855E-01;4.854578506781894E-02;1.776723202216620E-01;8.823017481788209E-01;1.217125370585855E-01;4.854578506781894E-02;1.776723202216620E-01;8.823017481788209E-01;
6.001001001001001E+07;1.237699981513826E-01;5.209362947760331E-02;1.723608604833866E-01;8.822884140775576E-01;1.237699981513826E-01;5.209362947760331E-02;1.723608604833866E-01;8.822884140775576E-01;
6.026026026026026E+07;1.261412327282761E-01;5.511205236612977E-02;1.672687095662639E-01;8.828542197468733E-01;1.261412327282761E-01;5.511205236612977E-02;1.672687095662639E-01;8.828542197468733E-01;
6.051051051051051E+07;1.285716132280992E-01;5.754796428203632E-02;1.621103951069999E-01;8.833464256654779E-01;1.285716132280992E-01;5.754796428203632E-02;1.621103951069999E-01;8.833464256654779E-01;
6.076076076076076E+07;1.308354649127755E-01;5.939009508307311E-02;1.573134986369225E-01;8.845179908783343E-01;1.308354649127755E-01;5.939009508307311E-02;1.573134986369225E-01;8.845179908783343E-01;
6.101101101101101E+07;1.326540073152713E-01;6.083777616752614E-02;1.527393061279034E-01;8.859869015277795E-01;1.326540073152713E-01;6.083777616752614E-02;1.527393061279034E-01;8.859869015277795E-01;
6.126126126126126E+07;1.339625840356503E-01;6.242145162013124E-02;1.484443740263768E-01;8.875619068617845E-01;1.339625840356503E-01;6.242145162013124E-02;1.484443740263768E-01;8.875619068617845E-01;
6.151151151151151E+07;1.351384837063754E-01;6.392982138357134E-02;1.450154791724149E-01;8.890738810911556E-01;1.351384837063754E-01;6.392982138357134E-02;1.450154791724149E-01;8.890738810911556E-01;
6.176176176176176E+07;1.359847604887220E-01;6.517796536385574E-02;1.414576383243221E-01;8.905714269194757E-01;1.359847604887220E-01;6.517796536385574E-02;1.414576383243221E-01;8.905714269194757E-01;
6.201201201201201E+07;1.367285465704962E-01;6.652609426282594E-02;1.381044868857291E-01;8.918170302208380E-01;1.367285465704962E-01;6.652609426282594E-02;1.381044868857291E-01;8.918170302208380E-01;
6.226226226226226E+07;1.372051762693504E-01;6.778613573869298E-02;1.351606287810936E-01;8.930251875317158E-01;1.372051762693504E-01;6.778613573869298E-02;1.351606287810936E-01;8.930251875317158E-01;
6.251251251251251E+07;1.374774947128587E-01;6.913968469975963E-02;1.322692951679923E-01;8.941025687481490E-01;1.374774947128587E-01;6.913968469975963E-02;1.322692951679923E-01;8.941025687481490E-01;
6.276276276276276E+07;1.375112960933629E-01;7.056120833150195E-02;1.297530506516970E-01;8.950834503269663E-01;1.375112960933629E-01;7.056120833150195E-02;1.297530506516970E-01;8.950834503269663E-01;
6.301301301301301E+07;1.373919900498008E-01;7.216490815251865E-02;1.271056181656733E-01;8.958283099109370E-01;1.373919900498008E-01;7.216490815251865E-02;1.271056181656733E-01;8.958283099109370E-01;
6.326326326326326E+07;1.371456555855101E-01;7.394363540375115E-02;1.247671996924121E-01;8.964904243373844E-01;1.371456555855101E-01;7.394363540375115E-02;1.247671996924121E-01;8.964904243373844E-01;
6.351351351351351E+07;1.368266265101670E-01;7.585966444945980E-02;1.223126422008303E-01;8.968783806871736E-01;1.368266265101670E-01;7.585966444945980E-02;1.223126422008303E-01;8.968783806871736E-01;
6.376376376376376E+07;1.365366819814620E-01;7.788874604988713E-02;1.199600102379409E-01;8.972800528396827E-01;1.365366819814620E-01;7.788874604988713E-02;1.199600102379409E-01;8.972800528396827E-01;
6.401401401401401E+07;1.362124286528166E-01;8.006119383241801E-02;1.177157554226586E-01;8.975909013763036E-01;1.362124286528166E-01;8.006119383241801E-02;1.177157554226586E-01;8.975909013763036E-01;
6.426426426426426E+07;1.358600307744290E-01;8.223174508375392E-02;1.154776005336023E-01;8.978442633290760E-01;1.358600307744290E-01;8.223174508375392E-02;1.154776005336023E-01;8.978442633290760E-01;
6.451451451451451E+07;1.354735029937842E-01;8.450722747657623E-02;1.133666415089138E-01;8.980701817232242E-01;1.354735029937842E-01;8.450722747657623E-02;1.133666415089138E-01;8.980701817232242E-01;
6.476476476476476E+07;1.349829431017221E-01;8.682760232215489E-02;1.112376748706902E-01;8.981944310160672E-01;1.349829431017221E-01;8.682760232215489E-02;1.112376748706902E-01;8.981944310160672E-01;
6.501501501501501E+07;1.344841704667586E-01;8.926537469459496E-02;1.092345514907126E-01;8.982394637844501E-01;1.344841704667586E-01;8.926537469459496E-02;1.092345514907126E-01;8.982394637844501E-01;
6.526526526526526E+07;1.339352017948887E-01;9.181899142145181E-02;1.073254549420995E-01;8.981427352609334E-01;1.339352017948887E-01;9.181899142145181E-02;1.073254549420995E-01;8.981427352609334E-01;
6.551551551551551E+07;1.330080046280956E-01;9.435614039975142E-02;1.056334846378772E-01;8.979383473273094E-01;1.330080046280956E-01;9.435614039975142E-02;1.056334846378772E-01;8.979383473273094E-01;
6.576576576576576E+07;1.329571076309516E-01;9.667224701881330E-02;9.614149025967270E-02;8.992462523324016E-01;1.329571076309516E-01;9.667224701881330E-02;9.614149025967270E-02;8.992462523324016E-01;
6.601601601601601E+07;1.324650748283343E-01;9.932296353217099E-02;9.434559214467940E-02;8.988662941390936E-01;1.324650748283343E-01;9.932296353217099E-02;9.434559214467940E-02;8.988662941390936E-01;
6.626626626626626E+07;1.319609442237735E-01;1.021385568120791E-01;9.238728753459237E-02;8.986077055091872E-01;1.319609442237735E-01;1.021385568120791E-01;9.238728753459237E-02;8.986077055091872E-01;
6.651651651651651E+07;1.314986828111769E-01;1.048758340492208E-01;9.034814597039338E-02;8.982769957541048E-01;1.314986828111769E-01;1.048758340492208E-01;9.034814597039338E-02;8.982769957541048E-01;
6.676676676676676E+07;1.311380722313782E-01;1.076097877047847E-01;8.816971404813484E-02;8.981062436013286E-01;1.311380722313782E-01;1.076097877047847E-01;8.816971404813484E-02;8.981062436013286E-01;
6.701701701701702E+07;1.304901384468312E-01;1.109620678725239E-01;8.738533762934735E-02;8.973794932081677E-01;1.304901384468312E-01;1.109620678725239E-01;8.738533762934735E-02;8.973794932081677E-01;
6.726726726726727E+07;1.301813482097212E-01;1.137425881036569E-01;8.540930513945812E-02;8.971468567204338E-01;1.301813482097212E-01;1.137425881036569E-01;8.540930513945812E-02;8.971468567204338E-01;
6.751751751751752E+07;1.299450455525467E-01;1.164521705100619E-01;8.343589358524900E-02;8.969056762588402E-01;1.299450455525467E-01;1.164521705100619E-01;8.343589358524900E-02;8.969056762588402E-01;
6.776776776776777E+07;1.296978686037219E-01;1.191514679404363E-01;8.140372514015869E-02;8.966697316073733E-01;1.296978686037219E-01;1.191514679404363E-01;8.140372514015869E-02;8.966697316073733E-01;
6.801801801801802E+07;1.293483418947965E-01;1.219456783814607E-01;7.924056206972015E-02;8.964956670948928E-01;1.293483418947965E-01;1.219456783814607E-01;7.924056206972015E-02;8.964956670948928E-01;
6.826826826826827E+07;1.288334265993880E-01;1.250258142728084E-01;7.727388627820332E-02;8.962933720386105E-01;1.288334265993880E-01;1.250258142728084E-01;7.727388627820332E-02;8.962933720386105E-01;
6.851851851851852E+07;1.279745901672338E-01;1.282683851134717E-01;7.560527515687560E-02;8.958884677363769E-01;1.279745901672338E-01;1.282683851134717E-01;7.560527515687560E-02;8.958884677363769E-01;
6.876876876876877E+07;1.270219633503901E-01;1.317164196043072E-01;7.868481571125369E-02;8.954666474736243E-01;1.270219633503901E-01;1.317164196043072E-01;7.868481571125369E-02;8.954666474736243E-01;
6.901901901901902E+07;1.260152533628594E-01;1.352028649834966E-01;7.835667667384048E-02;8.946917474337363E-01;1.260152533628594E-01;1.352028649834966E-01;7.835667667384048E-02;8.946917474337363E-01;
6.926926926926927E+07;1.247929511758513E-01;1.387026010990485E-01;7.867520602337399E-02;8.934826837516708E-01;1.247929511758513E-01;1.387026010990485E-01;7.867520602337399E-02;8.934826837516708E-01;
6.951951951951952E+07;1.234845159270054E-01;1.422204632579034E-01;7.921330058208818E-02;8.921475153948391E-01;1.234845159270054E-01;1.422204632579034E-01;7.921330058208818E-02;8.921475153948391E-01;
6.976976976976977E+07;1.220304441874276E-01;1.458732844086002E-01;7.979829425195710E-02;8.906710305074567E-01;1.220304441874276E-01;1.458732844086002E-01;7.979829425195710E-02;8.906710305074567E-01;
7.002002002002002E+07;1.206513133602126E-01;1.496189237352295E-01;8.013666406404744E-02;8.891542746962372E-01;1.206513133602126E-01;1.496189237352295E-01;8.013666406404744E-02;8.891542746962372E-01;
7.027027027027027E+07;1.194556335840394E-01;1.533020068658152E-01;7.996141827943548E-02;8.877136827728014E-01;1.194556335840394E-01;1.533020068658152E-01;7.996141827943548E-02;8.877136827728014E-01;
7.052052052052052E+07;1.184692578503519E-01;1.570053028737303E-01;7.955561441099079E-02;8.865016464385286E-01;1.184692578503519E-01;1.570053028737303E-01;7.955561441099079E-02;8.865016464385286E-01;
7.077077077077077E+07;1.174604131447807E-01;1.606363152892277E-01;7.922049290741914E-02;8.852111092874040E-01;1.174604131447807E-01;1.606363152892277E-01;7.922049290741914E-02;8.852111092874040E-01;
7.102102102102102E+07;1.165673874031436E-01;1.643535849439932E-01;7.873560847501256E-02;8.839824784502692E-01;1.165673874031436E-01;1.643535849439932E-01;7.873560847501256E-02;8.839824784502692E-01;
7.127127127127127E+07;1.158493410646346E-01;1.680596657945280E-01;7.834334511187209E-02;8.826625402811583E-01;1.158493410646346E-01;1.680596657945280E-01;7.834334511187209E-02;8.826625402811583E-01;
7.152152152152152E+07;1.152397234988503E-01;1.717750492253217E-01;7.781891950862134E-02;8.815555790978977E-01;1.152397234988503E-01;1.717750492253217E-01;7.781891950862134E-02;8.815555790978977E-01;
7.177177177177177E+07;1.146654836001169E-01;1.755288861739195E-01;7.718799110588807E-02;8.803761059619604E-01;1.146654836001169E-01;1.755288861739195E-01;7.718799110588807E-02;8.803761059619604E-01;
7.202202202202202E+07;1.139155981461935E-01;1.793781909062115E-01;7.658946986085886E-02;8.791685052360467E-01;1.139155981461935E-01;1.793781909062115E-01;7.658946986085886E-02;8.791685052360467E-01;
7.227227227227227E+07;1.129465591906147E-01;1.836021212338362E-01;7.616669086507687E-02;8.780235241924922E-01;1.129465591906147E-01;1.836021212338362E-01;7.616669086507687E-02;8.780235241924922E-01;
7.252252252252252E+07;1.118282806629175E-01;1.878790159496070E-01;7.599804059654899E-02;8.767380889216553E-01;1.118282806629175E-01;1.878790159496070E-01;7.599804059654899E-02;8.767380889216553E-01;
7.277277277277277E+07;1.105214794663349E-01;1.923305110838145E-01;7.648728159996544E-02;8.751950772069240E-01;1.105214794663349E-01;1.923305110838145E-01;7.648728159996544E-02;8.751950772069240E-01;
7.302302302302302E+07;1.090869695774795E-01;1.968764701255694E-01;7.754249083682312E-02;8.734421790989435E-01;1.090869695774795E-01;1.968764701255694E-01;7.754249083682312E-02;8.734421790989435E-01;
7.327327327327327E+07;1.076765461548551E-01;2.015347097278838E-01;7.923902460359863E-02;8.716155597813932E-01;1.076765461548551E-01;2.015347097278838E-01;7.923902460359863E-02;8.716155597813932E-01;
7.352352352352352E+07;1.063565910318057E-01;2.061772516457853E-01;8.100801352197708E-02;8.694973315889013E-01;1.063565910318057E-01;2.061772516457853E-01;8.100801352197708E-02;8.694973315889013E-01;
7.377377377377377E+07;1.051233160454794E-01;2.108581291438901E-01;8.282225639420920E-02;8.674562201689527E-01;1.051233160454794E-01;2.108581291438901E-01;8.282225639420920E-02;8.674562201689527E-01;
7.402402402402402E+07;1.040333931514459E-01;2.155608991359148E-01;8.477980070936909E-02;8.653302507680275E-01;1.040333931514459E-01;2.155608991359148E-01;8.477980070936909E-02;8.653302507680275E-01;
7.427427427427427E+07;1.029302354427075E-01;2.203110546713158E-01;8.656652279975859E-02;8.630899281651512E-01;1.029302354427075E-01;2.203110546713158E-01;8.656652279975859E-02;8.630899281651512E-01;
7.452452452452452E+07;1.019935721500159E-01;2.250898448422744E-01;8.819040801622939E-02;8.608599770592187E-01;1.019935721500159E-01;2.250898448422744E-01;8.819040801622939E-02;8.608599770592187E-01;
