# Version 1.00
#
# Ref Impedances: Z01: 50, Z02: 50
# 
freq[Hz];re:ZMag1_S12;im:ZMag1_S12;re:SMag1_S11;im:SMag1_S11;re:ZPh1_S12;im:ZPh1_S12;re:SPh1_S11;im:SPh1_S11;
5.000000000000000E+07;9.770874764312308E-02;5.948618117217162E-03;3.580826819721470E-01;8.164260879892333E-01;9.770874764312308E-02;5.948618117217162E-03;3.580826819721470E-01;8.164260879892333E-01;
5.025025025025025E+07;1.000385912161016E-01;1.010234168443545E-02;3.527171894218534E-01;8.163361695596837E-01;1.000385912161016E-01;1.010234168443545E-02;3.527171894218534E-01;8.163361695596837E-01;
5.050050050050050E+07;1.031603068555678E-01;1.437769352947627E-02;3.460876839915494E-01;8.160375467981219E-01;1.031603068555678E-01;1.437769352947627E-02;3.460876839915494E-01;8.160375467981219E-01;
5.075075075075075E+07;1.076321533361936E-01;1.751150326541196E-02;3.389536412369897E-01;8.157269763260496E-01;1.076321533361936E-01;1.751150326541196E-02;3.389536412369897E-01;8.157269763260496E-01;
5.100100100100100E+07;1.135623597545805E-01;2.120813621048274E-02;3.307511762706825E-01;8.156289575139465E-01;1.135623597545805E-01;2.120813621048274E-02;3.307511762706825E-01;8.156289575139465E-01;
5.125125125125125E+07;1.198894285172812E-01;2.252017863110327E-02;3.215061745617158E-01;8.165052083258826E-01;1.198894285172812E-01;2.252017863110327E-02;3.215061745617158E-01;8.165052083258826E-01;
5.150150150150150E+07;1.261088681980001E-01;2.207693607142576E-02;3.121564037913382E-01;8.185544722350027E-01;1.261088681980001E-01;2.207693607142576E-02;3.121564037913382E-01;8.185544722350027E-01;
5.175175175175175E+07;1.314369427177210E-01;2.021883568434113E-02;3.027653238908464E-01;8.222106472378715E-01;1.314369427177210E-01;2.021883568434113E-02;3.027653238908464E-01;8.222106472378715E-01;
5.200200200200200E+07;1.356133815945182E-01;1.721833070375524E-02;2.940156425274535E-01;8.267915247379251E-01;1.356133815945182E-01;1.721833070375524E-02;2.940156425274535E-01;8.267915247379251E-01;
5.225225225225225E+07;1.383696404237814E-01;1.412806343789988E-02;2.862480505540387E-01;8.320943610546688E-01;1.383696404237814E-01;1.412806343789988E-02;2.862480505540387E-01;8.320943610546688E-01;
5.250250250250250E+07;1.399771187092639E-01;1.092870263989326E-02;2.794397711958024E-01;8.375426035251096E-01;1.399771187092639E-01;1.092870263989326E-02;2.794397711958024E-01;8.375426035251096E-01;
5.275275275275275E+07;1.406021825273069E-01;7.938512159556202E-03;2.735370979811826E-01;8.424738249814940E-01;1.406021825273069E-01;7.938512159556202E-03;2.735370979811826E-01;8.424738249814940E-01;
5.300300300300300E+07;1.405586220939849E-01;5.449986744403061E-03;2.682541843633944E-01;8.474859508670660E-01;1.405586220939849E-01;5.449986744403061E-03;2.682541843633944E-01;8.474859508670660E-01;
5.325325325325325E+07;1.380385363716051E-01;2.301859460711832E-03;2.647772899772598E-01;8.534187327021528E-01;1.380385363716051E-01;2.301859460711832E-03;2.647772899772598E-01;8.534187327021528E-01;
5.350350350350350E+07;1.390175738771670E-01;2.208943812932074E-03;2.591849370959948E-01;8.561234111968327E-01;1.390175738771670E-01;2.208943812932074E-03;2.591849370959948E-01;8.561234111968327E-01;
5.375375375375375E+07;1.379209757837856E-01;1.306505643120559E-03;2.553659307238427E-01;8.597528111501587E-01;1.379209757837856E-01;1.306505643120559E-03;2.553659307238427E-01;8.597528111501587E-01;
5.400400400400400E+07;1.366212517030413E-01;8.791266846062910E-04;2.512596526786950E-01;8.633549412792544E-01;1.366212517030413E-01;8.791266846062910E-04;2.512596526786950E-01;8.633549412792544E-01;
5.425425425425425E+07;1.353099393906449E-01;9.022493594367739E-04;2.477986850365351E-01;8.662910360433541E-01;1.353099393906449E-01;9.022493594367739E-04;2.477986850365351E-01;8.662910360433541E-01;
5.450450450450450E+07;1.340117625088759E-01;1.270059044662374E-03;2.439744481639864E-01;8.691590171790394E-01;1.340117625088759E-01;1.270059044662374E-03;2.439744481639864E-01;8.691590171790394E-01;
5.475475475475475E+07;1.328314756850818E-01;1.936047217496090E-03;2.402513417238589E-01;8.714844613641182E-01;1.328314756850818E-01;1.936047217496090E-03;2.402513417238589E-01;8.714844613641182E-01;
5.500500500500500E+07;1.316526278655393E-01;2.908035424254686E-03;2.366159105419358E-01;8.737561358329444E-01;1.316526278655393E-01;2.908035424254686E-03;2.366159105419358E-01;8.737561358329444E-01;
5.525525525525525E+07;1.305281897538881E-01;4.004559862518264E-03;2.329966768715545E-01;8.757808558648696E-01;1.305281897538881E-01;4.004559862518264E-03;2.329966768715545E-01;8.757808558648696E-01;
5.550550550550550E+07;1.294547150197472E-01;5.226379184235368E-03;2.293450169245610E-01;8.774661941181784E-01;1.294547150197472E-01;5.226379184235368E-03;2.293450169245610E-01;8.774661941181784E-01;
5.575575575575575E+07;1.284250320210239E-01;6.666125607484142E-03;2.256928836278792E-01;8.791152493554818E-01;1.284250320210239E-01;6.666125607484142E-03;2.256928836278792E-01;8.791152493554818E-01;
5.600600600600600E+07;1.274388162627243E-01;8.311746253844395E-03;2.222452262151371E-01;8.804135361467604E-01;1.274388162627243E-01;8.311746253844395E-03;2.222452262151371E-01;8.804135361467604E-01;
5.625625625625625E+07;1.264928770916690E-01;1.018043626712166E-02;2.188108551078910E-01;8.816258171060833E-01;1.264928770916690E-01;1.018043626712166E-02;2.188108551078910E-01;8.816258171060833E-01;
5.650650650650650E+07;1.255827162918367E-01;1.223324501090885E-02;2.152173616622262E-01;8.826712304022876E-01;1.255827162918367E-01;1.223324501090885E-02;2.152173616622262E-01;8.826712304022876E-01;
5.675675675675675E+07;1.248428436439693E-01;1.438282610910931E-02;2.114534476015056E-01;8.836112590253270E-01;1.248428436439693E-01;1.438282610910931E-02;2.114534476015056E-01;8.836112590253270E-01;
5.700700700700700E+07;1.239503053654932E-01;1.652894900161797E-02;2.079802374394658E-01;8.846343191823276E-01;1.239503053654932E-01;1.652894900161797E-02;2.079802374394658E-01;8.846343191823276E-01;
5.725725725725726E+07;1.232726623949735E-01;1.883241994606690E-02;2.040090456131173E-01;8.853303128242073E-01;1.232726623949735E-01;1.883241994606690E-02;2.040090456131173E-01;8.853303128242073E-01;
5.750750750750751E+07;1.227313811723604E-01;2.124624498020307E-02;2.003838012983268E-01;8.858601426966113E-01;1.227313811723604E-01;2.124624498020307E-02;2.003838012983268E-01;8.858601426966113E-01;
5.775775775775776E+07;1.220562517146960E-01;2.365153592715421E-02;1.967581521462257E-01;8.865030786069792E-01;1.220562517146960E-01;2.365153592715421E-02;1.967581521462257E-01;8.865030786069792E-01;
5.800800800800801E+07;1.215638729337550E-01;2.643049094959255E-02;1.989533861737106E-01;8.853687681666790E-01;1.215638729337550E-01;2.643049094959255E-02;1.989533861737106E-01;8.853687681666790E-01;
5.825825825825826E+07;1.206757164878892E-01;2.926955567379456E-02;1.953847973203271E-01;8.854111579792069E-01;1.206757164878892E-01;2.926955567379456E-02;1.953847973203271E-01;8.854111579792069E-01;
5.850850850850851E+07;1.197905389812155E-01;3.254635719179870E-02;1.918084931646113E-01;8.852276434945975E-01;1.197905389812155E-01;3.254635719179870E-02;1.918084931646113E-01;8.852276434945975E-01;
5.875875875875876E+07;1.190171941467698E-01;3.593057329059155E-02;1.882149224476291E-01;8.849294894691054E-01;1.190171941467698E-01;3.593057329059155E-02;1.882149224476291E-01;8.849294894691054E-01;
5.900900900900901E+07;1.185152209545701E-01;3.988825935361402E-02;1.843790814560222E-01;8.840154114330935E-01;1.185152209545701E-01;3.988825935361402E-02;1.843790814560222E-01;8.840154114330935E-01;
5.925925925925926E+07;1.184344622680139E-01;4.419292716087741E-02;1.800685897508923E-01;8.831717093097654E-01;1.184344622680139E-01;4.419292716087741E-02;1.800685897508923E-01;8.831717093097654E-01;
5.950950950950951E+07;1.189612007100849E-01;4.872657022236834E-02;1.753953126449173E-01;8.821941298690157E-01;1.189612007100849E-01;4.872657022236834E-02;1.753953126449173E-01;8.821941298690157E-01;
5.975975975975976E+07;1.201803539843128E-01;5.331923135740015E-02;1.701876607384703E-01;8.812202704281328E-01;1.201803539843128E-01;5.331923135740015E-02;1.701876607384703E-01;8.812202704281328E-01;
6.001001001001001E+07;1.221417974622960E-01;5.760507401246226E-02;1.646465551590836E-01;8.807680208343543E-01;1.221417974622960E-01;5.760507401246226E-02;1.646465551590836E-01;8.807680208343543E-01;
6.026026026026026E+07;1.246524751736512E-01;6.131062453742474E-02;1.591761677421459E-01;8.808752556214899E-01;1.246524751736512E-01;6.131062453742474E-02;1.591761677421459E-01;8.808752556214899E-01;
6.051051051051051E+07;1.274683391334261E-01;6.420890904708380E-02;1.534629205425228E-01;8.816198168411846E-01;1.274683391334261E-01;6.420890904708380E-02;1.534629205425228E-01;8.816198168411846E-01;
6.076076076076076E+07;1.302178435219284E-01;6.637293818070865E-02;1.480138119103355E-01;8.826833872115387E-01;1.302178435219284E-01;6.637293818070865E-02;1.480138119103355E-01;8.826833872115387E-01;
6.101101101101101E+07;1.323386263485314E-01;6.767169147970696E-02;1.430536592773790E-01;8.843285405054762E-01;1.323386263485314E-01;6.767169147970696E-02;1.430536592773790E-01;8.843285405054762E-01;
6.126126126126126E+07;1.345149324236814E-01;6.900748610119456E-02;1.385099864838645E-01;8.862045079512149E-01;1.345149324236814E-01;6.900748610119456E-02;1.385099864838645E-01;8.862045079512149E-01;
6.151151151151151E+07;1.358708524652805E-01;7.002705958276705E-02;1.345786009123100E-01;8.877688095395304E-01;1.358708524652805E-01;7.002705958276705E-02;1.345786009123100E-01;8.877688095395304E-01;
6.176176176176176E+07;1.368606216872089E-01;7.109524220424071E-02;1.308705531826035E-01;8.893759118084326E-01;1.368606216872089E-01;7.109524220424071E-02;1.308705531826035E-01;8.893759118084326E-01;
6.201201201201201E+07;1.376023140946216E-01;7.221158148928855E-02;1.274760292551932E-01;8.909260522490834E-01;1.376023140946216E-01;7.221158148928855E-02;1.274760292551932E-01;8.909260522490834E-01;
6.226226226226226E+07;1.381297381349848E-01;7.334744264930662E-02;1.242993898843141E-01;8.921905737831037E-01;1.381297381349848E-01;7.334744264930662E-02;1.242993898843141E-01;8.921905737831037E-01;
6.251251251251251E+07;1.383615866504457E-01;7.454894666299051E-02;1.213284155582423E-01;8.934912515030269E-01;1.383615866504457E-01;7.454894666299051E-02;1.213284155582423E-01;8.934912515030269E-01;
6.276276276276276E+07;1.383603814715710E-01;7.581982410526497E-02;1.186826098359202E-01;8.944805855252358E-01;1.383603814715710E-01;7.581982410526497E-02;1.186826098359202E-01;8.944805855252358E-01;
6.301301301301301E+07;1.382011153597454E-01;7.732431768518749E-02;1.158576543551878E-01;8.953298344433162E-01;1.382011153597454E-01;7.732431768518749E-02;1.158576543551878E-01;8.953298344433162E-01;
6.326326326326326E+07;1.378883358590144E-01;7.900900978626337E-02;1.133503145556564E-01;8.959939953989772E-01;1.378883358590144E-01;7.900900978626337E-02;1.133503145556564E-01;8.959939953989772E-01;
6.351351351351351E+07;1.375866470457375E-01;8.083473765143681E-02;1.107495758456021E-01;8.966300294419235E-01;1.375866470457375E-01;8.083473765143681E-02;1.107495758456021E-01;8.966300294419235E-01;
6.376376376376376E+07;1.372633834128979E-01;8.277837940274539E-02;1.083394299231737E-01;8.970870095493926E-01;1.372633834128979E-01;8.277837940274539E-02;1.083394299231737E-01;8.970870095493926E-01;
6.401401401401401E+07;1.369195191443075E-01;8.479137216075039E-02;1.058950379820601E-01;8.974693118081716E-01;1.369195191443075E-01;8.479137216075039E-02;1.058950379820601E-01;8.974693118081716E-01;
6.426426426426426E+07;1.365448872893510E-01;8.678521333532017E-02;1.035558102362221E-01;8.979099178907010E-01;1.365448872893510E-01;8.678521333532017E-02;1.035558102362221E-01;8.979099178907010E-01;
6.451451451451451E+07;1.360731203754310E-01;8.888535901248619E-02;1.014827287121111E-01;8.982456465917885E-01;1.360731203754310E-01;8.888535901248619E-02;1.014827287121111E-01;8.982456465917885E-01;
6.476476476476476E+07;1.351371924660066E-01;9.098720788741181E-02;9.929667032340478E-02;8.983552182995860E-01;1.351371924660066E-01;9.098720788741181E-02;9.929667032340478E-02;8.983552182995860E-01;
6.501501501501501E+07;1.348389592078485E-01;9.334652236666904E-02;9.715581535102916E-02;8.985810072580899E-01;1.348389592078485E-01;9.334652236666904E-02;9.715581535102916E-02;8.985810072580899E-01;
6.526526526526526E+07;1.341803156739134E-01;9.573636648851001E-02;9.511136165251692E-02;8.986306013513697E-01;1.341803156739134E-01;9.573636648851001E-02;9.511136165251692E-02;8.986306013513697E-01;
6.551551551551551E+07;1.334510235551101E-01;9.821965466037957E-02;9.316611637466275E-02;8.985067376751388E-01;1.334510235551101E-01;9.821965466037957E-02;9.316611637466275E-02;8.985067376751388E-01;
6.576576576576576E+07;1.327286950841509E-01;1.004957854369827E-01;8.392648582978914E-02;8.998564276441453E-01;1.327286950841509E-01;1.004957854369827E-01;8.392648582978914E-02;8.998564276441453E-01;
6.601601601601601E+07;1.320942493383035E-01;1.029902342043890E-01;8.212227367314157E-02;8.995616927282084E-01;1.320942493383035E-01;1.029902342043890E-01;8.212227367314157E-02;8.995616927282084E-01;
6.626626626626626E+07;1.314557474877134E-01;1.056520417328433E-01;7.998107472049999E-02;8.993238024758912E-01;1.314557474877134E-01;1.056520417328433E-01;7.998107472049999E-02;8.993238024758912E-01;
6.651651651651651E+07;1.308325439746281E-01;1.082413238324395E-01;7.783345224849628E-02;8.990771387661574E-01;1.308325439746281E-01;1.082413238324395E-01;7.783345224849628E-02;8.990771387661574E-01;
6.676676676676676E+07;1.301935632922516E-01;1.107497433830906E-01;7.551230889196678E-02;8.988674337170167E-01;1.301935632922516E-01;1.107497433830906E-01;7.551230889196678E-02;8.988674337170167E-01;
6.701701701701702E+07;1.293769313618809E-01;1.139894046035542E-01;7.454635827135149E-02;8.982328080656403E-01;1.293769313618809E-01;1.139894046035542E-01;7.454635827135149E-02;8.982328080656403E-01;
6.726726726726727E+07;1.288943620529573E-01;1.166374392072586E-01;7.246712218614931E-02;8.980048966197833E-01;1.288943620529573E-01;1.166374392072586E-01;7.246712218614931E-02;8.980048966197833E-01;
6.751751751751752E+07;1.284388802469920E-01;1.191909313605703E-01;7.052384522607894E-02;8.977551641108973E-01;1.284388802469920E-01;1.191909313605703E-01;7.052384522607894E-02;8.977551641108973E-01;
6.776776776776777E+07;1.279746456137397E-01;1.217464023472926E-01;6.808983883938262E-02;8.977342212670192E-01;1.279746456137397E-01;1.217464023472926E-01;6.808983883938262E-02;8.977342212670192E-01;
6.801801801801802E+07;1.274799062358083E-01;1.244838469358168E-01;6.575853958583414E-02;8.975240463684692E-01;1.274799062358083E-01;1.244838469358168E-01;6.575853958583414E-02;8.975240463684692E-01;
6.826826826826827E+07;1.267053565637184E-01;1.274393918635474E-01;6.359657575352046E-02;8.973392726715683E-01;1.267053565637184E-01;1.274393918635474E-01;6.359657575352046E-02;8.973392726715683E-01;
6.851851851851852E+07;1.257567596349634E-01;1.306737966977825E-01;6.179209248040299E-02;8.969201141667171E-01;1.257567596349634E-01;1.306737966977825E-01;6.179209248040299E-02;8.969201141667171E-01;
6.876876876876877E+07;1.244537058962115E-01;1.339712762681254E-01;6.450255818496471E-02;8.965566975389758E-01;1.244537058962115E-01;1.339712762681254E-01;6.450255818496471E-02;8.965566975389758E-01;
6.901901901901902E+07;1.231518294725549E-01;1.375167452142141E-01;6.381529234772257E-02;8.958975689611042E-01;1.231518294725549E-01;1.375167452142141E-01;6.381529234772257E-02;8.958975689611042E-01;
6.926926926926927E+07;1.217664208430360E-01;1.411363054235893E-01;6.394204517144128E-02;8.948518017414813E-01;1.217664208430360E-01;1.411363054235893E-01;6.394204517144128E-02;8.948518017414813E-01;
6.951951951951952E+07;1.203540411868740E-01;1.447685656590337E-01;6.405769704696002E-02;8.936106539141796E-01;1.203540411868740E-01;1.447685656590337E-01;6.405769704696002E-02;8.936106539141796E-01;
6.976976976976977E+07;1.189066233817738E-01;1.483956350143888E-01;6.442826754021702E-02;8.923716059977836E-01;1.189066233817738E-01;1.483956350143888E-01;6.442826754021702E-02;8.923716059977836E-01;
7.002002002002002E+07;1.175444195749041E-01;1.520481420925275E-01;6.440098793172387E-02;8.911896932555878E-01;1.175444195749041E-01;1.520481420925275E-01;6.440098793172387E-02;8.911896932555878E-01;
7.027027027027027E+07;1.164622859572026E-01;1.555100371147554E-01;6.400313283735547E-02;8.899132617866885E-01;1.164622859572026E-01;1.555100371147554E-01;6.400313283735547E-02;8.899132617866885E-01;
7.052052052052052E+07;1.153721453916509E-01;1.590390779944940E-01;6.355481120853125E-02;8.889032079038718E-01;1.153721453916509E-01;1.590390779944940E-01;6.355481120853125E-02;8.889032079038718E-01;
7.077077077077077E+07;1.143088421976299E-01;1.624777083656260E-01;6.301533399449058E-02;8.878594782726222E-01;1.143088421976299E-01;1.624777083656260E-01;6.301533399449058E-02;8.878594782726222E-01;
7.102102102102102E+07;1.133247559097275E-01;1.659125894035370E-01;6.235586056346760E-02;8.867342716040371E-01;1.133247559097275E-01;1.659125894035370E-01;6.235586056346760E-02;8.867342716040371E-01;
7.127127127127127E+07;1.122943920582278E-01;1.693246207047392E-01;6.179826048689049E-02;8.855849669226381E-01;1.122943920582278E-01;1.693246207047392E-01;6.179826048689049E-02;8.855849669226381E-01;
7.152152152152152E+07;1.116001425756350E-01;1.728115926263887E-01;6.099612927076066E-02;8.845450126353410E-01;1.116001425756350E-01;1.728115926263887E-01;6.099612927076066E-02;8.845450126353410E-01;
7.177177177177177E+07;1.108295411373913E-01;1.763239858029042E-01;6.000440611102006E-02;8.834026013845738E-01;1.108295411373913E-01;1.763239858029042E-01;6.000440611102006E-02;8.834026013845738E-01;
7.202202202202202E+07;1.099002178169834E-01;1.799730120820805E-01;5.912031911576902E-02;8.823220500492737E-01;1.099002178169834E-01;1.799730120820805E-01;5.912031911576902E-02;8.823220500492737E-01;
7.227227227227227E+07;1.085870734450946E-01;1.839087014023664E-01;5.843703576309118E-02;8.812905869128668E-01;1.085870734450946E-01;1.839087014023664E-01;5.843703576309118E-02;8.812905869128668E-01;
7.252252252252252E+07;1.072114854095405E-01;1.878974722954845E-01;5.806280227185260E-02;8.800203574040771E-01;1.072114854095405E-01;1.878974722954845E-01;5.806280227185260E-02;8.800203574040771E-01;
7.277277277277277E+07;1.056419636650117E-01;1.920507541814592E-01;5.813908930944969E-02;8.786003025014917E-01;1.056419636650117E-01;1.920507541814592E-01;5.813908930944969E-02;8.786003025014917E-01;
7.302302302302302E+07;1.038966883790941E-01;1.962821740649810E-01;5.885929860580803E-02;8.771436360614794E-01;1.038966883790941E-01;1.962821740649810E-01;5.885929860580803E-02;8.771436360614794E-01;
7.327327327327327E+07;1.020688369685245E-01;2.006001851843297E-01;5.997879738710735E-02;8.754030947925343E-01;1.020688369685245E-01;2.006001851843297E-01;5.997879738710735E-02;8.754030947925343E-01;
7.352352352352352E+07;1.004025382491994E-01;2.048803519607665E-01;6.141771019976739E-02;8.735433273468372E-01;1.004025382491994E-01;2.048803519607665E-01;6.141771019976739E-02;8.735433273468372E-01;
7.377377377377377E+07;9.884345748366896E-02;2.092527074901115E-01;6.296545008060155E-02;8.716465342245475E-01;9.884345748366896E-02;2.092527074901115E-01;6.296545008060155E-02;8.716465342245475E-01;
7.402402402402402E+07;9.732916753355055E-02;2.136806860202701E-01;6.430833767727025E-02;8.697203995202732E-01;9.732916753355055E-02;2.136806860202701E-01;6.430833767727025E-02;8.697203995202732E-01;
7.427427427427427E+07;9.589342240677094E-02;2.181488187964477E-01;6.559779511105371E-02;8.676974214763762E-01;9.589342240677094E-02;2.181488187964477E-01;6.559779511105371E-02;8.676974214763762E-01;
7.452452452452452E+07;9.454167298369012E-02;2.226971194053365E-01;6.667338475386174E-02;8.656070064301615E-01;9.454167298369012E-02;2.226971194053365E-01;6.667338475386174E-02;8.656070064301615E-01;
