# Version 1.00
#
# Ref Impedances: Z01: 50, Z02: 50
# 
freq[Hz];re:SMag2_S11;im:SMag2_S11;re:ZPh2_S12;im:ZPh2_S12;re:SPh2_S11;im:SPh2_S11;re:ZMag2_S12;im:ZMag2_S12;
5.000000000000000E+07;3.763441833241723E-01;8.244505267867419E-01;9.878197626180496E-02;-1.358946371425821E-02;3.763441833241723E-01;8.244505267867419E-01;9.878197626180496E-02;-1.358946371425821E-02;
5.025025025025025E+07;3.703006375527984E-01;8.255724326387252E-01;1.017323437209596E-01;-1.105629354867468E-02;3.703006375527984E-01;8.255724326387252E-01;1.017323437209596E-01;-1.105629354867468E-02;
5.050050050050050E+07;3.641757833547256E-01;8.269166586090053E-01;1.053799564135947E-01;-8.756523122858911E-03;3.641757833547256E-01;8.269166586090053E-01;1.053799564135947E-01;-8.756523122858911E-03;
5.075075075075075E+07;3.575486745784266E-01;8.283431803149093E-01;1.096170000377603E-01;-7.117580109095965E-03;3.575486745784266E-01;8.283431803149093E-01;1.096170000377603E-01;-7.117580109095965E-03;
5.100100100100100E+07;3.504564559560367E-01;8.317075814761856E-01;1.138821660344499E-01;-9.631294757561715E-03;3.504564559560367E-01;8.317075814761856E-01;1.138821660344499E-01;-9.631294757561715E-03;
5.125125125125125E+07;3.441347106119030E-01;8.327873462457938E-01;1.186957007731309E-01;-7.339103138338272E-03;3.441347106119030E-01;8.327873462457938E-01;1.186957007731309E-01;-7.339103138338272E-03;
5.150150150150150E+07;3.374687577474003E-01;8.359017203170339E-01;1.225945416174289E-01;-9.102242804181999E-03;3.374687577474003E-01;8.359017203170339E-01;1.225945416174289E-01;-9.102242804181999E-03;
5.175175175175175E+07;3.314363715140390E-01;8.393624614321855E-01;1.256865106357493E-01;-1.122486334965869E-02;3.314363715140390E-01;8.393624614321855E-01;1.256865106357493E-01;-1.122486334965869E-02;
5.200200200200200E+07;3.258124818113950E-01;8.431605322052602E-01;1.275992388669999E-01;-1.319926393484205E-02;3.258124818113950E-01;8.431605322052602E-01;1.275992388669999E-01;-1.319926393484205E-02;
5.225225225225225E+07;3.210577620877039E-01;8.467225547943392E-01;1.285524623955372E-01;-1.509339786567433E-02;3.210577620877039E-01;8.467225547943392E-01;1.285524623955372E-01;-1.509339786567433E-02;
5.250250250250250E+07;3.159859144957776E-01;8.500741608894750E-01;1.289886947421658E-01;-1.647893289903168E-02;3.159859144957776E-01;8.500741608894750E-01;1.289886947421658E-01;-1.647893289903168E-02;
5.275275275275275E+07;3.115159286748787E-01;8.531940302320796E-01;1.289375987848077E-01;-1.766288182101781E-02;3.115159286748787E-01;8.531940302320796E-01;1.289375987848077E-01;-1.766288182101781E-02;
5.300300300300300E+07;3.072528654696674E-01;8.564062885314485E-01;1.287380255182399E-01;-1.832175295896987E-02;3.072528654696674E-01;8.564062885314485E-01;1.287380255182399E-01;-1.832175295896987E-02;
5.325325325325325E+07;3.030156529655393E-01;8.593216679256287E-01;1.284023542484130E-01;-1.863622356037414E-02;3.030156529655393E-01;8.593216679256287E-01;1.284023542484130E-01;-1.863622356037414E-02;
5.350350350350350E+07;2.990662259830317E-01;8.618768029099773E-01;1.278682081481768E-01;-1.848462570186389E-02;2.990662259830317E-01;8.618768029099773E-01;1.278682081481768E-01;-1.848462570186389E-02;
5.375375375375375E+07;2.950620421644035E-01;8.646328854050143E-01;1.274366094961338E-01;-1.794899997501808E-02;2.950620421644035E-01;8.646328854050143E-01;1.274366094961338E-01;-1.794899997501808E-02;
5.400400400400400E+07;2.913089192703999E-01;8.670691377961535E-01;1.270329523739479E-01;-1.732742232140510E-02;2.913089192703999E-01;8.670691377961535E-01;1.270329523739479E-01;-1.732742232140510E-02;
5.425425425425425E+07;2.877455237719820E-01;8.691628102147577E-01;1.266452881203283E-01;-1.657897833207968E-02;2.877455237719820E-01;8.691628102147577E-01;1.266452881203283E-01;-1.657897833207968E-02;
5.450450450450450E+07;2.839828863456790E-01;8.712093592639496E-01;1.262177743709239E-01;-1.554941148993782E-02;2.839828863456790E-01;8.712093592639496E-01;1.262177743709239E-01;-1.554941148993782E-02;
5.475475475475475E+07;2.803688374937571E-01;8.732203516413738E-01;1.258434219808018E-01;-1.431841976710668E-02;2.803688374937571E-01;8.732203516413738E-01;1.258434219808018E-01;-1.431841976710668E-02;
5.500500500500500E+07;2.770022563082339E-01;8.747811725064575E-01;1.250704558324503E-01;-1.321574714816519E-02;2.770022563082339E-01;8.747811725064575E-01;1.250704558324503E-01;-1.321574714816519E-02;
5.525525525525525E+07;2.730293160546768E-01;8.763033863167745E-01;1.254121351363469E-01;-1.140950345348992E-02;2.730293160546768E-01;8.763033863167745E-01;1.254121351363469E-01;-1.140950345348992E-02;
5.550550550550550E+07;2.695993134691513E-01;8.777086538685339E-01;1.253274785191406E-01;-9.820347571097126E-03;2.695993134691513E-01;8.777086538685339E-01;1.253274785191406E-01;-9.820347571097126E-03;
5.575575575575575E+07;2.662040166420391E-01;8.789454471291984E-01;1.253407757131754E-01;-7.970250760274113E-03;2.662040166420391E-01;8.789454471291984E-01;1.253407757131754E-01;-7.970250760274113E-03;
5.600600600600600E+07;2.625553314637865E-01;8.801861919563569E-01;1.254087882242658E-01;-6.047967122320647E-03;2.625553314637865E-01;8.801861919563569E-01;1.254087882242658E-01;-6.047967122320647E-03;
5.625625625625625E+07;2.591933476694442E-01;8.813150951842567E-01;1.255339865882905E-01;-4.081035595896365E-03;2.591933476694442E-01;8.813150951842567E-01;1.255339865882905E-01;-4.081035595896365E-03;
5.650650650650650E+07;2.556585439187727E-01;8.822985446256016E-01;1.257696909629631E-01;-1.977550235186809E-03;2.556585439187727E-01;8.822985446256016E-01;1.257696909629631E-01;-1.977550235186809E-03;
5.675675675675675E+07;2.521052117531105E-01;8.831822971619551E-01;1.260414889536446E-01;1.732481733771763E-04;2.521052117531105E-01;8.831822971619551E-01;1.260414889536446E-01;1.732481733771763E-04;
5.700700700700700E+07;2.485790604625362E-01;8.840848442620891E-01;1.262546212848814E-01;2.493701311108084E-03;2.485790604625362E-01;8.840848442620891E-01;1.262546212848814E-01;2.493701311108084E-03;
5.725725725725726E+07;2.451733566361118E-01;8.849163415673332E-01;1.266450445381239E-01;4.672167590940633E-03;2.451733566361118E-01;8.849163415673332E-01;1.266450445381239E-01;4.672167590940633E-03;
5.750750750750751E+07;2.417256803960429E-01;8.856560637133896E-01;1.270637323505052E-01;7.093965976988083E-03;2.417256803960429E-01;8.856560637133896E-01;1.270637323505052E-01;7.093965976988083E-03;
5.775775775775776E+07;2.383248180426026E-01;8.861194388039486E-01;1.273765148758004E-01;9.571346479597016E-03;2.383248180426026E-01;8.861194388039486E-01;1.273765148758004E-01;9.571346479597016E-03;
5.800800800800801E+07;2.352739649343495E-01;8.864368592443957E-01;1.278216348200593E-01;1.262432498904344E-02;2.352739649343495E-01;8.864368592443957E-01;1.278216348200593E-01;1.262432498904344E-02;
5.825825825825826E+07;2.319585639372100E-01;8.865825425216992E-01;1.281815549709886E-01;1.542162888854095E-02;2.319585639372100E-01;8.865825425216992E-01;1.281815549709886E-01;1.542162888854095E-02;
5.850850850850851E+07;2.287445436460415E-01;8.867893638579658E-01;1.284938785984520E-01;1.848707730596153E-02;2.287445436460415E-01;8.867893638579658E-01;1.284938785984520E-01;1.848707730596153E-02;
5.875875875875876E+07;2.256048103842704E-01;8.867042702063578E-01;1.287175249009400E-01;2.150188839538012E-02;2.256048103842704E-01;8.867042702063578E-01;1.287175249009400E-01;2.150188839538012E-02;
5.900900900900901E+07;2.223565238559094E-01;8.862801014468772E-01;1.297211768044234E-01;2.545257203068423E-02;2.223565238559094E-01;8.862801014468772E-01;1.297211768044234E-01;2.545257203068423E-02;
5.925925925925926E+07;2.187372723164880E-01;8.858723908977174E-01;1.307990521291686E-01;2.920478753432754E-02;2.187372723164880E-01;8.858723908977174E-01;1.307990521291686E-01;2.920478753432754E-02;
5.950950950950951E+07;2.151936924212551E-01;8.854316482306900E-01;1.323373988853684E-01;3.315464132574673E-02;2.151936924212551E-01;8.854316482306900E-01;1.323373988853684E-01;3.315464132574673E-02;
5.975975975975976E+07;2.113347271450399E-01;8.851314966877940E-01;1.344053644283180E-01;3.703159533981495E-02;2.113347271450399E-01;8.851314966877940E-01;1.344053644283180E-01;3.703159533981495E-02;
6.001001001001001E+07;2.074663051358633E-01;8.849088009571909E-01;1.369503678212367E-01;4.066616185528010E-02;2.074663051358633E-01;8.849088009571909E-01;1.369503678212367E-01;4.066616185528010E-02;
6.026026026026026E+07;2.035510696148573E-01;8.850129783575582E-01;1.397712738225552E-01;4.388655978524415E-02;2.035510696148573E-01;8.850129783575582E-01;1.397712738225552E-01;4.388655978524415E-02;
6.051051051051051E+07;1.998941783626440E-01;8.854681474013193E-01;1.427994808270825E-01;4.657836358070477E-02;1.998941783626440E-01;8.854681474013193E-01;1.427994808270825E-01;4.657836358070477E-02;
6.076076076076076E+07;1.964091428839822E-01;8.861577188689423E-01;1.457204667335322E-01;4.877559021457137E-02;1.964091428839822E-01;8.861577188689423E-01;1.457204667335322E-01;4.877559021457137E-02;
6.101101101101101E+07;1.931970378118347E-01;8.870201573583507E-01;1.483521125317573E-01;5.058742096157381E-02;1.931970378118347E-01;8.870201573583507E-01;1.483521125317573E-01;5.058742096157381E-02;
6.126126126126126E+07;1.902866938465051E-01;8.877229456873992E-01;1.506843755198536E-01;5.220112764551223E-02;1.902866938465051E-01;8.877229456873992E-01;1.506843755198536E-01;5.220112764551223E-02;
6.151151151151151E+07;1.878460825890557E-01;8.885223840039799E-01;1.526123009500859E-01;5.377520801058344E-02;1.878460825890557E-01;8.885223840039799E-01;1.526123009500859E-01;5.377520801058344E-02;
6.176176176176176E+07;1.855079544549557E-01;8.890916087142934E-01;1.543757517246610E-01;5.543520084195657E-02;1.855079544549557E-01;8.890916087142934E-01;1.543757517246610E-01;5.543520084195657E-02;
6.201201201201201E+07;1.835621768838861E-01;8.896640799564615E-01;1.559176113269334E-01;5.714852517361690E-02;1.835621768838861E-01;8.896640799564615E-01;1.559176113269334E-01;5.714852517361690E-02;
6.226226226226226E+07;1.816099610351680E-01;8.899194109145980E-01;1.572655344452277E-01;5.896747622591447E-02;1.816099610351680E-01;8.899194109145980E-01;1.572655344452277E-01;5.896747622591447E-02;
6.251251251251251E+07;1.799671286673457E-01;8.901643971958907E-01;1.581481491812166E-01;6.075970765563647E-02;1.799671286673457E-01;8.901643971958907E-01;1.581481491812166E-01;6.075970765563647E-02;
6.276276276276276E+07;1.783624047688020E-01;8.903634096813283E-01;1.596396177490739E-01;6.295023252853271E-02;1.783624047688020E-01;8.903634096813283E-01;1.596396177490739E-01;6.295023252853271E-02;
6.301301301301301E+07;1.771946695591547E-01;8.903655763502186E-01;1.606662285327189E-01;6.517185929720784E-02;1.771946695591547E-01;8.903655763502186E-01;1.606662285327189E-01;6.517185929720784E-02;
6.326326326326326E+07;1.760411637401981E-01;8.902591450759696E-01;1.616435623877380E-01;6.757177839684583E-02;1.760411637401981E-01;8.902591450759696E-01;1.616435623877380E-01;6.757177839684583E-02;
6.351351351351351E+07;1.747922024134575E-01;8.900283505719361E-01;1.626999442142145E-01;7.011151578058357E-02;1.747922024134575E-01;8.900283505719361E-01;1.626999442142145E-01;7.011151578058357E-02;
6.376376376376376E+07;1.738286474665168E-01;8.895378663370220E-01;1.636868904684023E-01;7.279667493862033E-02;1.738286474665168E-01;8.895378663370220E-01;1.636868904684023E-01;7.279667493862033E-02;
6.401401401401401E+07;1.729474666127281E-01;8.891117785092529E-01;1.646244723209587E-01;7.546894277626240E-02;1.729474666127281E-01;8.891117785092529E-01;1.646244723209587E-01;7.546894277626240E-02;
6.426426426426426E+07;1.723417868188879E-01;8.885481816191071E-01;1.656337100504220E-01;7.838830776564516E-02;1.723417868188879E-01;8.885481816191071E-01;1.656337100504220E-01;7.838830776564516E-02;
6.451451451451451E+07;1.716312171819608E-01;8.878411717296505E-01;1.667685823474375E-01;8.138962870623208E-02;1.716312171819608E-01;8.878411717296505E-01;1.667685823474375E-01;8.138962870623208E-02;
6.476476476476476E+07;1.711332583357510E-01;8.871100448972644E-01;1.678179650918119E-01;8.447108951042040E-02;1.711332583357510E-01;8.871100448972644E-01;1.678179650918119E-01;8.447108951042040E-02;
6.501501501501501E+07;1.709595867837473E-01;8.861508983658395E-01;1.688989355720600E-01;8.773137832217529E-02;1.709595867837473E-01;8.861508983658395E-01;1.688989355720600E-01;8.773137832217529E-02;
6.526526526526526E+07;1.709316062127311E-01;8.851214326592995E-01;1.699963779948028E-01;9.113641869126933E-02;1.709316062127311E-01;8.851214326592995E-01;1.699963779948028E-01;9.113641869126933E-02;
6.551551551551551E+07;1.709014560955693E-01;8.840276072592178E-01;1.711910310365889E-01;9.462471811959790E-02;1.709014560955693E-01;8.840276072592178E-01;1.711910310365889E-01;9.462471811959790E-02;
6.576576576576576E+07;1.732931222345850E-01;8.833767199935780E-01;1.731208503432839E-01;9.758822291192316E-02;1.732931222345850E-01;8.833767199935780E-01;1.731208503432839E-01;9.758822291192316E-02;
6.601601601601601E+07;1.736767610065164E-01;8.820223395308727E-01;1.744943353406876E-01;1.011541543544572E-01;1.736767610065164E-01;8.820223395308727E-01;1.744943353406876E-01;1.011541543544572E-01;
6.626626626626626E+07;1.739725807512668E-01;8.805453561358896E-01;1.760047319533735E-01;1.049580408154960E-01;1.739725807512668E-01;8.805453561358896E-01;1.760047319533735E-01;1.049580408154960E-01;
6.651651651651651E+07;1.744607458965031E-01;8.790571981974029E-01;1.776036981171680E-01;1.087663738336152E-01;1.744607458965031E-01;8.790571981974029E-01;1.776036981171680E-01;1.087663738336152E-01;
6.676676676676676E+07;1.747540427248105E-01;8.776092791702159E-01;1.793452812789268E-01;1.124683728280630E-01;1.747540427248105E-01;8.776092791702159E-01;1.793452812789268E-01;1.124683728280630E-01;
6.701701701701702E+07;1.766136093187264E-01;8.751704498310974E-01;1.809297636584035E-01;1.170961982560069E-01;1.766136093187264E-01;8.751704498310974E-01;1.809297636584035E-01;1.170961982560069E-01;
6.726726726726727E+07;1.775461754415276E-01;8.732930166088408E-01;1.829123863616205E-01;1.210573902748619E-01;1.775461754415276E-01;8.732930166088408E-01;1.829123863616205E-01;1.210573902748619E-01;
6.751751751751752E+07;1.785916688072561E-01;8.714952871069467E-01;1.850889397752103E-01;1.248648438759932E-01;1.785916688072561E-01;8.714952871069467E-01;1.850889397752103E-01;1.248648438759932E-01;
6.776776776776777E+07;1.796259093421552E-01;8.695717199314746E-01;1.873488877809449E-01;1.287809376633876E-01;1.796259093421552E-01;8.695717199314746E-01;1.873488877809449E-01;1.287809376633876E-01;
6.801801801801802E+07;1.807123190024303E-01;8.675601074106930E-01;1.895844379378878E-01;1.330183565736578E-01;1.807123190024303E-01;8.675601074106930E-01;1.895844379378878E-01;1.330183565736578E-01;
6.826826826826827E+07;1.822188604453544E-01;8.652794040922372E-01;1.917667434152080E-01;1.376736373512521E-01;1.822188604453544E-01;8.652794040922372E-01;1.917667434152080E-01;1.376736373512521E-01;
6.851851851851852E+07;1.841251188286848E-01;8.627123936700390E-01;1.939878687432907E-01;1.427043577809722E-01;1.841251188286848E-01;8.627123936700390E-01;1.939878687432907E-01;1.427043577809722E-01;
6.876876876876877E+07;1.869115193550245E-01;8.590232897309953E-01;1.955902401503596E-01;1.480220521951334E-01;1.869115193550245E-01;8.590232897309953E-01;1.955902401503596E-01;1.480220521951334E-01;
6.901901901901902E+07;1.904377073303044E-01;8.555292713776504E-01;1.977691599715765E-01;1.539430106275675E-01;1.904377073303044E-01;8.555292713776504E-01;1.977691599715765E-01;1.539430106275675E-01;
6.926926926926927E+07;1.947856113019515E-01;8.514137763838713E-01;1.998215694973036E-01;1.596454539845234E-01;1.947856113019515E-01;8.514137763838713E-01;1.998215694973036E-01;1.596454539845234E-01;
6.951951951951952E+07;1.992671785325611E-01;8.470819020280038E-01;2.023432264657658E-01;1.658345742749636E-01;1.992671785325611E-01;8.470819020280038E-01;2.023432264657658E-01;1.658345742749636E-01;
6.976976976976977E+07;2.040563637851061E-01;8.423293596267390E-01;2.050345207672389E-01;1.719610825175678E-01;2.040563637851061E-01;8.423293596267390E-01;2.050345207672389E-01;1.719610825175678E-01;
7.002002002002002E+07;2.087098181538203E-01;8.374011457010948E-01;2.080363159361682E-01;1.781161016039433E-01;2.087098181538203E-01;8.374011457010948E-01;2.080363159361682E-01;1.781161016039433E-01;
7.027027027027027E+07;2.134154596882707E-01;8.324732776882823E-01;2.116110628999388E-01;1.840613641909023E-01;2.134154596882707E-01;8.324732776882823E-01;2.116110628999388E-01;1.840613641909023E-01;
7.052052052052052E+07;2.183770582413515E-01;8.270061455702208E-01;2.154487560619523E-01;1.901765187777704E-01;2.183770582413515E-01;8.270061455702208E-01;2.154487560619523E-01;1.901765187777704E-01;
7.077077077077077E+07;2.235277638551371E-01;8.212011928807897E-01;2.197022964844468E-01;1.962435145470869E-01;2.235277638551371E-01;8.212011928807897E-01;2.197022964844468E-01;1.962435145470869E-01;
7.102102102102102E+07;2.285771892916827E-01;8.152586222496202E-01;2.243833135979300E-01;2.023824627114695E-01;2.285771892916827E-01;8.152586222496202E-01;2.243833135979300E-01;2.023824627114695E-01;
7.127127127127127E+07;2.341224445331745E-01;8.087728970837545E-01;2.295902175513559E-01;2.085307617554832E-01;2.341224445331745E-01;8.087728970837545E-01;2.295902175513559E-01;2.085307617554832E-01;
7.152152152152152E+07;2.399935328271097E-01;8.016460002016157E-01;2.352451063452619E-01;2.146327227115598E-01;2.399935328271097E-01;8.016460002016157E-01;2.352451063452619E-01;2.146327227115598E-01;
7.177177177177177E+07;2.458914287030876E-01;7.942650726349755E-01;2.414273860175468E-01;2.209153663731903E-01;2.458914287030876E-01;7.942650726349755E-01;2.414273860175468E-01;2.209153663731903E-01;
7.202202202202202E+07;2.520963434112369E-01;7.862395512006889E-01;2.480393570971534E-01;2.274383437522087E-01;2.520963434112369E-01;7.862395512006889E-01;2.480393570971534E-01;2.274383437522087E-01;
7.227227227227227E+07;2.587980524017031E-01;7.773454043472423E-01;2.545887602687400E-01;2.346328702873882E-01;2.587980524017031E-01;7.773454043472423E-01;2.545887602687400E-01;2.346328702873882E-01;
7.252252252252252E+07;2.660985499900702E-01;7.675588034320732E-01;2.616534673559314E-01;2.418285632176961E-01;2.660985499900702E-01;7.675588034320732E-01;2.616534673559314E-01;2.418285632176961E-01;
7.277277277277277E+07;2.740359298604238E-01;7.568764825875344E-01;2.690784672784239E-01;2.494869932882345E-01;2.740359298604238E-01;7.568764825875344E-01;2.690784672784239E-01;2.494869932882345E-01;
7.302302302302302E+07;2.827475201409428E-01;7.448559891061033E-01;2.769068293265958E-01;2.570763714962553E-01;2.827475201409428E-01;7.448559891061033E-01;2.769068293265958E-01;2.570763714962553E-01;
7.327327327327327E+07;2.919237646937540E-01;7.315629184106338E-01;2.858348481637499E-01;2.651244538477708E-01;2.919237646937540E-01;7.315629184106338E-01;2.858348481637499E-01;2.651244538477708E-01;
7.352352352352352E+07;3.014094910681494E-01;7.171360395325708E-01;2.954786609745624E-01;2.727941916032572E-01;3.014094910681494E-01;7.171360395325708E-01;2.954786609745624E-01;2.727941916032572E-01;
7.377377377377377E+07;3.111097296672299E-01;7.011515253196595E-01;3.061325467256015E-01;2.802776160419784E-01;3.111097296672299E-01;7.011515253196595E-01;3.061325467256015E-01;2.802776160419784E-01;
7.402402402402402E+07;3.205916612741762E-01;6.836319087946419E-01;3.177334091571227E-01;2.874758503883454E-01;3.205916612741762E-01;6.836319087946419E-01;3.177334091571227E-01;2.874758503883454E-01;
7.427427427427427E+07;3.300919761910849E-01;6.650815157828874E-01;3.306822671339880E-01;2.941970605326635E-01;3.300919761910849E-01;6.650815157828874E-01;3.306822671339880E-01;2.941970605326635E-01;
