# Version 1.00
#
# Ref Impedances: Z01: 50, Z02: 50
# 
freq[Hz];re:SMag2_S11;im:SMag2_S11;re:ZPh2_S12;im:ZPh2_S12;re:SPh2_S11;im:SPh2_S11;re:ZMag2_S12;im:ZMag2_S12;
5.000000000000000E+07;3.609331794116739E-01;8.179789099775121E-01;1.022030043744168E-01;3.748325122374100E-03;3.609331794116739E-01;8.179789099775121E-01;1.022030043744168E-01;3.748325122374100E-03;
5.025025025025025E+07;3.543032453565979E-01;8.199262305400948E-01;1.057774424892224E-01;4.151110067437324E-03;3.543032453565979E-01;8.199262305400948E-01;1.057774424892224E-01;4.151110067437324E-03;
5.050050050050050E+07;3.487400344922589E-01;8.195273682665903E-01;1.081694019398042E-01;1.011993189838879E-02;3.487400344922589E-01;8.195273682665903E-01;1.081694019398042E-01;1.011993189838879E-02;
5.075075075075075E+07;3.417340093802282E-01;8.204643406583175E-01;1.123298089207897E-01;1.265085372083555E-02;3.417340093802282E-01;8.204643406583175E-01;1.123298089207897E-01;1.265085372083555E-02;
5.100100100100100E+07;3.343442150562769E-01;8.217377297313794E-01;1.168673724926615E-01;1.420395043413546E-02;3.343442150562769E-01;8.217377297313794E-01;1.168673724926615E-01;1.420395043413546E-02;
5.125125125125125E+07;3.268104543866343E-01;8.235456026873208E-01;1.215950923628108E-01;1.470040578313763E-02;3.268104543866343E-01;8.235456026873208E-01;1.215950923628108E-01;1.470040578313763E-02;
5.150150150150150E+07;3.189946952701685E-01;8.261445435468415E-01;1.262074837230321E-01;1.468189664401665E-02;3.189946952701685E-01;8.261445435468415E-01;1.262074837230321E-01;1.468189664401665E-02;
5.175175175175175E+07;3.115338129496112E-01;8.293633158035809E-01;1.297458905260803E-01;1.278944018548121E-02;3.115338129496112E-01;8.293633158035809E-01;1.297458905260803E-01;1.278944018548121E-02;
5.200200200200200E+07;3.043809936324848E-01;8.328619551831755E-01;1.327047589068971E-01;1.086641686561146E-02;3.043809936324848E-01;8.328619551831755E-01;1.327047589068971E-01;1.086641686561146E-02;
5.225225225225225E+07;2.975298458491952E-01;8.371985987143087E-01;1.347942365302282E-01;8.662345055264146E-03;2.975298458491952E-01;8.371985987143087E-01;1.347942365302282E-01;8.662345055264146E-03;
5.250250250250250E+07;2.914197865919441E-01;8.411955223309909E-01;1.360487431619531E-01;6.558939010170579E-03;2.914197865919441E-01;8.411955223309909E-01;1.360487431619531E-01;6.558939010170579E-03;
5.275275275275275E+07;2.858414315757207E-01;8.453379259843739E-01;1.367409504157230E-01;4.558678916902524E-03;2.858414315757207E-01;8.453379259843739E-01;1.367409504157230E-01;4.558678916902524E-03;
5.300300300300300E+07;2.805163856064790E-01;8.493764254361649E-01;1.367901784534475E-01;3.042790852726976E-03;2.805163856064790E-01;8.493764254361649E-01;1.367901784534475E-01;3.042790852726976E-03;
5.325325325325325E+07;2.757634153230027E-01;8.533812456750860E-01;1.365192628301994E-01;1.672924122200951E-03;2.757634153230027E-01;8.533812456750860E-01;1.365192628301994E-01;1.672924122200951E-03;
5.350350350350350E+07;2.710141738109441E-01;8.568952869947419E-01;1.359986656450704E-01;7.581883375385665E-04;2.710141738109441E-01;8.568952869947419E-01;1.359986656450704E-01;7.581883375385665E-04;
5.375375375375375E+07;2.667376353673558E-01;8.603643088945365E-01;1.351955177258966E-01;5.821143566523467E-05;2.667376353673558E-01;8.603643088945365E-01;1.351955177258966E-01;5.821143566523467E-05;
5.400400400400400E+07;2.631400791235198E-01;8.644277531227216E-01;1.323115602562461E-01;-1.153835057570660E-03;2.631400791235198E-01;8.644277531227216E-01;1.323115602562461E-01;-1.153835057570660E-03;
5.425425425425425E+07;2.588923715252386E-01;8.668547692907096E-01;1.329497466430777E-01;-1.568288084492210E-04;2.588923715252386E-01;8.668547692907096E-01;1.329497466430777E-01;-1.568288084492210E-04;
5.450450450450450E+07;2.551831115311616E-01;8.696990701208589E-01;1.317468302492018E-01;3.178559743630912E-04;2.551831115311616E-01;8.696990701208589E-01;1.317468302492018E-01;3.178559743630912E-04;
5.475475475475475E+07;2.516236323318441E-01;8.720471745525853E-01;1.305421341468471E-01;1.094410363060938E-03;2.516236323318441E-01;8.720471745525853E-01;1.305421341468471E-01;1.094410363060938E-03;
5.500500500500500E+07;2.478613161651050E-01;8.740560373309464E-01;1.293187212408431E-01;2.093707854946030E-03;2.478613161651050E-01;8.740560373309464E-01;1.293187212408431E-01;2.093707854946030E-03;
5.525525525525525E+07;2.442155575776442E-01;8.759618916007719E-01;1.282278482223665E-01;3.366706307744357E-03;2.442155575776442E-01;8.759618916007719E-01;1.282278482223665E-01;3.366706307744357E-03;
5.550550550550550E+07;2.403796350687236E-01;8.778141875215164E-01;1.272962170853696E-01;4.835216504996635E-03;2.403796350687236E-01;8.778141875215164E-01;1.272962170853696E-01;4.835216504996635E-03;
5.575575575575575E+07;2.367497615790212E-01;8.793359935826884E-01;1.264874493734772E-01;6.494953707553545E-03;2.367497615790212E-01;8.793359935826884E-01;1.264874493734772E-01;6.494953707553545E-03;
5.600600600600600E+07;2.330167327483198E-01;8.807740274295427E-01;1.256709825333870E-01;8.345346205124846E-03;2.330167327483198E-01;8.807740274295427E-01;1.256709825333870E-01;8.345346205124846E-03;
5.625625625625625E+07;2.294532732925075E-01;8.820015076587566E-01;1.248410977841425E-01;1.028005580117284E-02;2.294532732925075E-01;8.820015076587566E-01;1.248410977841425E-01;1.028005580117284E-02;
5.650650650650650E+07;2.254477637942079E-01;8.832349657698435E-01;1.241571307831673E-01;1.233302337839791E-02;2.254477637942079E-01;8.832349657698435E-01;1.241571307831673E-01;1.233302337839791E-02;
5.675675675675675E+07;2.217158414415724E-01;8.842304457840143E-01;1.235851398172699E-01;1.457914805029375E-02;2.217158414415724E-01;8.842304457840143E-01;1.235851398172699E-01;1.457914805029375E-02;
5.700700700700700E+07;2.179577177188452E-01;8.851833296860677E-01;1.228866191229827E-01;1.685915684565577E-02;2.179577177188452E-01;8.851833296860677E-01;1.228866191229827E-01;1.685915684565577E-02;
5.725725725725726E+07;2.144008458008107E-01;8.859907061151672E-01;1.223451251791738E-01;1.925969542937425E-02;2.144008458008107E-01;8.859907061151672E-01;1.223451251791738E-01;1.925969542937425E-02;
5.750750750750751E+07;2.104928284825123E-01;8.865661441746195E-01;1.218468989511161E-01;2.173711254066686E-02;2.104928284825123E-01;8.865661441746195E-01;1.218468989511161E-01;2.173711254066686E-02;
5.775775775775776E+07;2.068012442806586E-01;8.873511107050551E-01;1.212975697362053E-01;2.436202139215582E-02;2.068012442806586E-01;8.873511107050551E-01;1.212975697362053E-01;2.436202139215582E-02;
5.800800800800801E+07;2.027001828743209E-01;8.878156823990501E-01;1.207872432051654E-01;2.763334366416062E-02;2.027001828743209E-01;8.878156823990501E-01;1.207872432051654E-01;2.763334366416062E-02;
5.825825825825826E+07;1.990545170737410E-01;8.876301504414431E-01;1.202044459924784E-01;3.073600211767840E-02;1.990545170737410E-01;8.876301504414431E-01;1.202044459924784E-01;3.073600211767840E-02;
5.850850850850851E+07;1.952848297471992E-01;8.875612563637857E-01;1.197710205571368E-01;3.402525561252042E-02;1.952848297471992E-01;8.875612563637857E-01;1.197710205571368E-01;3.402525561252042E-02;
5.875875875875876E+07;1.912358134087616E-01;8.872975151243601E-01;1.195092422563733E-01;3.762159165808398E-02;1.912358134087616E-01;8.872975151243601E-01;1.195092422563733E-01;3.762159165808398E-02;
5.900900900900901E+07;1.870162879404214E-01;8.868258727313796E-01;1.195287259808689E-01;4.150444165689392E-02;1.870162879404214E-01;8.868258727313796E-01;1.195287259808689E-01;4.150444165689392E-02;
5.925925925925926E+07;1.823537561081647E-01;8.861887415839154E-01;1.199373607365154E-01;4.562856630339861E-02;1.823537561081647E-01;8.861887415839154E-01;1.199373607365154E-01;4.562856630339861E-02;
5.950950950950951E+07;1.776711235222357E-01;8.856416285146147E-01;1.210684011815663E-01;4.964894514925769E-02;1.776711235222357E-01;8.856416285146147E-01;1.210684011815663E-01;4.964894514925769E-02;
5.975975975975976E+07;1.722986564025628E-01;8.851364927132448E-01;1.225986781565464E-01;5.363609928168513E-02;1.722986564025628E-01;8.851364927132448E-01;1.225986781565464E-01;5.363609928168513E-02;
6.001001001001001E+07;1.670306212997440E-01;8.851470192701046E-01;1.246631219089614E-01;5.725908232822662E-02;1.670306212997440E-01;8.851470192701046E-01;1.246631219089614E-01;5.725908232822662E-02;
6.026026026026026E+07;1.615183074691169E-01;8.854904503631454E-01;1.270327376938031E-01;6.037358282389763E-02;1.615183074691169E-01;8.854904503631454E-01;1.270327376938031E-01;6.037358282389763E-02;
6.051051051051051E+07;1.562126983413747E-01;8.864248427941279E-01;1.296730153082329E-01;6.282904115485678E-02;1.562126983413747E-01;8.864248427941279E-01;1.296730153082329E-01;6.282904115485678E-02;
6.076076076076076E+07;1.508799204818005E-01;8.877826473222813E-01;1.321011159570276E-01;6.467865546549784E-02;1.508799204818005E-01;8.877826473222813E-01;1.321011159570276E-01;6.467865546549784E-02;
6.101101101101101E+07;1.460742345602798E-01;8.895246739474757E-01;1.341264322305539E-01;6.601900846295662E-02;1.460742345602798E-01;8.895246739474757E-01;1.341264322305539E-01;6.601900846295662E-02;
6.126126126126126E+07;1.420284004158462E-01;8.910921013572599E-01;1.357621444513264E-01;6.702300957766313E-02;1.420284004158462E-01;8.910921013572599E-01;1.357621444513264E-01;6.702300957766313E-02;
6.151151151151151E+07;1.385566998838740E-01;8.928908647411453E-01;1.366165068636464E-01;6.780266084722955E-02;1.385566998838740E-01;8.928908647411453E-01;1.366165068636464E-01;6.780266084722955E-02;
6.176176176176176E+07;1.346199245829652E-01;8.943095817077210E-01;1.376235521435360E-01;6.868741213276973E-02;1.346199245829652E-01;8.943095817077210E-01;1.376235521435360E-01;6.868741213276973E-02;
6.201201201201201E+07;1.312607366074463E-01;8.956762002548726E-01;1.383051554688633E-01;6.978985486159625E-02;1.312607366074463E-01;8.956762002548726E-01;1.383051554688633E-01;6.978985486159625E-02;
6.226226226226226E+07;1.280585788486867E-01;8.971060823718262E-01;1.386591635982968E-01;7.086975874559920E-02;1.280585788486867E-01;8.971060823718262E-01;1.386591635982968E-01;7.086975874559920E-02;
6.251251251251251E+07;1.250918013696131E-01;8.982748506226875E-01;1.388167818380752E-01;7.206610101133019E-02;1.250918013696131E-01;8.982748506226875E-01;1.388167818380752E-01;7.206610101133019E-02;
6.276276276276276E+07;1.223057353701812E-01;8.990640722186855E-01;1.387309658957620E-01;7.347776673763015E-02;1.223057353701812E-01;8.990640722186855E-01;1.387309658957620E-01;7.347776673763015E-02;
6.301301301301301E+07;1.194683291150467E-01;8.998676737297525E-01;1.384411308802608E-01;7.503323484718900E-02;1.194683291150467E-01;8.998676737297525E-01;1.384411308802608E-01;7.503323484718900E-02;
6.326326326326326E+07;1.169489928451266E-01;9.005154633658549E-01;1.380657650662769E-01;7.671227648647468E-02;1.169489928451266E-01;9.005154633658549E-01;1.380657650662769E-01;7.671227648647468E-02;
6.351351351351351E+07;1.143762282765371E-01;9.009529928465827E-01;1.375788051282156E-01;7.855293708042654E-02;1.143762282765371E-01;9.009529928465827E-01;1.375788051282156E-01;7.855293708042654E-02;
6.376376376376376E+07;1.118261537137597E-01;9.014088701171953E-01;1.370754268760866E-01;8.063254045804590E-02;1.118261537137597E-01;9.014088701171953E-01;1.370754268760866E-01;8.063254045804590E-02;
6.401401401401401E+07;1.094271019312467E-01;9.017092470308811E-01;1.368160002711538E-01;8.286607444046824E-02;1.094271019312467E-01;9.017092470308811E-01;1.368160002711538E-01;8.286607444046824E-02;
6.426426426426426E+07;1.071152476272877E-01;9.020148004352393E-01;1.362934802517972E-01;8.506528561527711E-02;1.071152476272877E-01;9.020148004352393E-01;1.362934802517972E-01;8.506528561527711E-02;
6.451451451451451E+07;1.047803254126613E-01;9.022094515711233E-01;1.358190041729322E-01;8.735558200215045E-02;1.047803254126613E-01;9.022094515711233E-01;1.358190041729322E-01;8.735558200215045E-02;
6.476476476476476E+07;1.025282873038618E-01;9.023999982088617E-01;1.352887797233737E-01;8.960330500726216E-02;1.025282873038618E-01;9.023999982088617E-01;1.352887797233737E-01;8.960330500726216E-02;
6.501501501501501E+07;1.003208904429883E-01;9.024563065650829E-01;1.346147866922294E-01;9.199318980529381E-02;1.003208904429883E-01;9.024563065650829E-01;1.346147866922294E-01;9.199318980529381E-02;
6.526526526526526E+07;9.825571478404986E-02;9.025051186508768E-01;1.340088533513864E-01;9.442395906098171E-02;9.825571478404986E-02;9.025051186508768E-01;1.340088533513864E-01;9.442395906098171E-02;
6.551551551551551E+07;9.635944499939186E-02;9.022570848296853E-01;1.328924682516689E-01;9.683772080080463E-02;9.635944499939186E-02;9.022570848296853E-01;1.328924682516689E-01;9.683772080080463E-02;
6.576576576576576E+07;9.642908559035226E-02;9.030166036910938E-01;1.334287897094950E-01;9.896294192201489E-02;9.642908559035226E-02;9.030166036910938E-01;1.334287897094950E-01;9.896294192201489E-02;
6.601601601601601E+07;9.447083047515979E-02;9.026886411627743E-01;1.327488885708041E-01;1.015081597072060E-01;9.447083047515979E-02;9.026886411627743E-01;1.327488885708041E-01;1.015081597072060E-01;
6.626626626626626E+07;9.237742384644596E-02;9.023841343672147E-01;1.321580539607657E-01;1.041760904317720E-01;9.237742384644596E-02;9.023841343672147E-01;1.321580539607657E-01;1.041760904317720E-01;
6.651651651651651E+07;9.014797492849064E-02;9.020525705738892E-01;1.316400135091795E-01;1.068886158006829E-01;9.014797492849064E-02;9.020525705738892E-01;1.316400135091795E-01;1.068886158006829E-01;
6.676676676676676E+07;8.774234378089492E-02;9.018045077541669E-01;1.311362306635320E-01;1.094784041296032E-01;8.774234378089492E-02;9.018045077541669E-01;1.311362306635320E-01;1.094784041296032E-01;
6.701701701701702E+07;8.677165218066463E-02;9.010661737738220E-01;1.303746119462763E-01;1.128029917911850E-01;8.677165218066463E-02;9.010661737738220E-01;1.303746119462763E-01;1.128029917911850E-01;
6.726726726726727E+07;8.450843448662990E-02;9.007955683693754E-01;1.299639216359421E-01;1.154441068315498E-01;8.450843448662990E-02;9.007955683693754E-01;1.299639216359421E-01;1.154441068315498E-01;
6.751751751751752E+07;8.237898215263811E-02;9.006381823611149E-01;1.295542712384528E-01;1.179399985668825E-01;8.237898215263811E-02;9.006381823611149E-01;1.295542712384528E-01;1.179399985668825E-01;
6.776776776776777E+07;8.024393992596597E-02;9.004151476178831E-01;1.292065181471708E-01;1.205547946218992E-01;8.024393992596597E-02;9.004151476178831E-01;1.292065181471708E-01;1.205547946218992E-01;
6.801801801801802E+07;7.776286775525061E-02;9.002670953855458E-01;1.286411865978856E-01;1.231668809056959E-01;7.776286775525061E-02;9.002670953855458E-01;1.286411865978856E-01;1.231668809056959E-01;
6.826826826826827E+07;7.565169890016549E-02;8.998335741934514E-01;1.278964312104216E-01;1.260530646455956E-01;7.565169890016549E-02;8.998335741934514E-01;1.278964312104216E-01;1.260530646455956E-01;
6.851851851851852E+07;7.373488234657230E-02;8.993541875828935E-01;1.267507299252491E-01;1.291546208191079E-01;7.373488234657230E-02;8.993541875828935E-01;1.267507299252491E-01;1.291546208191079E-01;
6.876876876876877E+07;7.279434266525960E-02;8.981967285591275E-01;1.252752743660323E-01;1.325204712083721E-01;7.279434266525960E-02;8.981967285591275E-01;1.252752743660323E-01;1.325204712083721E-01;
6.901901901901902E+07;7.200621607176812E-02;8.973870324189683E-01;1.237884668047546E-01;1.360686286375955E-01;7.200621607176812E-02;8.973870324189683E-01;1.237884668047546E-01;1.360686286375955E-01;
6.926926926926927E+07;7.201415573876932E-02;8.960787546977608E-01;1.222929966810605E-01;1.397622270065396E-01;7.201415573876932E-02;8.960787546977608E-01;1.222929966810605E-01;1.397622270065396E-01;
6.951951951951952E+07;7.210433858310290E-02;8.949376342630804E-01;1.207873335681353E-01;1.434638603771116E-01;7.210433858310290E-02;8.949376342630804E-01;1.207873335681353E-01;1.434638603771116E-01;
6.976976976976977E+07;7.232079732164597E-02;8.933828370969902E-01;1.193504336795678E-01;1.472372055662639E-01;7.232079732164597E-02;8.933828370969902E-01;1.193504336795678E-01;1.472372055662639E-01;
7.002002002002002E+07;7.214138325519207E-02;8.921265337370051E-01;1.179818941736793E-01;1.509825330176137E-01;7.214138325519207E-02;8.921265337370051E-01;1.179818941736793E-01;1.509825330176137E-01;
7.027027027027027E+07;7.172113415375563E-02;8.907787971042219E-01;1.168107757484263E-01;1.546589113075512E-01;7.172113415375563E-02;8.907787971042219E-01;1.168107757484263E-01;1.546589113075512E-01;
7.052052052052052E+07;7.108158820543953E-02;8.897164225995697E-01;1.158228658928858E-01;1.581293381567342E-01;7.108158820543953E-02;8.897164225995697E-01;1.158228658928858E-01;1.581293381567342E-01;
7.077077077077077E+07;7.041677249985484E-02;8.886490189614435E-01;1.148306467436058E-01;1.617259174095801E-01;7.041677249985484E-02;8.886490189614435E-01;1.148306467436058E-01;1.617259174095801E-01;
7.102102102102102E+07;6.978902417979391E-02;8.874243940151316E-01;1.138995489417425E-01;1.652479394867619E-01;6.978902417979391E-02;8.874243940151316E-01;1.138995489417425E-01;1.652479394867619E-01;
7.127127127127127E+07;6.907226746381562E-02;8.862666315907913E-01;1.130410535567206E-01;1.688030355279159E-01;6.907226746381562E-02;8.862666315907913E-01;1.130410535567206E-01;1.688030355279159E-01;
7.152152152152152E+07;6.825307334575696E-02;8.850899277616382E-01;1.122922592591325E-01;1.723931515206672E-01;6.825307334575696E-02;8.850899277616382E-01;1.122922592591325E-01;1.723931515206672E-01;
7.177177177177177E+07;6.715680122052679E-02;8.840370267786789E-01;1.116293521428483E-01;1.759545278060551E-01;6.715680122052679E-02;8.840370267786789E-01;1.116293521428483E-01;1.759545278060551E-01;
7.202202202202202E+07;6.635065300402851E-02;8.828233146900348E-01;1.106272378399937E-01;1.795820166050357E-01;6.635065300402851E-02;8.828233146900348E-01;1.106272378399937E-01;1.795820166050357E-01;
7.227227227227227E+07;6.533149266722488E-02;8.817135140494966E-01;1.096402045288591E-01;1.837112380867653E-01;6.533149266722488E-02;8.817135140494966E-01;1.096402045288591E-01;1.837112380867653E-01;
7.252252252252252E+07;6.481335668976630E-02;8.803870469926568E-01;1.083541323879388E-01;1.877458139741942E-01;6.481335668976630E-02;8.803870469926568E-01;1.083541323879388E-01;1.877458139741942E-01;
7.277277277277277E+07;6.478094768513123E-02;8.790763431114180E-01;1.068619385747684E-01;1.919928698916109E-01;6.478094768513123E-02;8.790763431114180E-01;1.068619385747684E-01;1.919928698916109E-01;
7.302302302302302E+07;6.539250445562877E-02;8.776263132439557E-01;1.052965954262781E-01;1.962669448958771E-01;6.539250445562877E-02;8.776263132439557E-01;1.052965954262781E-01;1.962669448958771E-01;
7.327327327327327E+07;6.646329898980315E-02;8.758799441869124E-01;1.035692481370870E-01;2.006526815622912E-01;6.646329898980315E-02;8.758799441869124E-01;1.035692481370870E-01;2.006526815622912E-01;
7.352352352352352E+07;6.768930892558420E-02;8.739975505581058E-01;1.020365930256821E-01;2.051369717909648E-01;6.768930892558420E-02;8.739975505581058E-01;1.020365930256821E-01;2.051369717909648E-01;
7.377377377377377E+07;6.911636389596015E-02;8.720138719415784E-01;1.006302176523099E-01;2.095692967021640E-01;6.911636389596015E-02;8.720138719415784E-01;1.006302176523099E-01;2.095692967021640E-01;
7.402402402402402E+07;7.045783244617729E-02;8.703130888720015E-01;9.921234149617930E-02;2.140268045453551E-01;7.045783244617729E-02;8.703130888720015E-01;9.921234149617930E-02;2.140268045453551E-01;
7.427427427427427E+07;7.160925953062994E-02;8.681543024931504E-01;9.798972444173464E-02;2.185063878762704E-01;7.160925953062994E-02;8.681543024931504E-01;9.798972444173464E-02;2.185063878762704E-01;
7.452452452452452E+07;7.262318927509669E-02;8.661754214181674E-01;9.684019201215244E-02;2.230362009456312E-01;7.262318927509669E-02;8.661754214181674E-01;9.684019201215244E-02;2.230362009456312E-01;
