# Version 1.00
#
# Ref Impedances: Z01: 50, Z02: 50
# 
freq[Hz];re:ZMag1_S12;im:ZMag1_S12;re:SMag1_S11;im:SMag1_S11;re:ZPh1_S12;im:ZPh1_S12;re:SPh1_S11;im:SPh1_S11;
5.000000000000000E+07;9.668326594917050E-02;2.787961090058382E-03;3.542067682544996E-01;8.248683919655772E-01;9.668326594917050E-02;2.787961090058382E-03;3.542067682544996E-01;8.248683919655772E-01;
5.025025025025025E+07;9.852643523602872E-02;6.582069783777045E-03;3.486634764796093E-01;8.252677620768457E-01;9.852643523602872E-02;6.582069783777045E-03;3.486634764796093E-01;8.252677620768457E-01;
5.050050050050050E+07;1.012050254432987E-01;1.031468586183802E-02;3.426449706423201E-01;8.254842335762987E-01;1.012050254432987E-01;1.031468586183802E-02;3.426449706423201E-01;8.254842335762987E-01;
5.075075075075075E+07;1.047956666929155E-01;1.376891193485880E-02;3.359198781279096E-01;8.258589379454847E-01;1.047956666929155E-01;1.376891193485880E-02;3.359198781279096E-01;8.258589379454847E-01;
5.100100100100100E+07;1.092854275461756E-01;1.628787937562766E-02;3.284880173394187E-01;8.263470309948540E-01;1.092854275461756E-01;1.628787937562766E-02;3.284880173394187E-01;8.263470309948540E-01;
5.125125125125125E+07;1.141541649486163E-01;1.762862607539751E-02;3.204181520655411E-01;8.276824869263322E-01;1.141541649486163E-01;1.762862607539751E-02;3.204181520655411E-01;8.276824869263322E-01;
5.150150150150150E+07;1.189329748186765E-01;1.767302304127150E-02;3.121861682042022E-01;8.298456593307266E-01;1.189329748186765E-01;1.767302304127150E-02;3.121861682042022E-01;8.298456593307266E-01;
5.175175175175175E+07;1.231837040124089E-01;1.667731898231022E-02;3.039822659011637E-01;8.327990187511731E-01;1.231837040124089E-01;1.667731898231022E-02;3.039822659011637E-01;8.327990187511731E-01;
5.200200200200200E+07;1.265890504080545E-01;1.495270700562070E-02;2.962811818019210E-01;8.364470706433879E-01;1.265890504080545E-01;1.495270700562070E-02;2.962811818019210E-01;8.364470706433879E-01;
5.225225225225225E+07;1.291694034790459E-01;1.288468229052260E-02;2.892375940496263E-01;8.404129046980002E-01;1.291694034790459E-01;1.288468229052260E-02;2.892375940496263E-01;8.404129046980002E-01;
5.250250250250250E+07;1.309369290521998E-01;1.065120972841232E-02;2.825311974621528E-01;8.447043213100132E-01;1.309369290521998E-01;1.065120972841232E-02;2.825311974621528E-01;8.447043213100132E-01;
5.275275275275275E+07;1.319114284768430E-01;8.483038170299445E-03;2.765301009765465E-01;8.489454998181154E-01;1.319114284768430E-01;8.483038170299445E-03;2.765301009765465E-01;8.489454998181154E-01;
5.300300300300300E+07;1.310861421366704E-01;5.396881831810669E-03;2.716967075355101E-01;8.544621071006566E-01;1.310861421366704E-01;5.396881831810669E-03;2.716967075355101E-01;8.544621071006566E-01;
5.325325325325325E+07;1.321736780628168E-01;4.818464276264955E-03;2.657092898293270E-01;8.573882402336989E-01;1.321736780628168E-01;4.818464276264955E-03;2.657092898293270E-01;8.573882402336989E-01;
5.350350350350350E+07;1.316210708908935E-01;3.418147465757601E-03;2.608458987325409E-01;8.612230717676249E-01;1.316210708908935E-01;3.418147465757601E-03;2.608458987325409E-01;8.612230717676249E-01;
5.375375375375375E+07;1.308038771021890E-01;2.432318406071629E-03;2.563753139001372E-01;8.649038670741809E-01;1.308038771021890E-01;2.432318406071629E-03;2.563753139001372E-01;8.649038670741809E-01;
5.400400400400400E+07;1.296475293539125E-01;1.759041764884226E-03;2.522859290180853E-01;8.682461649257386E-01;1.296475293539125E-01;1.759041764884226E-03;2.522859290180853E-01;8.682461649257386E-01;
5.425425425425425E+07;1.283576803879814E-01;1.554643692182944E-03;2.482659758495758E-01;8.712763098154779E-01;1.283576803879814E-01;1.554643692182944E-03;2.482659758495758E-01;8.712763098154779E-01;
5.450450450450450E+07;1.270540095120588E-01;1.722466337806122E-03;2.444347543918051E-01;8.739128873139178E-01;1.270540095120588E-01;1.722466337806122E-03;2.444347543918051E-01;8.739128873139178E-01;
5.475475475475475E+07;1.257130340872609E-01;2.238545339324727E-03;2.405422167088735E-01;8.761975335116029E-01;1.257130340872609E-01;2.238545339324727E-03;2.405422167088735E-01;8.761975335116029E-01;
5.500500500500500E+07;1.244446211613660E-01;2.927174067814398E-03;2.368921182924386E-01;8.785315483725181E-01;1.244446211613660E-01;2.927174067814398E-03;2.368921182924386E-01;8.785315483725181E-01;
5.525525525525525E+07;1.231960783252420E-01;3.898821625778090E-03;2.330689883391178E-01;8.804008584969435E-01;1.231960783252420E-01;3.898821625778090E-03;2.330689883391178E-01;8.804008584969435E-01;
5.550550550550550E+07;1.219287228591900E-01;5.060815613540244E-03;2.293246889748228E-01;8.823611328655706E-01;1.219287228591900E-01;5.060815613540244E-03;2.293246889748228E-01;8.823611328655706E-01;
5.575575575575575E+07;1.207235740193765E-01;6.363458716484381E-03;2.256793790161255E-01;8.840863529965214E-01;1.207235740193765E-01;6.363458716484381E-03;2.256793790161255E-01;8.840863529965214E-01;
5.600600600600600E+07;1.195457906451907E-01;7.894388968105345E-03;2.219653658893399E-01;8.855082034775235E-01;1.195457906451907E-01;7.894388968105345E-03;2.219653658893399E-01;8.855082034775235E-01;
5.625625625625625E+07;1.184077085324066E-01;9.574841915499123E-03;2.182294447792727E-01;8.868749054721541E-01;1.184077085324066E-01;9.574841915499123E-03;2.182294447792727E-01;8.868749054721541E-01;
5.650650650650650E+07;1.173006186900464E-01;1.141328038830055E-02;2.145646367586851E-01;8.879877096383639E-01;1.173006186900464E-01;1.141328038830055E-02;2.145646367586851E-01;8.879877096383639E-01;
5.675675675675675E+07;1.162067023620173E-01;1.338164387495984E-02;2.111261442057749E-01;8.889979252315540E-01;1.162067023620173E-01;1.338164387495984E-02;2.111261442057749E-01;8.889979252315540E-01;
5.700700700700700E+07;1.150061555997825E-01;1.535851228316013E-02;2.071656022194015E-01;8.900272214221496E-01;1.150061555997825E-01;1.535851228316013E-02;2.071656022194015E-01;8.900272214221496E-01;
5.725725725725726E+07;1.143613924148193E-01;1.773969731226552E-02;2.033207260096912E-01;8.906788775633112E-01;1.143613924148193E-01;1.773969731226552E-02;2.033207260096912E-01;8.906788775633112E-01;
5.750750750750751E+07;1.134794528110490E-01;2.006291468632929E-02;1.997227066646204E-01;8.912449247119129E-01;1.134794528110490E-01;2.006291468632929E-02;1.997227066646204E-01;8.912449247119129E-01;
5.775775775775776E+07;1.126057171209592E-01;2.247409823910243E-02;1.959291228657036E-01;8.918911692319182E-01;1.126057171209592E-01;2.247409823910243E-02;1.959291228657036E-01;8.918911692319182E-01;
5.800800800800801E+07;1.119313666060332E-01;2.549506750398929E-02;1.982829580798028E-01;8.905445611203192E-01;1.119313666060332E-01;2.549506750398929E-02;1.982829580798028E-01;8.905445611203192E-01;
5.825825825825826E+07;1.109090015864861E-01;2.829678893676392E-02;1.945861481700070E-01;8.907640444158083E-01;1.109090015864861E-01;2.829678893676392E-02;1.945861481700070E-01;8.907640444158083E-01;
5.850850850850851E+07;1.098998442899999E-01;3.145500318026424E-02;1.908281642195180E-01;8.906538295985137E-01;1.098998442899999E-01;3.145500318026424E-02;1.908281642195180E-01;8.906538295985137E-01;
5.875875875875876E+07;1.090185453266094E-01;3.494460493568780E-02;1.869657756626978E-01;8.902547123129333E-01;1.090185453266094E-01;3.494460493568780E-02;1.869657756626978E-01;8.902547123129333E-01;
5.900900900900901E+07;1.084235895235052E-01;3.888023764616274E-02;1.831292885095287E-01;8.896343153627894E-01;1.084235895235052E-01;3.888023764616274E-02;1.831292885095287E-01;8.896343153627894E-01;
5.925925925925926E+07;1.082312952531344E-01;4.308560928262870E-02;1.788729442747433E-01;8.887957794040917E-01;1.082312952531344E-01;4.308560928262870E-02;1.788729442747433E-01;8.887957794040917E-01;
5.950950950950951E+07;1.086285588261555E-01;4.753954313763674E-02;1.740391329764618E-01;8.881112387489757E-01;1.086285588261555E-01;4.753954313763674E-02;1.740391329764618E-01;8.881112387489757E-01;
5.975975975975976E+07;1.097247322832137E-01;5.196929557013012E-02;1.690091389279312E-01;8.874148603203423E-01;1.097247322832137E-01;5.196929557013012E-02;1.690091389279312E-01;8.874148603203423E-01;
6.001001001001001E+07;1.114665674338001E-01;5.613557492043311E-02;1.635697573167116E-01;8.869877612377434E-01;1.114665674338001E-01;5.613557492043311E-02;1.635697573167116E-01;8.869877612377434E-01;
6.026026026026026E+07;1.137606569574014E-01;5.981399110684765E-02;1.582656880248524E-01;8.870459526800148E-01;1.137606569574014E-01;5.981399110684765E-02;1.582656880248524E-01;8.870459526800148E-01;
6.051051051051051E+07;1.163603260529737E-01;6.279497001563761E-02;1.528562210490251E-01;8.876184571695567E-01;1.163603260529737E-01;6.279497001563761E-02;1.528562210490251E-01;8.876184571695567E-01;
6.076076076076076E+07;1.181644285282969E-01;6.440167598477312E-02;1.478668346498564E-01;8.887792775132778E-01;1.181644285282969E-01;6.440167598477312E-02;1.478668346498564E-01;8.887792775132778E-01;
6.101101101101101E+07;1.212681159766623E-01;6.655836572668439E-02;1.427199568819444E-01;8.899115172296715E-01;1.212681159766623E-01;6.655836572668439E-02;1.427199568819444E-01;8.899115172296715E-01;
6.126126126126126E+07;1.231536361470445E-01;6.775119931263630E-02;1.382611902352986E-01;8.914240981251720E-01;1.231536361470445E-01;6.775119931263630E-02;1.382611902352986E-01;8.914240981251720E-01;
6.151151151151151E+07;1.245365153464896E-01;6.869582449932685E-02;1.339928974134685E-01;8.928260088062434E-01;1.245365153464896E-01;6.869582449932685E-02;1.339928974134685E-01;8.928260088062434E-01;
6.176176176176176E+07;1.255314754231212E-01;6.970408718149956E-02;1.301187608861364E-01;8.941812862710616E-01;1.255314754231212E-01;6.970408718149956E-02;1.301187608861364E-01;8.941812862710616E-01;
6.201201201201201E+07;1.262956461904158E-01;7.075252068300182E-02;1.266416434926459E-01;8.954193910734706E-01;1.262956461904158E-01;7.075252068300182E-02;1.266416434926459E-01;8.954193910734706E-01;
6.226226226226226E+07;1.268182569250235E-01;7.178832771088968E-02;1.230743218150215E-01;8.966652754611362E-01;1.268182569250235E-01;7.178832771088968E-02;1.230743218150215E-01;8.966652754611362E-01;
6.251251251251251E+07;1.270851879016560E-01;7.287577978762587E-02;1.198455644561902E-01;8.976695995965853E-01;1.270851879016560E-01;7.287577978762587E-02;1.198455644561902E-01;8.976695995965853E-01;
6.276276276276276E+07;1.271875495609683E-01;7.406194303452424E-02;1.168238000154481E-01;8.986660263030168E-01;1.271875495609683E-01;7.406194303452424E-02;1.168238000154481E-01;8.986660263030168E-01;
6.301301301301301E+07;1.270360630471312E-01;7.533146883086630E-02;1.138271967191399E-01;8.994179854906884E-01;1.270360630471312E-01;7.533146883086630E-02;1.138271967191399E-01;8.994179854906884E-01;
6.326326326326326E+07;1.267671002349107E-01;7.680148620724972E-02;1.110562949212329E-01;9.000570791332870E-01;1.267671002349107E-01;7.680148620724972E-02;1.110562949212329E-01;9.000570791332870E-01;
6.351351351351351E+07;1.264232418568727E-01;7.841744820674618E-02;1.082550478962230E-01;9.006452457833861E-01;1.264232418568727E-01;7.841744820674618E-02;1.082550478962230E-01;9.006452457833861E-01;
6.376376376376376E+07;1.260624034849511E-01;8.018624220060760E-02;1.053859137585047E-01;9.010798120295793E-01;1.260624034849511E-01;8.018624220060760E-02;1.053859137585047E-01;9.010798120295793E-01;
6.401401401401401E+07;1.256817440123833E-01;8.201558199614775E-02;1.027724975690051E-01;9.015245126932004E-01;1.256817440123833E-01;8.201558199614775E-02;1.027724975690051E-01;9.015245126932004E-01;
6.426426426426426E+07;1.253023439676764E-01;8.393035995213112E-02;1.001428512687547E-01;9.018065332734830E-01;1.253023439676764E-01;8.393035995213112E-02;1.001428512687547E-01;9.018065332734830E-01;
6.451451451451451E+07;1.244171076590810E-01;8.580184536505434E-02;9.756780512386384E-02;9.021626370522728E-01;1.244171076590810E-01;8.580184536505434E-02;9.756780512386384E-02;9.021626370522728E-01;
6.476476476476476E+07;1.244657390866513E-01;8.790355480786664E-02;9.477951598712822E-02;9.023652623543795E-01;1.244657390866513E-01;8.790355480786664E-02;9.477951598712822E-02;9.023652623543795E-01;
6.501501501501501E+07;1.239933361975711E-01;8.995241757752531E-02;9.237559443767093E-02;9.027370582692078E-01;1.239933361975711E-01;8.995241757752531E-02;9.237559443767093E-02;9.027370582692078E-01;
6.526526526526526E+07;1.235237451568211E-01;9.195185432702024E-02;8.994838924652593E-02;9.029768687369374E-01;1.235237451568211E-01;9.195185432702024E-02;8.994838924652593E-02;9.029768687369374E-01;
6.551551551551551E+07;1.229613656721690E-01;9.396076512900428E-02;8.763089615140719E-02;9.032442345188473E-01;1.229613656721690E-01;9.396076512900428E-02;8.763089615140719E-02;9.032442345188473E-01;
6.576576576576576E+07;1.226201122958219E-01;9.539276294690523E-02;7.764192179911036E-02;9.046853572251258E-01;1.226201122958219E-01;9.539276294690523E-02;7.764192179911036E-02;9.046853572251258E-01;
6.601601601601601E+07;1.219037358498005E-01;9.738308506676444E-02;7.557863995582746E-02;9.046543470130320E-01;1.219037358498005E-01;9.738308506676444E-02;7.557863995582746E-02;9.046543470130320E-01;
6.626626626626626E+07;1.210813869878375E-01;9.954921230910622E-02;7.338085178984355E-02;9.046753964913568E-01;1.210813869878375E-01;9.954921230910622E-02;7.338085178984355E-02;9.046753964913568E-01;
6.651651651651651E+07;1.202962660562475E-01;1.017298910400982E-01;7.100439634400467E-02;9.045646752031350E-01;1.202962660562475E-01;1.017298910400982E-01;7.100439634400467E-02;9.045646752031350E-01;
6.676676676676676E+07;1.195672028195513E-01;1.040336046078690E-01;6.865224599509223E-02;9.044574030656961E-01;1.195672028195513E-01;1.040336046078690E-01;6.865224599509223E-02;9.044574030656961E-01;
6.701701701701702E+07;1.185732752017497E-01;1.068574431529283E-01;6.747772778986011E-02;9.038749993189077E-01;1.185732752017497E-01;1.068574431529283E-01;6.747772778986011E-02;9.038749993189077E-01;
6.726726726726727E+07;1.179356948414663E-01;1.091935317004366E-01;6.537074096077661E-02;9.036560670897869E-01;1.179356948414663E-01;1.091935317004366E-01;6.537074096077661E-02;9.036560670897869E-01;
6.751751751751752E+07;1.171830424953363E-01;1.114280208537426E-01;6.289072255271562E-02;9.035881912737634E-01;1.171830424953363E-01;1.114280208537426E-01;6.289072255271562E-02;9.035881912737634E-01;
6.776776776776777E+07;1.167811253165540E-01;1.137330069024708E-01;6.040746024552461E-02;9.034961408585953E-01;1.167811253165540E-01;1.137330069024708E-01;6.040746024552461E-02;9.034961408585953E-01;
6.801801801801802E+07;1.160609356037911E-01;1.160961533544701E-01;5.782817244255725E-02;9.034909668497384E-01;1.160609356037911E-01;1.160961533544701E-01;5.782817244255725E-02;9.034909668497384E-01;
6.826826826826827E+07;1.151472197124623E-01;1.187014473436463E-01;5.526979565228708E-02;9.033558110654775E-01;1.151472197124623E-01;1.187014473436463E-01;5.526979565228708E-02;9.033558110654775E-01;
6.851851851851852E+07;1.140761213642575E-01;1.215796104181922E-01;5.328637159169047E-02;9.030030627772644E-01;1.140761213642575E-01;1.215796104181922E-01;5.328637159169047E-02;9.030030627772644E-01;
6.876876876876877E+07;1.124735496427465E-01;1.245982758689731E-01;5.593110601248251E-02;9.028765802415009E-01;1.124735496427465E-01;1.245982758689731E-01;5.593110601248251E-02;9.028765802415009E-01;
6.901901901901902E+07;1.110544129577188E-01;1.277566614515460E-01;5.508108572007031E-02;9.022871567999723E-01;1.110544129577188E-01;1.277566614515460E-01;5.508108572007031E-02;9.022871567999723E-01;
6.926926926926927E+07;1.095470235731544E-01;1.309595336863161E-01;5.476094437694445E-02;9.013382149325068E-01;1.095470235731544E-01;1.309595336863161E-01;5.476094437694445E-02;9.013382149325068E-01;
6.951951951951952E+07;1.080107987915372E-01;1.341636769052729E-01;5.464543756632366E-02;9.002642090681343E-01;1.080107987915372E-01;1.341636769052729E-01;5.464543756632366E-02;9.002642090681343E-01;
6.976976976976977E+07;1.064632640772496E-01;1.374093506605287E-01;5.457214195283212E-02;8.990945866157141E-01;1.064632640772496E-01;1.374093506605287E-01;5.457214195283212E-02;8.990945866157141E-01;
7.002002002002002E+07;1.049702199343885E-01;1.407119950918041E-01;5.423796671925314E-02;8.980530163182312E-01;1.049702199343885E-01;1.407119950918041E-01;5.423796671925314E-02;8.980530163182312E-01;
7.027027027027027E+07;1.037273632022052E-01;1.438476037608960E-01;5.353256033027105E-02;8.969766710187319E-01;1.037273632022052E-01;1.438476037608960E-01;5.353256033027105E-02;8.969766710187319E-01;
7.052052052052052E+07;1.025575534297301E-01;1.470191523559505E-01;5.255043470089103E-02;8.959982526419824E-01;1.025575534297301E-01;1.470191523559505E-01;5.255043470089103E-02;8.959982526419824E-01;
7.077077077077077E+07;1.014202039101964E-01;1.501264948836802E-01;5.160463684665072E-02;8.951633622958837E-01;1.014202039101964E-01;1.501264948836802E-01;5.160463684665072E-02;8.951633622958837E-01;
7.102102102102102E+07;1.002912203871352E-01;1.532017209525807E-01;5.059047012010802E-02;8.942503906827580E-01;1.002912203871352E-01;1.532017209525807E-01;5.059047012010802E-02;8.942503906827580E-01;
7.127127127127127E+07;9.927309736007096E-02;1.563003522201948E-01;4.940841658861870E-02;8.933995240849459E-01;9.927309736007096E-02;1.563003522201948E-01;4.940841658861870E-02;8.933995240849459E-01;
7.152152152152152E+07;9.844571619779215E-02;1.594500473056897E-01;4.822893511380045E-02;8.925078362884974E-01;9.844571619779215E-02;1.594500473056897E-01;4.822893511380045E-02;8.925078362884974E-01;
7.177177177177177E+07;9.758700178639607E-02;1.626182524557265E-01;4.687028964957095E-02;8.916555689239051E-01;9.758700178639607E-02;1.626182524557265E-01;4.687028964957095E-02;8.916555689239051E-01;
7.202202202202202E+07;9.659113387486590E-02;1.658650619368697E-01;4.538919969124527E-02;8.909134371954213E-01;9.659113387486590E-02;1.658650619368697E-01;4.538919969124527E-02;8.909134371954213E-01;
7.227227227227227E+07;9.526123222194281E-02;1.693919323407677E-01;4.422188445512625E-02;8.900593331886103E-01;9.526123222194281E-02;1.693919323407677E-01;4.422188445512625E-02;8.900593331886103E-01;
7.252252252252252E+07;9.383788311200021E-02;1.730006657659744E-01;4.327945957110076E-02;8.891462026598761E-01;9.383788311200021E-02;1.730006657659744E-01;4.327945957110076E-02;8.891462026598761E-01;
7.277277277277277E+07;9.225573086195189E-02;1.767004334707154E-01;4.286219139918693E-02;8.881601601312523E-01;9.225573086195189E-02;1.767004334707154E-01;4.286219139918693E-02;8.881601601312523E-01;
7.302302302302302E+07;9.057491156349719E-02;1.804743938936603E-01;4.304955222240621E-02;8.869559801539216E-01;9.057491156349719E-02;1.804743938936603E-01;4.304955222240621E-02;8.869559801539216E-01;
7.327327327327327E+07;8.885235594438540E-02;1.843050630574122E-01;4.372592463873226E-02;8.857003189643214E-01;8.885235594438540E-02;1.843050630574122E-01;4.372592463873226E-02;8.857003189643214E-01;
7.352352352352352E+07;8.716182885943947E-02;1.881707934276070E-01;4.468813833669773E-02;8.842226183651273E-01;8.716182885943947E-02;1.881707934276070E-01;4.468813833669773E-02;8.842226183651273E-01;
7.377377377377377E+07;8.560344709039741E-02;1.920390769384044E-01;4.569791221361126E-02;8.828022750888154E-01;8.560344709039741E-02;1.920390769384044E-01;4.569791221361126E-02;8.828022750888154E-01;
7.402402402402402E+07;8.406983502973991E-02;1.959479476944889E-01;4.653646133085443E-02;8.813521921336096E-01;8.406983502973991E-02;1.959479476944889E-01;4.653646133085443E-02;8.813521921336096E-01;
7.427427427427427E+07;8.267752489167129E-02;1.998930428236374E-01;4.722668292056015E-02;8.799469388247596E-01;8.267752489167129E-02;1.998930428236374E-01;4.722668292056015E-02;8.799469388247596E-01;
7.452452452452452E+07;8.137588443199054E-02;2.038336095089451E-01;4.784496013304732E-02;8.784532984826861E-01;8.137588443199054E-02;2.038336095089451E-01;4.784496013304732E-02;8.784532984826861E-01;
