# Version 1.00
#
# Ref Impedances: Z01: 50, Z02: 50
# 
freq[Hz];re:ZMag1_S12;im:ZMag1_S12;re:SMag1_S11;im:SMag1_S11;re:ZPh1_S12;im:ZPh1_S12;re:SPh1_S11;im:SPh1_S11;
5.000000000000000E+07;1.070742131344367E-01;2.647310571054159E-03;3.501964158599156E-01;8.077363757836774E-01;1.070742131344367E-01;2.647310571054159E-03;3.501964158599156E-01;8.077363757836774E-01;
5.025025025025025E+07;1.109364594932949E-01;4.457038575688715E-03;3.415115899289926E-01;8.108083324624896E-01;1.109364594932949E-01;4.457038575688715E-03;3.415115899289926E-01;8.108083324624896E-01;
5.050050050050050E+07;1.151179474281884E-01;6.231634252007787E-03;3.337226764379340E-01;8.107380549961936E-01;1.151179474281884E-01;6.231634252007787E-03;3.337226764379340E-01;8.107380549961936E-01;
5.075075075075075E+07;1.200216395089470E-01;6.940316677699349E-03;3.252172546262656E-01;8.132402600715014E-01;1.200216395089470E-01;6.940316677699349E-03;3.252172546262656E-01;8.132402600715014E-01;
5.100100100100100E+07;1.265014448138233E-01;6.343381174725450E-03;3.163391496228580E-01;8.168278496307378E-01;1.265014448138233E-01;6.343381174725450E-03;3.163391496228580E-01;8.168278496307378E-01;
5.125125125125125E+07;1.323884068754022E-01;3.890759409489153E-03;3.083162300249400E-01;8.211085309660034E-01;1.323884068754022E-01;3.890759409489153E-03;3.083162300249400E-01;8.211085309660034E-01;
5.150150150150150E+07;1.348846110883162E-01;1.252554428800294E-03;3.007387054951045E-01;8.259026101894553E-01;1.348846110883162E-01;1.252554428800294E-03;3.007387054951045E-01;8.259026101894553E-01;
5.175175175175175E+07;1.364899695790772E-01;-1.241686990314446E-03;2.941988789057364E-01;8.309947671388636E-01;1.364899695790772E-01;-1.241686990314446E-03;2.941988789057364E-01;8.309947671388636E-01;
5.200200200200200E+07;1.372351762465550E-01;-3.624420459212921E-03;2.881230064485065E-01;8.359174843472671E-01;1.372351762465550E-01;-3.624420459212921E-03;2.881230064485065E-01;8.359174843472671E-01;
5.225225225225225E+07;1.374505368930502E-01;-5.534863188417958E-03;2.826956018881108E-01;8.408646061745915E-01;1.374505368930502E-01;-5.534863188417958E-03;2.826956018881108E-01;8.408646061745915E-01;
5.250250250250250E+07;1.372299368310566E-01;-7.048354870890246E-03;2.780058147453581E-01;8.452252172867831E-01;1.372299368310566E-01;-7.048354870890246E-03;2.780058147453581E-01;8.452252172867831E-01;
5.275275275275275E+07;1.367628262722293E-01;-8.111924438465081E-03;2.734298312730461E-01;8.494922298122086E-01;1.367628262722293E-01;-8.111924438465081E-03;2.734298312730461E-01;8.494922298122086E-01;
5.300300300300300E+07;1.361734998346080E-01;-8.798014973585214E-03;2.689844559641966E-01;8.533852552698735E-01;1.361734998346080E-01;-8.798014973585214E-03;2.689844559641966E-01;8.533852552698735E-01;
5.325325325325325E+07;1.354223448419401E-01;-9.175416610227862E-03;2.650706584971977E-01;8.567793189000101E-01;1.354223448419401E-01;-9.175416610227862E-03;2.650706584971977E-01;8.567793189000101E-01;
5.350350350350350E+07;1.345993105961155E-01;-9.179467829738306E-03;2.612125526569447E-01;8.601453891365193E-01;1.345993105961155E-01;-9.179467829738306E-03;2.612125526569447E-01;8.601453891365193E-01;
5.375375375375375E+07;1.337136191378624E-01;-8.960583044285420E-03;2.573730525486244E-01;8.632603229260520E-01;1.337136191378624E-01;-8.960583044285420E-03;2.573730525486244E-01;8.632603229260520E-01;
5.400400400400400E+07;1.327998346920287E-01;-8.364456798716068E-03;2.541784314324284E-01;8.661210505328377E-01;1.327998346920287E-01;-8.364456798716068E-03;2.541784314324284E-01;8.661210505328377E-01;
5.425425425425425E+07;1.310873011527124E-01;-7.708139626219168E-03;2.500454852869839E-01;8.682937810661258E-01;1.310873011527124E-01;-7.708139626219168E-03;2.500454852869839E-01;8.682937810661258E-01;
5.450450450450450E+07;1.311326732915541E-01;-6.390096735444685E-03;2.464278524036428E-01;8.704226680097871E-01;1.311326732915541E-01;-6.390096735444685E-03;2.464278524036428E-01;8.704226680097871E-01;
5.475475475475475E+07;1.304145869238267E-01;-5.098344585718249E-03;2.428571308766108E-01;8.724702050254793E-01;1.304145869238267E-01;-5.098344585718249E-03;2.428571308766108E-01;8.724702050254793E-01;
5.500500500500500E+07;1.296959313213892E-01;-3.494420217123713E-03;2.393256212622063E-01;8.739664487150471E-01;1.296959313213892E-01;-3.494420217123713E-03;2.393256212622063E-01;8.739664487150471E-01;
5.525525525525525E+07;1.293130013682404E-01;-2.120016103392924E-03;2.356394708019965E-01;8.754192013639315E-01;1.293130013682404E-01;-2.120016103392924E-03;2.356394708019965E-01;8.754192013639315E-01;
5.550550550550550E+07;1.288384685298124E-01;-5.462290930164401E-04;2.319302977326783E-01;8.769757190359890E-01;1.288384685298124E-01;-5.462290930164401E-04;2.319302977326783E-01;8.769757190359890E-01;
5.575575575575575E+07;1.283731079827351E-01;1.222049042357593E-03;2.280572362943627E-01;8.784795726919411E-01;1.283731079827351E-01;1.222049042357593E-03;2.280572362943627E-01;8.784795726919411E-01;
5.600600600600600E+07;1.278585184948807E-01;3.063869017038220E-03;2.245969051393945E-01;8.797489369743549E-01;1.278585184948807E-01;3.063869017038220E-03;2.245969051393945E-01;8.797489369743549E-01;
5.625625625625625E+07;1.271665643601528E-01;5.138052900436625E-03;2.209841402430592E-01;8.809593381741374E-01;1.271665643601528E-01;5.138052900436625E-03;2.209841402430592E-01;8.809593381741374E-01;
5.650650650650650E+07;1.266017696727397E-01;7.364369240413718E-03;2.172665819425162E-01;8.819530181106070E-01;1.266017696727397E-01;7.364369240413718E-03;2.172665819425162E-01;8.819530181106070E-01;
5.675675675675675E+07;1.261015946901446E-01;9.659525952883037E-03;2.137062945245194E-01;8.828242173812130E-01;1.261015946901446E-01;9.659525952883037E-03;2.137062945245194E-01;8.828242173812130E-01;
5.700700700700700E+07;1.256966478852666E-01;1.204599688616845E-02;2.101597138353730E-01;8.834614862205394E-01;1.256966478852666E-01;1.204599688616845E-02;2.101597138353730E-01;8.834614862205394E-01;
5.725725725725726E+07;1.253668356339353E-01;1.451964991607811E-02;2.064812844001339E-01;8.841111668395786E-01;1.253668356339353E-01;1.451964991607811E-02;2.064812844001339E-01;8.841111668395786E-01;
5.750750750750751E+07;1.250821547812438E-01;1.707900010796654E-02;2.027803665018681E-01;8.845513111503903E-01;1.250821547812438E-01;1.707900010796654E-02;2.027803665018681E-01;8.845513111503903E-01;
5.775775775775776E+07;1.247823496147440E-01;1.975723407119402E-02;1.993485764279971E-01;8.849685224055130E-01;1.247823496147440E-01;1.975723407119402E-02;1.993485764279971E-01;8.849685224055130E-01;
5.800800800800801E+07;1.241093134454980E-01;2.259886851278336E-02;2.017268578623775E-01;8.836218808734386E-01;1.241093134454980E-01;2.259886851278336E-02;2.017268578623775E-01;8.836218808734386E-01;
5.825825825825826E+07;1.242993265484847E-01;2.602776794540352E-02;1.978356706151113E-01;8.835334732430320E-01;1.242993265484847E-01;2.602776794540352E-02;1.978356706151113E-01;8.835334732430320E-01;
5.850850850850851E+07;1.239738163112628E-01;2.941119313978283E-02;1.942501957382016E-01;8.831811140672524E-01;1.239738163112628E-01;2.941119313978283E-02;1.942501957382016E-01;8.831811140672524E-01;
5.875875875875876E+07;1.237892211591255E-01;3.314965815977178E-02;1.903422385164815E-01;8.825958711966516E-01;1.237892211591255E-01;3.314965815977178E-02;1.903422385164815E-01;8.825958711966516E-01;
5.900900900900901E+07;1.239666418186393E-01;3.719647876604996E-02;1.862112433501044E-01;8.817726676115664E-01;1.239666418186393E-01;3.719647876604996E-02;1.862112433501044E-01;8.817726676115664E-01;
5.925925925925926E+07;1.246511494629948E-01;4.146942666364940E-02;1.817465565302808E-01;8.809450776447006E-01;1.246511494629948E-01;4.146942666364940E-02;1.817465565302808E-01;8.809450776447006E-01;
5.950950950950951E+07;1.258896090912726E-01;4.583563886624446E-02;1.768017523076802E-01;8.800570147352796E-01;1.258896090912726E-01;4.583563886624446E-02;1.768017523076802E-01;8.800570147352796E-01;
5.975975975975976E+07;1.277922629238375E-01;5.001740715388982E-02;1.715808635567357E-01;8.794905930405111E-01;1.277922629238375E-01;5.001740715388982E-02;1.715808635567357E-01;8.794905930405111E-01;
6.001001001001001E+07;1.301492313367663E-01;5.376825187698173E-02;1.660938398598093E-01;8.793817226007060E-01;1.301492313367663E-01;5.376825187698173E-02;1.660938398598093E-01;8.793817226007060E-01;
6.026026026026026E+07;1.328459842028855E-01;5.692160060078259E-02;1.605838286011909E-01;8.798868401056859E-01;1.328459842028855E-01;5.692160060078259E-02;1.605838286011909E-01;8.798868401056859E-01;
6.051051051051051E+07;1.356005985538664E-01;5.940042725305078E-02;1.551973571640659E-01;8.809011261413603E-01;1.356005985538664E-01;5.940042725305078E-02;1.551973571640659E-01;8.809011261413603E-01;
6.076076076076076E+07;1.381137621390977E-01;6.127280886382414E-02;1.503541164600200E-01;8.823771592148133E-01;1.381137621390977E-01;6.127280886382414E-02;1.503541164600200E-01;8.823771592148133E-01;
6.101101101101101E+07;1.402004004458364E-01;6.272494844816606E-02;1.458343369331616E-01;8.841097017510979E-01;1.402004004458364E-01;6.272494844816606E-02;1.458343369331616E-01;8.841097017510979E-01;
6.126126126126126E+07;1.418175973804254E-01;6.400137198631373E-02;1.419303036170308E-01;8.856677420968125E-01;1.418175973804254E-01;6.400137198631373E-02;1.419303036170308E-01;8.856677420968125E-01;
6.151151151151151E+07;1.430124461356215E-01;6.527025440019243E-02;1.383251954005387E-01;8.873030088412233E-01;1.430124461356215E-01;6.527025440019243E-02;1.383251954005387E-01;8.873030088412233E-01;
6.176176176176176E+07;1.430361439925230E-01;6.646082996580480E-02;1.353523361672427E-01;8.884847572852741E-01;1.430361439925230E-01;6.646082996580480E-02;1.353523361672427E-01;8.884847572852741E-01;
6.201201201201201E+07;1.445441470112405E-01;6.813978649289071E-02;1.318673169173624E-01;8.897358417739437E-01;1.445441470112405E-01;6.813978649289071E-02;1.318673169173624E-01;8.897358417739437E-01;
6.226226226226226E+07;1.451045668418453E-01;6.971249097669867E-02;1.289215639362711E-01;8.908436025537153E-01;1.451045668418453E-01;6.971249097669867E-02;1.289215639362711E-01;8.908436025537153E-01;
6.251251251251251E+07;1.454318377774192E-01;7.134877201019486E-02;1.262519194708324E-01;8.918469635839340E-01;1.454318377774192E-01;7.134877201019486E-02;1.262519194708324E-01;8.918469635839340E-01;
6.276276276276276E+07;1.456318848100197E-01;7.311250593380844E-02;1.236438448382182E-01;8.926195425552079E-01;1.456318848100197E-01;7.311250593380844E-02;1.236438448382182E-01;8.926195425552079E-01;
6.301301301301301E+07;1.456844415099849E-01;7.506885380164259E-02;1.210923461209373E-01;8.933002958323434E-01;1.456844415099849E-01;7.506885380164259E-02;1.210923461209373E-01;8.933002958323434E-01;
6.326326326326326E+07;1.457695910649949E-01;7.720015338369657E-02;1.186271424023258E-01;8.937584772226121E-01;1.457695910649949E-01;7.720015338369657E-02;1.186271424023258E-01;8.937584772226121E-01;
6.351351351351351E+07;1.457789131645532E-01;7.938598395178804E-02;1.160572213509151E-01;8.941510351266893E-01;1.457789131645532E-01;7.938598395178804E-02;1.160572213509151E-01;8.941510351266893E-01;
6.376376376376376E+07;1.458341291607930E-01;8.164650902973623E-02;1.137201739900819E-01;8.946397175118090E-01;1.458341291607930E-01;8.164650902973623E-02;1.137201739900819E-01;8.946397175118090E-01;
6.401401401401401E+07;1.458724671995131E-01;8.386601650526032E-02;1.113799223527304E-01;8.949655964913832E-01;1.458724671995131E-01;8.386601650526032E-02;1.113799223527304E-01;8.949655964913832E-01;
6.426426426426426E+07;1.457637196120049E-01;8.612263628043888E-02;1.094308501990710E-01;8.953758409044077E-01;1.457637196120049E-01;8.612263628043888E-02;1.094308501990710E-01;8.953758409044077E-01;
6.451451451451451E+07;1.455300096059508E-01;8.844675650086437E-02;1.073836406291491E-01;8.955550231233622E-01;1.455300096059508E-01;8.844675650086437E-02;1.073836406291491E-01;8.955550231233622E-01;
6.476476476476476E+07;1.451974591310756E-01;9.089557360292036E-02;1.058535990104678E-01;8.955948505615550E-01;1.451974591310756E-01;9.089557360292036E-02;1.058535990104678E-01;8.955948505615550E-01;
6.501501501501501E+07;1.448073121975321E-01;9.342759067576961E-02;1.039228326357067E-01;8.956011488555573E-01;1.448073121975321E-01;9.342759067576961E-02;1.039228326357067E-01;8.956011488555573E-01;
6.526526526526526E+07;1.443655697749599E-01;9.610225640085478E-02;1.020651323891417E-01;8.954462809801421E-01;1.443655697749599E-01;9.610225640085478E-02;1.020651323891417E-01;8.954462809801421E-01;
6.551551551551551E+07;1.438407911078983E-01;9.885794684923487E-02;1.005193806467743E-01;8.952184349477709E-01;1.438407911078983E-01;9.885794684923487E-02;1.005193806467743E-01;8.952184349477709E-01;
6.576576576576576E+07;1.431940151735805E-01;1.010234153075880E-01;9.119727100887184E-02;8.964293797872127E-01;1.431940151735805E-01;1.010234153075880E-01;9.119727100887184E-02;8.964293797872127E-01;
6.601601601601601E+07;1.428065930685926E-01;1.038977710826002E-01;8.954174251887910E-02;8.959604408162554E-01;1.428065930685926E-01;1.038977710826002E-01;8.954174251887910E-02;8.959604408162554E-01;
6.626626626626626E+07;1.424021570504417E-01;1.069076138815352E-01;8.766222084064471E-02;8.955277821609278E-01;1.424021570504417E-01;1.069076138815352E-01;8.766222084064471E-02;8.955277821609278E-01;
6.651651651651651E+07;1.420597371043212E-01;1.099103188035958E-01;8.572260875562521E-02;8.951231097045601E-01;1.420597371043212E-01;1.099103188035958E-01;8.572260875562521E-02;8.951231097045601E-01;
6.676676676676676E+07;1.417837122273800E-01;1.129121160240146E-01;8.362784243550593E-02;8.947421844087086E-01;1.417837122273800E-01;1.129121160240146E-01;8.362784243550593E-02;8.947421844087086E-01;
6.701701701701702E+07;1.411586006325321E-01;1.165415234095916E-01;8.285330595866029E-02;8.939126866604434E-01;1.411586006325321E-01;1.165415234095916E-01;8.285330595866029E-02;8.939126866604434E-01;
6.726726726726727E+07;1.409623484850730E-01;1.195633793780132E-01;8.099317241058858E-02;8.934747139793821E-01;1.409623484850730E-01;1.195633793780132E-01;8.099317241058858E-02;8.934747139793821E-01;
6.751751751751752E+07;1.408358586638297E-01;1.225440712454571E-01;7.907805378132873E-02;8.931299696227676E-01;1.408358586638297E-01;1.225440712454571E-01;7.907805378132873E-02;8.931299696227676E-01;
6.776776776776777E+07;1.406028535009606E-01;1.255405240359601E-01;7.710820717608578E-02;8.927741708475520E-01;1.406028535009606E-01;1.255405240359601E-01;7.710820717608578E-02;8.927741708475520E-01;
6.801801801801802E+07;1.403094054551219E-01;1.287278056846067E-01;7.498275300538625E-02;8.924922477288795E-01;1.403094054551219E-01;1.287278056846067E-01;7.498275300538625E-02;8.924922477288795E-01;
6.826826826826827E+07;1.397829551568510E-01;1.322168854877121E-01;7.320801998130071E-02;8.921795964284995E-01;1.397829551568510E-01;1.322168854877121E-01;7.320801998130071E-02;8.921795964284995E-01;
6.851851851851852E+07;1.389870334493564E-01;1.359280852385476E-01;7.166608408504624E-02;8.915931567010774E-01;1.389870334493564E-01;1.359280852385476E-01;7.166608408504624E-02;8.915931567010774E-01;
6.876876876876877E+07;1.381222041850446E-01;1.398586961921906E-01;7.437654878767089E-02;8.911713592197938E-01;1.381222041850446E-01;1.398586961921906E-01;7.437654878767089E-02;8.911713592197938E-01;
6.901901901901902E+07;1.371775844575348E-01;1.439456376609571E-01;7.386537390285466E-02;8.902085037313979E-01;1.371775844575348E-01;1.439456376609571E-01;7.386537390285466E-02;8.902085037313979E-01;
6.926926926926927E+07;1.360952902319499E-01;1.478648037701536E-01;7.414444792132310E-02;8.890122586500601E-01;1.360952902319499E-01;1.478648037701536E-01;7.414444792132310E-02;8.890122586500601E-01;
6.951951951951952E+07;1.351284459754741E-01;1.518151982694918E-01;7.462647285816831E-02;8.877367390508868E-01;1.351284459754741E-01;1.518151982694918E-01;7.462647285816831E-02;8.877367390508868E-01;
6.976976976976977E+07;1.341160485426169E-01;1.559880301380148E-01;7.509797338268839E-02;8.862992679596821E-01;1.341160485426169E-01;1.559880301380148E-01;7.509797338268839E-02;8.862992679596821E-01;
7.002002002002002E+07;1.331956887507660E-01;1.601379096384367E-01;7.533771389580743E-02;8.850042437899360E-01;1.331956887507660E-01;1.601379096384367E-01;7.533771389580743E-02;8.850042437899360E-01;
7.027027027027027E+07;1.324914587935549E-01;1.640585025303913E-01;7.537323945978812E-02;8.836570977163203E-01;1.324914587935549E-01;1.640585025303913E-01;7.537323945978812E-02;8.836570977163203E-01;
7.052052052052052E+07;1.318108666756359E-01;1.679914268901873E-01;7.526806952734068E-02;8.824303553165448E-01;1.318108666756359E-01;1.679914268901873E-01;7.526806952734068E-02;8.824303553165448E-01;
7.077077077077077E+07;1.311239596551964E-01;1.718742184330479E-01;7.509709718529244E-02;8.811658150735334E-01;1.311239596551964E-01;1.718742184330479E-01;7.509709718529244E-02;8.811658150735334E-01;
7.102102102102102E+07;1.305213384527767E-01;1.758183026075711E-01;7.489068783875298E-02;8.798620591976087E-01;1.305213384527767E-01;1.758183026075711E-01;7.489068783875298E-02;8.798620591976087E-01;
7.127127127127127E+07;1.300245762858540E-01;1.797209913534357E-01;7.479019072724057E-02;8.785141531040163E-01;1.300245762858540E-01;1.797209913534357E-01;7.479019072724057E-02;8.785141531040163E-01;
7.152152152152152E+07;1.296309287105697E-01;1.836192603549490E-01;7.440760093429753E-02;8.771150388099217E-01;1.296309287105697E-01;1.836192603549490E-01;7.440760093429753E-02;8.771150388099217E-01;
7.177177177177177E+07;1.292430692184428E-01;1.875546912128583E-01;7.402088351002392E-02;8.758057073979719E-01;1.292430692184428E-01;1.875546912128583E-01;7.402088351002392E-02;8.758057073979719E-01;
7.202202202202202E+07;1.287348637102791E-01;1.916814899289030E-01;7.357140182003029E-02;8.744116736251293E-01;1.287348637102791E-01;1.916814899289030E-01;7.357140182003029E-02;8.744116736251293E-01;
7.227227227227227E+07;1.275729660862313E-01;1.960071703431525E-01;7.344775953407728E-02;8.730242551189787E-01;1.275729660862313E-01;1.960071703431525E-01;7.344775953407728E-02;8.730242551189787E-01;
7.252252252252252E+07;1.267678591305587E-01;2.007145801113099E-01;7.340130913468654E-02;8.714258699553976E-01;1.267678591305587E-01;2.007145801113099E-01;7.340130913468654E-02;8.714258699553976E-01;
7.277277277277277E+07;1.255295357149174E-01;2.054382870318736E-01;7.412365077720856E-02;8.696732619978144E-01;1.255295357149174E-01;2.054382870318736E-01;7.412365077720856E-02;8.696732619978144E-01;
7.302302302302302E+07;1.241516778561230E-01;2.103178688488832E-01;7.526006199734309E-02;8.676076501225610E-01;1.241516778561230E-01;2.103178688488832E-01;7.526006199734309E-02;8.676076501225610E-01;
7.327327327327327E+07;1.227477432124451E-01;2.153250856854122E-01;7.672375967260296E-02;8.652853035153117E-01;1.227477432124451E-01;2.153250856854122E-01;7.672375967260296E-02;8.652853035153117E-01;
7.352352352352352E+07;1.213940621780113E-01;2.203820197582231E-01;7.851106421467365E-02;8.628705165807519E-01;1.213940621780113E-01;2.203820197582231E-01;7.851106421467365E-02;8.628705165807519E-01;
7.377377377377377E+07;1.201583496354606E-01;2.254557287531916E-01;8.046241619250918E-02;8.604500401448012E-01;1.201583496354606E-01;2.254557287531916E-01;8.046241619250918E-02;8.604500401448012E-01;
7.402402402402402E+07;1.190052058706976E-01;2.306077389310676E-01;8.232613412297284E-02;8.580021709278808E-01;1.190052058706976E-01;2.306077389310676E-01;8.232613412297284E-02;8.580021709278808E-01;
7.427427427427427E+07;1.176838621833652E-01;2.360537887314779E-01;8.403317385054722E-02;8.554880415596210E-01;1.176838621833652E-01;2.360537887314779E-01;8.403317385054722E-02;8.554880415596210E-01;
