# Version 1.00
#
# Ref Impedances: Z01: 50, Z02: 50
# 
freq[Hz];re:SMag2_S11;im:SMag2_S11;re:ZPh2_S12;im:ZPh2_S12;re:SPh2_S11;im:SPh2_S11;re:ZMag2_S12;im:ZMag2_S12;
5.000000000000000E+07;3.760130737031637E-01;8.060228300717918E-01;8.875562651902427E-02;3.145790908619098E-02;3.760130737031637E-01;8.060228300717918E-01;8.875562651902427E-02;3.145790908619098E-02;
5.025025025025025E+07;3.701445514449331E-01;8.045537136664250E-01;9.194742404054414E-02;3.763024960952589E-02;3.701445514449331E-01;8.045537136664250E-01;9.194742404054414E-02;3.763024960952589E-02;
5.050050050050050E+07;3.629432725695151E-01;8.026209145020443E-01;9.696931853137244E-02;4.399122624726148E-02;3.629432725695151E-01;8.026209145020443E-01;9.696931853137244E-02;4.399122624726148E-02;
5.075075075075075E+07;3.539201139416751E-01;8.006191348040202E-01;1.045914857071592E-01;4.952301965514750E-02;3.539201139416751E-01;8.006191348040202E-01;1.045914857071592E-01;4.952301965514750E-02;
5.100100100100100E+07;3.434674075257784E-01;7.996921598681416E-01;1.142172417173200E-01;5.270725285915855E-02;3.434674075257784E-01;7.996921598681416E-01;1.142172417173200E-01;5.270725285915855E-02;
5.125125125125125E+07;3.318018508190554E-01;8.009764951305534E-01;1.246057729260879E-01;5.334658240841576E-02;3.318018508190554E-01;8.009764951305534E-01;1.246057729260879E-01;5.334658240841576E-02;
5.150150150150150E+07;3.194894693699736E-01;8.039203051105994E-01;1.346173534108635E-01;5.055346939200461E-02;3.194894693699736E-01;8.039203051105994E-01;1.346173534108635E-01;5.055346939200461E-02;
5.175175175175175E+07;3.084487349795683E-01;8.092352027947503E-01;1.427573126470932E-01;4.506710838279353E-02;3.084487349795683E-01;8.092352027947503E-01;1.427573126470932E-01;4.506710838279353E-02;
5.200200200200200E+07;2.988503638071299E-01;8.157989383601771E-01;1.482990935099638E-01;3.838432955935776E-02;2.988503638071299E-01;8.157989383601771E-01;1.482990935099638E-01;3.838432955935776E-02;
5.225225225225225E+07;2.903319475499073E-01;8.227282334409581E-01;1.495449156832672E-01;3.103326238839973E-02;2.903319475499073E-01;8.227282334409581E-01;1.495449156832672E-01;3.103326238839973E-02;
5.250250250250250E+07;2.838341168615832E-01;8.299254739709528E-01;1.521171768676642E-01;2.511759231455092E-02;2.838341168615832E-01;8.299254739709528E-01;1.521171768676642E-01;2.511759231455092E-02;
5.275275275275275E+07;2.785581923508712E-01;8.366025959006671E-01;1.515537526238730E-01;1.975252504105202E-02;2.785581923508712E-01;8.366025959006671E-01;1.515537526238730E-01;1.975252504105202E-02;
5.300300300300300E+07;2.743187463664316E-01;8.437118204189302E-01;1.500968934055270E-01;1.535888784441637E-02;2.743187463664316E-01;8.437118204189302E-01;1.500968934055270E-01;1.535888784441637E-02;
5.325325325325325E+07;2.695497111654495E-01;8.480449251464631E-01;1.481117958640049E-01;1.200534831552904E-02;2.695497111654495E-01;8.480449251464631E-01;1.481117958640049E-01;1.200534831552904E-02;
5.350350350350350E+07;2.658607589696066E-01;8.531343620906459E-01;1.458532088573362E-01;9.553355910175018E-03;2.658607589696066E-01;8.531343620906459E-01;1.458532088573362E-01;9.553355910175018E-03;
5.375375375375375E+07;2.624622521806837E-01;8.578127924729396E-01;1.435209534071775E-01;7.790793642668039E-03;2.624622521806837E-01;8.578127924729396E-01;1.435209534071775E-01;7.790793642668039E-03;
5.400400400400400E+07;2.588600135925452E-01;8.616355019965466E-01;1.409883280893391E-01;6.548475072270245E-03;2.588600135925452E-01;8.616355019965466E-01;1.409883280893391E-01;6.548475072270245E-03;
5.425425425425425E+07;2.557459535367662E-01;8.651572828394039E-01;1.384709244016281E-01;6.054410832142526E-03;2.557459535367662E-01;8.651572828394039E-01;1.384709244016281E-01;6.054410832142526E-03;
5.450450450450450E+07;2.525685469945504E-01;8.680929139862508E-01;1.361298190130462E-01;5.934165446594755E-03;2.525685469945504E-01;8.680929139862508E-01;1.361298190130462E-01;5.934165446594755E-03;
5.475475475475475E+07;2.494923374225215E-01;8.711215992175885E-01;1.319205010768169E-01;5.441918879735113E-03;2.494923374225215E-01;8.711215992175885E-01;1.319205010768169E-01;5.441918879735113E-03;
5.500500500500500E+07;2.464394914684938E-01;8.733105917344810E-01;1.316141840747001E-01;7.144517392154489E-03;2.464394914684938E-01;8.733105917344810E-01;1.316141840747001E-01;7.144517392154489E-03;
5.525525525525525E+07;2.429674086293946E-01;8.753495363843536E-01;1.297067753189726E-01;8.222739274996208E-03;2.429674086293946E-01;8.753495363843536E-01;1.297067753189726E-01;8.222739274996208E-03;
5.550550550550550E+07;2.397594708563351E-01;8.773326727092773E-01;1.279336058356419E-01;9.492482647901503E-03;2.397594708563351E-01;8.773326727092773E-01;1.279336058356419E-01;9.492482647901503E-03;
5.575575575575575E+07;2.363760679134408E-01;8.790046908470948E-01;1.262505790433755E-01;1.100974914935236E-02;2.363760679134408E-01;8.790046908470948E-01;1.262505790433755E-01;1.100974914935236E-02;
5.600600600600600E+07;2.329834504089303E-01;8.806356474865950E-01;1.247183527156871E-01;1.273005555533062E-02;2.329834504089303E-01;8.806356474865950E-01;1.247183527156871E-01;1.273005555533062E-02;
5.625625625625625E+07;2.295030458880818E-01;8.817623098559753E-01;1.233587399174731E-01;1.450139361540960E-02;2.295030458880818E-01;8.817623098559753E-01;1.233587399174731E-01;1.450139361540960E-02;
5.650650650650650E+07;2.259511503565612E-01;8.832114528397392E-01;1.220640980955895E-01;1.652179560477484E-02;2.259511503565612E-01;8.832114528397392E-01;1.220640980955895E-01;1.652179560477484E-02;
5.675675675675675E+07;2.229974782980341E-01;8.844806522460005E-01;1.208210779718520E-01;1.866253289214368E-02;2.229974782980341E-01;8.844806522460005E-01;1.208210779718520E-01;1.866253289214368E-02;
5.700700700700700E+07;2.189066342358377E-01;8.850765809251806E-01;1.198245705536185E-01;2.096629227242077E-02;2.189066342358377E-01;8.850765809251806E-01;1.198245705536185E-01;2.096629227242077E-02;
5.725725725725726E+07;2.151342833934111E-01;8.856750238713339E-01;1.187663895113243E-01;2.333693301661159E-02;2.151342833934111E-01;8.856750238713339E-01;1.187663895113243E-01;2.333693301661159E-02;
5.750750750750751E+07;2.114302079104043E-01;8.865752454110495E-01;1.179094580262177E-01;2.588208688693316E-02;2.114302079104043E-01;8.865752454110495E-01;1.179094580262177E-01;2.588208688693316E-02;
5.775775775775776E+07;2.076535958278077E-01;8.870137878909369E-01;1.170526126481913E-01;2.843482126948013E-02;2.076535958278077E-01;8.870137878909369E-01;1.170526126481913E-01;2.843482126948013E-02;
5.800800800800801E+07;2.033993745770344E-01;8.878030009158687E-01;1.162775794559369E-01;3.116439921355096E-02;2.033993745770344E-01;8.878030009158687E-01;1.162775794559369E-01;3.116439921355096E-02;
5.825825825825826E+07;1.997066283095082E-01;8.877720407264174E-01;1.154568907704824E-01;3.420719864552561E-02;1.997066283095082E-01;8.877720407264174E-01;1.154568907704824E-01;3.420719864552561E-02;
5.850850850850851E+07;1.955851735660580E-01;8.878850847544149E-01;1.144573132240398E-01;3.719212325351422E-02;1.955851735660580E-01;8.878850847544149E-01;1.144573132240398E-01;3.719212325351422E-02;
5.875875875875876E+07;1.914492427966842E-01;8.872499887514863E-01;1.151822216904191E-01;4.052328144189270E-02;1.914492427966842E-01;8.872499887514863E-01;1.151822216904191E-01;4.052328144189270E-02;
5.900900900900901E+07;1.869577252819652E-01;8.868959430014981E-01;1.154070705479333E-01;4.439812300789051E-02;1.869577252819652E-01;8.868959430014981E-01;1.154070705479333E-01;4.439812300789051E-02;
5.925925925925926E+07;1.820569197809899E-01;8.865816289323944E-01;1.161070416773958E-01;4.821624204393208E-02;1.820569197809899E-01;8.865816289323944E-01;1.161070416773958E-01;4.821624204393208E-02;
5.950950950950951E+07;1.767735097487953E-01;8.862237991318653E-01;1.174822034720974E-01;5.208293930593140E-02;1.767735097487953E-01;8.862237991318653E-01;1.174822034720974E-01;5.208293930593140E-02;
5.975975975975976E+07;1.712784081282494E-01;8.861357549121008E-01;1.193549901789035E-01;5.559141250991515E-02;1.712784081282494E-01;8.861357549121008E-01;1.193549901789035E-01;5.559141250991515E-02;
6.001001001001001E+07;1.656172658114104E-01;8.869240944154856E-01;1.219024928860691E-01;5.869803353330003E-02;1.656172658114104E-01;8.869240944154856E-01;1.219024928860691E-01;5.869803353330003E-02;
6.026026026026026E+07;1.601676898867805E-01;8.881631089273674E-01;1.242636051047427E-01;6.063517667405930E-02;1.601676898867805E-01;8.881631089273674E-01;1.242636051047427E-01;6.063517667405930E-02;
6.051051051051051E+07;1.552986707810059E-01;8.896955802503297E-01;1.265343800585710E-01;6.205741240101364E-02;1.552986707810059E-01;8.896955802503297E-01;1.265343800585710E-01;6.205741240101364E-02;
6.076076076076076E+07;1.508653686065795E-01;8.917194019357074E-01;1.284854649093423E-01;6.292789518044799E-02;1.508653686065795E-01;8.917194019357074E-01;1.284854649093423E-01;6.292789518044799E-02;
6.101101101101101E+07;1.463489111983203E-01;8.936449019242735E-01;1.298775801134331E-01;6.362510730593164E-02;1.463489111983203E-01;8.936449019242735E-01;1.298775801134331E-01;6.362510730593164E-02;
6.126126126126126E+07;1.424461925287981E-01;8.954955000147424E-01;1.307661644433239E-01;6.415664748261790E-02;1.424461925287981E-01;8.954955000147424E-01;1.307661644433239E-01;6.415664748261790E-02;
6.151151151151151E+07;1.389475796024081E-01;8.972452159664510E-01;1.314543661292659E-01;6.478738892482279E-02;1.389475796024081E-01;8.972452159664510E-01;1.314543661292659E-01;6.478738892482279E-02;
6.176176176176176E+07;1.357214433168228E-01;8.988231730392456E-01;1.315329795973922E-01;6.541233023099061E-02;1.357214433168228E-01;8.988231730392456E-01;1.315329795973922E-01;6.541233023099061E-02;
6.201201201201201E+07;1.327649247828786E-01;9.003612115340537E-01;1.316588203949497E-01;6.623759869765429E-02;1.327649247828786E-01;9.003612115340537E-01;1.316588203949497E-01;6.623759869765429E-02;
6.226226226226226E+07;1.302366354841707E-01;9.019348644654999E-01;1.309765857859977E-01;6.697351624796857E-02;1.302366354841707E-01;9.019348644654999E-01;1.309765857859977E-01;6.697351624796857E-02;
6.251251251251251E+07;1.277115608404168E-01;9.033866031163776E-01;1.312181780527428E-01;6.798205235419429E-02;1.277115608404168E-01;9.033866031163776E-01;1.312181780527428E-01;6.798205235419429E-02;
6.276276276276276E+07;1.250114417833781E-01;9.042032486291098E-01;1.305676166715120E-01;6.907776433655631E-02;1.250114417833781E-01;9.042032486291098E-01;1.305676166715120E-01;6.907776433655631E-02;
6.301301301301301E+07;1.227209438527040E-01;9.046998641327264E-01;1.298812091043981E-01;7.033119091259041E-02;1.227209438527040E-01;9.046998641327264E-01;1.298812091043981E-01;7.033119091259041E-02;
6.326326326326326E+07;1.201685687622355E-01;9.053011329254564E-01;1.288695551726447E-01;7.098542880455767E-02;1.201685687622355E-01;9.053011329254564E-01;1.288695551726447E-01;7.098542880455767E-02;
6.351351351351351E+07;1.178388905959157E-01;9.056430579633513E-01;1.281120506762773E-01;7.264706694878008E-02;1.178388905959157E-01;9.056430579633513E-01;1.281120506762773E-01;7.264706694878008E-02;
6.376376376376376E+07;1.152655051968134E-01;9.059189985043660E-01;1.273783972581848E-01;7.462413214454464E-02;1.152655051968134E-01;9.059189985043660E-01;1.273783972581848E-01;7.462413214454464E-02;
6.401401401401401E+07;1.127934891645265E-01;9.061044823655187E-01;1.266967386101487E-01;7.657274154535744E-02;1.127934891645265E-01;9.061044823655187E-01;1.266967386101487E-01;7.657274154535744E-02;
6.426426426426426E+07;1.104632589246759E-01;9.064281014775183E-01;1.260389648417348E-01;7.860431782539884E-02;1.104632589246759E-01;9.064281014775183E-01;1.260389648417348E-01;7.860431782539884E-02;
6.451451451451451E+07;1.083696819987760E-01;9.065668848065319E-01;1.252862807036300E-01;8.061332727029905E-02;1.083696819987760E-01;9.065668848065319E-01;1.252862807036300E-01;8.061332727029905E-02;
6.476476476476476E+07;1.061566930826396E-01;9.066073468771814E-01;1.243953895029588E-01;8.280157522801596E-02;1.061566930826396E-01;9.066073468771814E-01;1.243953895029588E-01;8.280157522801596E-02;
6.501501501501501E+07;1.038642813422720E-01;9.067512502984969E-01;1.236213485757559E-01;8.497555751479484E-02;1.038642813422720E-01;9.067512502984969E-01;1.236213485757559E-01;8.497555751479484E-02;
6.526526526526526E+07;1.017349995721178E-01;9.064977822293840E-01;1.227473118473435E-01;8.725365568745941E-02;1.017349995721178E-01;9.064977822293840E-01;1.227473118473435E-01;8.725365568745941E-02;
6.551551551551551E+07;9.980875089656213E-02;9.064474696569815E-01;1.218348938810140E-01;8.961764249891765E-02;9.980875089656213E-02;9.064474696569815E-01;1.218348938810140E-01;8.961764249891765E-02;
6.576576576576576E+07;9.996932300068430E-02;9.073391307267380E-01;1.209235943185317E-01;9.219030692905116E-02;9.996932300068430E-02;9.073391307267380E-01;1.209235943185317E-01;9.219030692905116E-02;
6.601601601601601E+07;9.807321099029559E-02;9.068718420434795E-01;1.200989999147992E-01;9.456254617493086E-02;9.807321099029559E-02;9.068718420434795E-01;1.200989999147992E-01;9.456254617493086E-02;
6.626626626626626E+07;9.607445338235766E-02;9.065547279294733E-01;1.192670762187604E-01;9.706301956540551E-02;9.607445338235766E-02;9.065547279294733E-01;1.192670762187604E-01;9.706301956540551E-02;
6.651651651651651E+07;9.384619537687787E-02;9.062929745602539E-01;1.185781101094115E-01;9.943804875184895E-02;9.384619537687787E-02;9.062929745602539E-01;1.185781101094115E-01;9.943804875184895E-02;
6.676676676676676E+07;9.125710967361138E-02;9.059326297774004E-01;1.179652228466807E-01;1.018634263482894E-01;9.125710967361138E-02;9.059326297774004E-01;1.179652228466807E-01;1.018634263482894E-01;
6.701701701701702E+07;8.990360947604445E-02;9.052182167502598E-01;1.169304931670697E-01;1.048634765795562E-01;8.990360947604445E-02;9.052182167502598E-01;1.169304931670697E-01;1.048634765795562E-01;
6.726726726726727E+07;8.798106653027964E-02;9.048543103878532E-01;1.162531039592186E-01;1.071998361989812E-01;8.798106653027964E-02;9.048543103878532E-01;1.162531039592186E-01;1.071998361989812E-01;
6.751751751751752E+07;8.585305548519215E-02;9.047250841068480E-01;1.155875051631985E-01;1.097411896760365E-01;8.585305548519215E-02;9.047250841068480E-01;1.155875051631985E-01;1.097411896760365E-01;
6.776776776776777E+07;8.361620311335093E-02;9.045091208759902E-01;1.153655194551503E-01;1.124233245395826E-01;8.361620311335093E-02;9.045091208759902E-01;1.153655194551503E-01;1.124233245395826E-01;
6.801801801801802E+07;8.142551958884572E-02;9.043193485126138E-01;1.147602606136072E-01;1.148024133047930E-01;8.142551958884572E-02;9.043193485126138E-01;1.147602606136072E-01;1.148024133047930E-01;
6.826826826826827E+07;7.909206892386855E-02;9.042857236083459E-01;1.139675982909718E-01;1.173656711357574E-01;7.909206892386855E-02;9.042857236083459E-01;1.139675982909718E-01;1.173656711357574E-01;
6.851851851851852E+07;7.711042108431658E-02;9.038631984577132E-01;1.129014924076151E-01;1.201831137356310E-01;7.711042108431658E-02;9.038631984577132E-01;1.129014924076151E-01;1.201831137356310E-01;
6.876876876876877E+07;7.600208356209334E-02;9.026686940639852E-01;1.116519012691740E-01;1.230494208413266E-01;7.600208356209334E-02;9.026686940639852E-01;1.116519012691740E-01;1.230494208413266E-01;
6.901901901901902E+07;7.507502569519801E-02;9.020463996033110E-01;1.098295607932734E-01;1.261584158938377E-01;7.507502569519801E-02;9.020463996033110E-01;1.098295607932734E-01;1.261584158938377E-01;
6.926926926926927E+07;7.494917338748462E-02;9.009944578942407E-01;1.086532638880451E-01;1.294771456156435E-01;7.494917338748462E-02;9.009944578942407E-01;1.086532638880451E-01;1.294771456156435E-01;
6.951951951951952E+07;7.502744910776113E-02;8.998817977062699E-01;1.070177235286379E-01;1.326667319404641E-01;7.502744910776113E-02;8.998817977062699E-01;1.070177235286379E-01;1.326667319404641E-01;
6.976976976976977E+07;7.523682685989289E-02;8.985503483295313E-01;1.053839431295988E-01;1.359837639774069E-01;7.523682685989289E-02;8.985503483295313E-01;1.053839431295988E-01;1.359837639774069E-01;
7.002002002002002E+07;7.549460325605692E-02;8.971676222387059E-01;1.037729536161790E-01;1.393204930554875E-01;7.549460325605692E-02;8.971676222387059E-01;1.037729536161790E-01;1.393204930554875E-01;
7.027027027027027E+07;7.521066971236011E-02;8.959792206019958E-01;1.025209195146200E-01;1.424683220132786E-01;7.521066971236011E-02;8.959792206019958E-01;1.025209195146200E-01;1.424683220132786E-01;
7.052052052052052E+07;7.480654295957649E-02;8.946866290929426E-01;1.011762550078308E-01;1.456502828803539E-01;7.480654295957649E-02;8.946866290929426E-01;1.011762550078308E-01;1.456502828803539E-01;
7.077077077077077E+07;7.446849099324310E-02;8.936182086097442E-01;9.983852758249093E-02;1.487720940613197E-01;7.446849099324310E-02;8.936182086097442E-01;9.983852758249093E-02;1.487720940613197E-01;
7.102102102102102E+07;7.384338113733024E-02;8.924380380378669E-01;9.856762973035717E-02;1.519562955880805E-01;7.384338113733024E-02;8.924380380378669E-01;9.856762973035717E-02;1.519562955880805E-01;
7.127127127127127E+07;7.330287033786308E-02;8.913518203729482E-01;9.738189616679577E-02;1.551567091387856E-01;7.330287033786308E-02;8.913518203729482E-01;9.738189616679577E-02;1.551567091387856E-01;
7.152152152152152E+07;7.255487393614689E-02;8.902394987234954E-01;9.634442105202996E-02;1.583362620888658E-01;7.255487393614689E-02;8.902394987234954E-01;9.634442105202996E-02;1.583362620888658E-01;
7.177177177177177E+07;7.180451285293743E-02;8.891257568294082E-01;9.538211665287091E-02;1.615305666591081E-01;7.180451285293743E-02;8.891257568294082E-01;9.538211665287091E-02;1.615305666591081E-01;
7.202202202202202E+07;7.082949236352108E-02;8.881319943445630E-01;9.440228533220563E-02;1.648147741473876E-01;7.082949236352108E-02;8.881319943445630E-01;9.440228533220563E-02;1.648147741473876E-01;
7.227227227227227E+07;6.995568009337703E-02;8.871095388540746E-01;9.304253629460013E-02;1.682737260677344E-01;6.995568009337703E-02;8.871095388540746E-01;9.304253629460013E-02;1.682737260677344E-01;
7.252252252252252E+07;6.938323101613157E-02;8.860636230757899E-01;9.163329182690196E-02;1.718426143945964E-01;6.938323101613157E-02;8.860636230757899E-01;9.163329182690196E-02;1.718426143945964E-01;
7.277277277277277E+07;6.933787528048455E-02;8.846833619508269E-01;8.956873732981470E-02;1.754341546182945E-01;6.933787528048455E-02;8.846833619508269E-01;8.956873732981470E-02;1.754341546182945E-01;
7.302302302302302E+07;6.967167594747073E-02;8.832495814928776E-01;8.808298713495887E-02;1.794878658869898E-01;6.967167594747073E-02;8.832495814928776E-01;8.808298713495887E-02;1.794878658869898E-01;
7.327327327327327E+07;7.059303209104467E-02;8.816192857929795E-01;8.624687427791676E-02;1.834605784948716E-01;7.059303209104467E-02;8.816192857929795E-01;8.624687427791676E-02;1.834605784948716E-01;
7.352352352352352E+07;7.189253773427826E-02;8.799533337769052E-01;8.435357861917717E-02;1.874870796776175E-01;7.189253773427826E-02;8.799533337769052E-01;8.435357861917717E-02;1.874870796776175E-01;
7.377377377377377E+07;7.347204746471130E-02;8.780183920315838E-01;8.262531679413082E-02;1.915534982646428E-01;7.347204746471130E-02;8.780183920315838E-01;8.262531679413082E-02;1.915534982646428E-01;
7.402402402402402E+07;7.490741260946367E-02;8.762075481956552E-01;8.096039515127150E-02;1.956855147315140E-01;7.490741260946367E-02;8.762075481956552E-01;8.096039515127150E-02;1.956855147315140E-01;
7.427427427427427E+07;7.640448604024438E-02;8.745178243809973E-01;7.934229555506593E-02;1.998002794719602E-01;7.640448604024438E-02;8.745178243809973E-01;7.934229555506593E-02;1.998002794719602E-01;
7.452452452452452E+07;7.764519781919078E-02;8.728427532620455E-01;7.789460281074093E-02;2.040054369852218E-01;7.764519781919078E-02;8.728427532620455E-01;7.789460281074093E-02;2.040054369852218E-01;
