# Version 1.00
#
# Ref Impedances: Z01: 50, Z02: 50
# 
freq[Hz];re:ZMag1_S12;im:ZMag1_S12;re:SMag1_S11;im:SMag1_S11;re:ZPh1_S12;im:ZPh1_S12;re:SPh1_S11;im:SPh1_S11;
5.000000000000000E+07;1.068250399755916E-01;-6.092750476353580E-03;3.579286605093238E-01;8.166475747445145E-01;1.068250399755916E-01;-6.092750476353580E-03;3.579286605093238E-01;8.166475747445145E-01;
5.025025025025025E+07;1.101305038918646E-01;1.835795814995374E-04;3.520807585259647E-01;8.160364813698335E-01;1.101305038918646E-01;1.835795814995374E-04;3.520807585259647E-01;8.160364813698335E-01;
5.050050050050050E+07;1.150003265225253E-01;2.418890562095897E-03;3.450112821433076E-01;8.165787395507622E-01;1.150003265225253E-01;2.418890562095897E-03;3.450112821433076E-01;8.165787395507622E-01;
5.075075075075075E+07;1.204759710566085E-01;3.467932142083404E-03;3.369907776073557E-01;8.180507351906510E-01;1.204759710566085E-01;3.467932142083404E-03;3.369907776073557E-01;8.180507351906510E-01;
5.100100100100100E+07;1.256498217094150E-01;3.184984780720968E-03;3.289224398773238E-01;8.202257475114608E-01;1.256498217094150E-01;3.184984780720968E-03;3.289224398773238E-01;8.202257475114608E-01;
5.125125125125125E+07;1.306543719788451E-01;1.768957476659605E-03;3.209281536886766E-01;8.232651718681796E-01;1.306543719788451E-01;1.768957476659605E-03;3.209281536886766E-01;8.232651718681796E-01;
5.150150150150150E+07;1.343437319782778E-01;-5.533650981625318E-04;3.133255870409484E-01;8.272427381637877E-01;1.343437319782778E-01;-5.533650981625318E-04;3.133255870409484E-01;8.272427381637877E-01;
5.175175175175175E+07;1.369127875105677E-01;-3.185210658998015E-03;3.062826371903252E-01;8.314493018735658E-01;1.369127875105677E-01;-3.185210658998015E-03;3.062826371903252E-01;8.314493018735658E-01;
5.200200200200200E+07;1.384860530625103E-01;-5.693266844661499E-03;3.000065432474084E-01;8.357263953291505E-01;1.384860530625103E-01;-5.693266844661499E-03;3.000065432474084E-01;8.357263953291505E-01;
5.225225225225225E+07;1.392969194719136E-01;-7.849376173780424E-03;2.943776842350900E-01;8.400339171981919E-01;1.392969194719136E-01;-7.849376173780424E-03;2.943776842350900E-01;8.400339171981919E-01;
5.250250250250250E+07;1.395890016916806E-01;-9.612638448962393E-03;2.890766544235724E-01;8.441380317962406E-01;1.395890016916806E-01;-9.612638448962393E-03;2.890766544235724E-01;8.441380317962406E-01;
5.275275275275275E+07;1.395149215967575E-01;-1.089709294257319E-02;2.841735267743816E-01;8.479305974759724E-01;1.395149215967575E-01;-1.089709294257319E-02;2.841735267743816E-01;8.479305974759724E-01;
5.300300300300300E+07;1.392381309688504E-01;-1.181375707152180E-02;2.795301003431442E-01;8.516683771959371E-01;1.392381309688504E-01;-1.181375707152180E-02;2.795301003431442E-01;8.516683771959371E-01;
5.325325325325325E+07;1.387942917774099E-01;-1.234436254271160E-02;2.752275800730615E-01;8.550094332781231E-01;1.387942917774099E-01;-1.234436254271160E-02;2.752275800730615E-01;8.550094332781231E-01;
5.350350350350350E+07;1.382474154177689E-01;-1.255485567550807E-02;2.708856987480276E-01;8.581819396243672E-01;1.382474154177689E-01;-1.255485567550807E-02;2.708856987480276E-01;8.581819396243672E-01;
5.375375375375375E+07;1.365825167728542E-01;-1.277906911261603E-02;2.678688181921479E-01;8.618054874081600E-01;1.365825167728542E-01;-1.277906911261603E-02;2.678688181921479E-01;8.618054874081600E-01;
5.400400400400400E+07;1.368084476130066E-01;-1.217804197354815E-02;2.629632564006862E-01;8.639629731278259E-01;1.368084476130066E-01;-1.217804197354815E-02;2.629632564006862E-01;8.639629731278259E-01;
5.425425425425425E+07;1.360352415962344E-01;-1.154230285285965E-02;2.592914864825475E-01;8.664349446409404E-01;1.360352415962344E-01;-1.154230285285965E-02;2.592914864825475E-01;8.664349446409404E-01;
5.450450450450450E+07;1.353145724014911E-01;-1.062820029382592E-02;2.556748493247053E-01;8.687153767254080E-01;1.353145724014911E-01;-1.062820029382592E-02;2.556748493247053E-01;8.687153767254080E-01;
5.475475475475475E+07;1.345974117497075E-01;-9.450482759208409E-03;2.520149243411233E-01;8.706893395040374E-01;1.345974117497075E-01;-9.450482759208409E-03;2.520149243411233E-01;8.706893395040374E-01;
5.500500500500500E+07;1.339782832062076E-01;-8.047133918578557E-03;2.483108913284216E-01;8.726189981822182E-01;1.339782832062076E-01;-8.047133918578557E-03;2.483108913284216E-01;8.726189981822182E-01;
5.525525525525525E+07;1.334960255241825E-01;-6.462732649919894E-03;2.445876794207466E-01;8.743012998941331E-01;1.334960255241825E-01;-6.462732649919894E-03;2.445876794207466E-01;8.743012998941331E-01;
5.550550550550550E+07;1.330302149254453E-01;-4.771084159871680E-03;2.410841986841557E-01;8.759038975323084E-01;1.330302149254453E-01;-4.771084159871680E-03;2.410841986841557E-01;8.759038975323084E-01;
5.575575575575575E+07;1.326458988650014E-01;-2.894009896786653E-03;2.372188896953885E-01;8.771772385767447E-01;1.326458988650014E-01;-2.894009896786653E-03;2.372188896953885E-01;8.771772385767447E-01;
5.600600600600600E+07;1.323396816356513E-01;-9.685303577201533E-04;2.334398263561742E-01;8.783372940870809E-01;1.323396816356513E-01;-9.685303577201533E-04;2.334398263561742E-01;8.783372940870809E-01;
5.625625625625625E+07;1.321036432400184E-01;1.089997160637794E-03;2.299104779032046E-01;8.794361159102219E-01;1.321036432400184E-01;1.089997160637794E-03;2.299104779032046E-01;8.794361159102219E-01;
5.650650650650650E+07;1.319247582769306E-01;3.049887344879459E-03;2.261011013356712E-01;8.804389228217452E-01;1.319247582769306E-01;3.049887344879459E-03;2.261011013356712E-01;8.804389228217452E-01;
5.675675675675675E+07;1.317110889356168E-01;5.322307046310125E-03;2.225224116888262E-01;8.813008553822996E-01;1.317110889356168E-01;5.322307046310125E-03;2.225224116888262E-01;8.813008553822996E-01;
5.700700700700700E+07;1.315648100248820E-01;7.691407066702373E-03;2.188266188193849E-01;8.821155133099968E-01;1.315648100248820E-01;7.691407066702373E-03;2.188266188193849E-01;8.821155133099968E-01;
5.725725725725726E+07;1.314469706982973E-01;1.020568872235546E-02;2.151581372224396E-01;8.827315176110938E-01;1.314469706982973E-01;1.020568872235546E-02;2.151581372224396E-01;8.827315176110938E-01;
5.750750750750751E+07;1.313529483366390E-01;1.283622629158647E-02;2.117003038008974E-01;8.832929200740491E-01;1.313529483366390E-01;1.283622629158647E-02;2.117003038008974E-01;8.832929200740491E-01;
5.775775775775776E+07;1.309544372292242E-01;1.537356979346812E-02;2.078118507015804E-01;8.837495069170885E-01;1.309544372292242E-01;1.537356979346812E-02;2.078118507015804E-01;8.837495069170885E-01;
5.800800800800801E+07;1.315417032380406E-01;1.890162162316355E-02;2.100957976252575E-01;8.822002283815626E-01;1.315417032380406E-01;1.890162162316355E-02;2.100957976252575E-01;8.822002283815626E-01;
5.825825825825826E+07;1.315000316818696E-01;2.196713279403245E-02;2.063354462063214E-01;8.821810599260088E-01;1.315000316818696E-01;2.196713279403245E-02;2.063354462063214E-01;8.821810599260088E-01;
5.850850850850851E+07;1.315371334379760E-01;2.528612233630172E-02;2.026402995131235E-01;8.821629393060547E-01;1.315371334379760E-01;2.528612233630172E-02;2.026402995131235E-01;8.821629393060547E-01;
5.875875875875876E+07;1.318483035418972E-01;2.892239517189252E-02;1.986728031493467E-01;8.818127975551635E-01;1.318483035418972E-01;2.892239517189252E-02;1.986728031493467E-01;8.818127975551635E-01;
5.900900900900901E+07;1.322572299593095E-01;3.278735858243276E-02;1.946702873627553E-01;8.812242502137174E-01;1.322572299593095E-01;3.278735858243276E-02;1.946702873627553E-01;8.812242502137174E-01;
5.925925925925926E+07;1.332718251274605E-01;3.671171317853750E-02;1.903721418991472E-01;8.807072250332562E-01;1.332718251274605E-01;3.671171317853750E-02;1.903721418991472E-01;8.807072250332562E-01;
5.950950950950951E+07;1.347234734130931E-01;4.052565376278270E-02;1.856855655061910E-01;8.802466822604054E-01;1.347234734130931E-01;4.052565376278270E-02;1.856855655061910E-01;8.802466822604054E-01;
5.975975975975976E+07;1.365933442377241E-01;4.415353940861188E-02;1.805287992694983E-01;8.801588082649162E-01;1.365933442377241E-01;4.415353940861188E-02;1.805287992694983E-01;8.801588082649162E-01;
6.001001001001001E+07;1.387290172871047E-01;4.745547981719403E-02;1.746269491500306E-01;8.806542047788317E-01;1.387290172871047E-01;4.745547981719403E-02;1.746269491500306E-01;8.806542047788317E-01;
6.026026026026026E+07;1.410861007704324E-01;5.035683481647280E-02;1.699458278847841E-01;8.814840592739428E-01;1.410861007704324E-01;5.035683481647280E-02;1.699458278847841E-01;8.814840592739428E-01;
6.051051051051051E+07;1.434139046237329E-01;5.275826899390443E-02;1.653251079320917E-01;8.825282084113780E-01;1.434139046237329E-01;5.275826899390443E-02;1.653251079320917E-01;8.825282084113780E-01;
6.076076076076076E+07;1.456261782767784E-01;5.475949181293780E-02;1.612949156898041E-01;8.838511511756576E-01;1.456261782767784E-01;5.475949181293780E-02;1.612949156898041E-01;8.838511511756576E-01;
6.101101101101101E+07;1.479367569199320E-01;5.549437846506375E-02;1.574610114881531E-01;8.852139699612679E-01;1.479367569199320E-01;5.549437846506375E-02;1.574610114881531E-01;8.852139699612679E-01;
6.126126126126126E+07;1.495806640856690E-01;5.626154172303174E-02;1.540311712724884E-01;8.866308088695473E-01;1.495806640856690E-01;5.626154172303174E-02;1.540311712724884E-01;8.866308088695473E-01;
6.151151151151151E+07;1.500931603638375E-01;5.781390550325888E-02;1.507484842825871E-01;8.876668052309334E-01;1.500931603638375E-01;5.781390550325888E-02;1.507484842825871E-01;8.876668052309334E-01;
6.176176176176176E+07;1.509226270428949E-01;5.957636370483053E-02;1.478750375024637E-01;8.887327710879100E-01;1.509226270428949E-01;5.957636370483053E-02;1.478750375024637E-01;8.887327710879100E-01;
6.201201201201201E+07;1.513682065895594E-01;6.145197369334210E-02;1.451074228675108E-01;8.896231325149966E-01;1.513682065895594E-01;6.145197369334210E-02;1.451074228675108E-01;8.896231325149966E-01;
6.226226226226226E+07;1.517428813185182E-01;6.343708523441266E-02;1.424515248969777E-01;8.903744484459329E-01;1.517428813185182E-01;6.343708523441266E-02;1.424515248969777E-01;8.903744484459329E-01;
6.251251251251251E+07;1.519846387390847E-01;6.551070507025265E-02;1.397445278639168E-01;8.909259766947145E-01;1.519846387390847E-01;6.551070507025265E-02;1.397445278639168E-01;8.909259766947145E-01;
6.276276276276276E+07;1.521242063055676E-01;6.770136900302814E-02;1.373385626550433E-01;8.914664842811441E-01;1.521242063055676E-01;6.770136900302814E-02;1.373385626550433E-01;8.914664842811441E-01;
6.301301301301301E+07;1.521692706174484E-01;7.006285222771030E-02;1.349961474388710E-01;8.918446989041398E-01;1.521692706174484E-01;7.006285222771030E-02;1.349961474388710E-01;8.918446989041398E-01;
6.326326326326326E+07;1.521946759081981E-01;7.257070828875267E-02;1.326283075479485E-01;8.920995408463158E-01;1.521946759081981E-01;7.257070828875267E-02;1.326283075479485E-01;8.920995408463158E-01;
6.351351351351351E+07;1.522482370270180E-01;7.519166631814397E-02;1.303041758061285E-01;8.922450821439807E-01;1.522482370270180E-01;7.519166631814397E-02;1.303041758061285E-01;8.922450821439807E-01;
6.376376376376376E+07;1.523472553762320E-01;7.789236902090585E-02;1.281059619590584E-01;8.922836164297395E-01;1.523472553762320E-01;7.789236902090585E-02;1.281059619590584E-01;8.922836164297395E-01;
6.401401401401401E+07;1.524348414334973E-01;8.066099183915300E-02;1.258610778525579E-01;8.923584028358513E-01;1.524348414334973E-01;8.066099183915300E-02;1.258610778525579E-01;8.923584028358513E-01;
6.426426426426426E+07;1.524980473631916E-01;8.344335685011922E-02;1.236680509115315E-01;8.923688049253221E-01;1.524980473631916E-01;8.344335685011922E-02;1.236680509115315E-01;8.923688049253221E-01;
6.451451451451451E+07;1.525337249373737E-01;8.624383921078266E-02;1.213486462896583E-01;8.922766289775190E-01;1.525337249373737E-01;8.624383921078266E-02;1.213486462896583E-01;8.922766289775190E-01;
6.476476476476476E+07;1.524626864764481E-01;8.909809086155986E-02;1.194275147441964E-01;8.922071704453759E-01;1.524626864764481E-01;8.909809086155986E-02;1.194275147441964E-01;8.922071704453759E-01;
6.501501501501501E+07;1.523328553125266E-01;9.206968249825445E-02;1.176062135061094E-01;8.920990962528285E-01;1.523328553125266E-01;9.206968249825445E-02;1.176062135061094E-01;8.920990962528285E-01;
6.526526526526526E+07;1.517959526011354E-01;9.506922934572386E-02;1.160489515944754E-01;8.917640113964459E-01;1.517959526011354E-01;9.506922934572386E-02;1.160489515944754E-01;8.917640113964459E-01;
6.551551551551551E+07;1.520601165090389E-01;9.829692128369105E-02;1.141446964820305E-01;8.914953965513005E-01;1.520601165090389E-01;9.829692128369105E-02;1.141446964820305E-01;8.914953965513005E-01;
6.576576576576576E+07;1.523481093628288E-01;1.015283229073896E-01;1.052699530150903E-01;8.927049835641224E-01;1.523481093628288E-01;1.015283229073896E-01;1.052699530150903E-01;8.927049835641224E-01;
6.601601601601601E+07;1.522963048359031E-01;1.047111103343382E-01;1.036838737885487E-01;8.922259432748975E-01;1.522963048359031E-01;1.047111103343382E-01;1.036838737885487E-01;8.922259432748975E-01;
6.626626626626626E+07;1.522235961416628E-01;1.080382847004541E-01;1.019900491451243E-01;8.917742674750732E-01;1.522235961416628E-01;1.080382847004541E-01;1.019900491451243E-01;8.917742674750732E-01;
6.651651651651651E+07;1.521999382648926E-01;1.112836616986934E-01;1.002248237791215E-01;8.913289396515419E-01;1.521999382648926E-01;1.112836616986934E-01;1.002248237791215E-01;8.913289396515419E-01;
6.676676676676676E+07;1.522173628107512E-01;1.145272634087310E-01;9.836394333279887E-02;8.908879167231593E-01;1.522173628107512E-01;1.145272634087310E-01;9.836394333279887E-02;8.908879167231593E-01;
6.701701701701702E+07;1.519505467384595E-01;1.184409389981424E-01;9.775307203728513E-02;8.900982072176701E-01;1.519505467384595E-01;1.184409389981424E-01;9.775307203728513E-02;8.900982072176701E-01;
6.726726726726727E+07;1.520365632871084E-01;1.217131340923497E-01;9.615299741346113E-02;8.896259166262845E-01;1.520365632871084E-01;1.217131340923497E-01;9.615299741346113E-02;8.896259166262845E-01;
6.751751751751752E+07;1.521976835613833E-01;1.248914664993016E-01;9.457154307589649E-02;8.891900064257244E-01;1.521976835613833E-01;1.248914664993016E-01;9.457154307589649E-02;8.891900064257244E-01;
6.776776776776777E+07;1.522899690956726E-01;1.281054884887007E-01;9.289015298952698E-02;8.887938048590838E-01;1.522899690956726E-01;1.281054884887007E-01;9.289015298952698E-02;8.887938048590838E-01;
6.801801801801802E+07;1.523055296784499E-01;1.314717605033069E-01;9.113192739725851E-02;8.883896209765855E-01;1.523055296784499E-01;1.314717605033069E-01;9.113192739725851E-02;8.883896209765855E-01;
6.826826826826827E+07;1.519411553818541E-01;1.350798767262425E-01;8.961065264699862E-02;8.879347470206436E-01;1.519411553818541E-01;1.350798767262425E-01;8.961065264699862E-02;8.879347470206436E-01;
6.851851851851852E+07;1.518012826256220E-01;1.390691195534318E-01;8.824444309792523E-02;8.872989160731902E-01;1.518012826256220E-01;1.390691195534318E-01;8.824444309792523E-02;8.872989160731902E-01;
6.876876876876877E+07;1.509868616192224E-01;1.431344160368757E-01;9.145238725425604E-02;8.865915828169965E-01;1.509868616192224E-01;1.431344160368757E-01;9.145238725425604E-02;8.865915828169965E-01;
6.901901901901902E+07;1.502185369572829E-01;1.474398871220721E-01;9.149242452187278E-02;8.854132690457297E-01;1.502185369572829E-01;1.474398871220721E-01;9.149242452187278E-02;8.854132690457297E-01;
6.926926926926927E+07;1.492988884139938E-01;1.518604200127298E-01;9.212174613557850E-02;8.839831928599087E-01;1.492988884139938E-01;1.518604200127298E-01;9.212174613557850E-02;8.839831928599087E-01;
6.951951951951952E+07;1.483174738625273E-01;1.563668541820607E-01;9.292947579958480E-02;8.823186945921404E-01;1.483174738625273E-01;1.563668541820607E-01;9.292947579958480E-02;8.823186945921404E-01;
6.976976976976977E+07;1.473388742979173E-01;1.609780072585762E-01;9.395938142442435E-02;8.804998218286545E-01;1.473388742979173E-01;1.609780072585762E-01;9.395938142442435E-02;8.804998218286545E-01;
7.002002002002002E+07;1.464668556689257E-01;1.656466278496271E-01;9.455070961762896E-02;8.787417657525699E-01;1.464668556689257E-01;1.656466278496271E-01;9.455070961762896E-02;8.787417657525699E-01;
7.027027027027027E+07;1.458821441965542E-01;1.701871757030407E-01;9.487614483373660E-02;8.770045141051278E-01;1.458821441965542E-01;1.701871757030407E-01;9.487614483373660E-02;8.770045141051278E-01;
7.052052052052052E+07;1.454488938141679E-01;1.747014017358303E-01;9.514188600710345E-02;8.753735748271622E-01;1.454488938141679E-01;1.747014017358303E-01;9.514188600710345E-02;8.753735748271622E-01;
7.077077077077077E+07;1.451041164337672E-01;1.792044876181703E-01;9.526795398759279E-02;8.737629478038029E-01;1.451041164337672E-01;1.792044876181703E-01;9.526795398759279E-02;8.737629478038029E-01;
7.102102102102102E+07;1.448144989247168E-01;1.836829522734164E-01;9.538815097929872E-02;8.720831675775196E-01;1.448144989247168E-01;1.836829522734164E-01;9.538815097929872E-02;8.720831675775196E-01;
7.127127127127127E+07;1.446610527346145E-01;1.881935437999972E-01;9.541769164044002E-02;8.704592679725379E-01;1.446610527346145E-01;1.881935437999972E-01;9.541769164044002E-02;8.704592679725379E-01;
7.152152152152152E+07;1.446529624123883E-01;1.927205520554887E-01;9.556306405896017E-02;8.687815675657113E-01;1.446529624123883E-01;1.927205520554887E-01;9.556306405896017E-02;8.687815675657113E-01;
7.177177177177177E+07;1.446885143602889E-01;1.972708264432466E-01;9.561422821575576E-02;8.671141885941401E-01;1.446885143602889E-01;1.972708264432466E-01;9.561422821575576E-02;8.671141885941401E-01;
7.202202202202202E+07;1.446625087045529E-01;2.019925347160560E-01;9.542695803938626E-02;8.654879873380472E-01;1.446625087045529E-01;2.019925347160560E-01;9.542695803938626E-02;8.654879873380472E-01;
7.227227227227227E+07;1.442452354652476E-01;2.071656107070842E-01;9.561595930777379E-02;8.637558642789870E-01;1.442452354652476E-01;2.071656107070842E-01;9.561595930777379E-02;8.637558642789870E-01;
7.252252252252252E+07;1.437356417579709E-01;2.124564779257148E-01;9.616348150864243E-02;8.619344951070111E-01;1.437356417579709E-01;2.124564779257148E-01;9.616348150864243E-02;8.619344951070111E-01;
7.277277277277277E+07;1.430389593000513E-01;2.179379746040264E-01;9.742181456796006E-02;8.597432152134367E-01;1.430389593000513E-01;2.179379746040264E-01;9.742181456796006E-02;8.597432152134367E-01;
7.302302302302302E+07;1.422915225956223E-01;2.236027353821112E-01;9.910690740985262E-02;8.574938954183765E-01;1.422915225956223E-01;2.236027353821112E-01;9.910690740985262E-02;8.574938954183765E-01;
7.327327327327327E+07;1.415191199376548E-01;2.293352331264585E-01;1.014631820402427E-01;8.548175057720626E-01;1.415191199376548E-01;2.293352331264585E-01;1.014631820402427E-01;8.548175057720626E-01;
7.352352352352352E+07;1.408381457339782E-01;2.350809172460982E-01;1.040888376558489E-01;8.519691880844860E-01;1.408381457339782E-01;2.350809172460982E-01;1.040888376558489E-01;8.519691880844860E-01;
7.377377377377377E+07;1.403104061946369E-01;2.408934235920573E-01;1.067991671311370E-01;8.489507888149397E-01;1.403104061946369E-01;2.408934235920573E-01;1.067991671311370E-01;8.489507888149397E-01;
7.402402402402402E+07;1.399272189806159E-01;2.467540681228202E-01;1.092483330567736E-01;8.460397211291091E-01;1.399272189806159E-01;2.467540681228202E-01;1.092483330567736E-01;8.460397211291091E-01;
7.427427427427427E+07;1.396580229489438E-01;2.526590929693202E-01;1.117630338876927E-01;8.429236630650148E-01;1.396580229489438E-01;2.526590929693202E-01;1.117630338876927E-01;8.429236630650148E-01;
