# Version 1.00
#
# Ref Impedances: Z01: 50, Z02: 50
# 
freq[Hz];re:SMag2_S11;im:SMag2_S11;re:ZPh2_S12;im:ZPh2_S12;re:SPh2_S11;im:SPh2_S11;re:ZMag2_S12;im:ZMag2_S12;
5.000000000000000E+07;3.606740137236614E-01;8.137414300778794E-01;1.096236213272846E-01;2.065238942847230E-03;3.606740137236614E-01;8.137414300778794E-01;1.096236213272846E-01;2.065238942847230E-03;
5.025025025025025E+07;3.526373376903456E-01;8.148597520795571E-01;1.151525322120140E-01;3.856912551033247E-03;3.526373376903456E-01;8.148597520795571E-01;1.151525322120140E-01;3.856912551033247E-03;
5.050050050050050E+07;3.445651262290431E-01;8.167105993101995E-01;1.210602210194614E-01;4.397478223956704E-03;3.445651262290431E-01;8.167105993101995E-01;1.210602210194614E-01;4.397478223956704E-03;
5.075075075075075E+07;3.362065386379522E-01;8.194430437198583E-01;1.268184651480490E-01;3.406553836806611E-03;3.362065386379522E-01;8.194430437198583E-01;1.268184651480490E-01;3.406553836806611E-03;
5.100100100100100E+07;3.283504322742251E-01;8.256353919420265E-01;1.303710733846132E-01;-1.510623022528749E-03;3.283504322742251E-01;8.256353919420265E-01;1.303710733846132E-01;-1.510623022528749E-03;
5.125125125125125E+07;3.204184384553923E-01;8.273133756748307E-01;1.354147405402397E-01;-1.843964297606521E-03;3.204184384553923E-01;8.273133756748307E-01;1.354147405402397E-01;-1.843964297606521E-03;
5.150150150150150E+07;3.135437632237265E-01;8.320330705588118E-01;1.375483088528586E-01;-4.963266957832502E-03;3.135437632237265E-01;8.320330705588118E-01;1.375483088528586E-01;-4.963266957832502E-03;
5.175175175175175E+07;3.071803067297002E-01;8.367482373405121E-01;1.395533998059540E-01;-8.017202170278610E-03;3.071803067297002E-01;8.367482373405121E-01;1.395533998059540E-01;-8.017202170278610E-03;
5.200200200200200E+07;3.015461862121718E-01;8.413871183672051E-01;1.402190515028931E-01;-1.072782289963563E-02;3.015461862121718E-01;8.413871183672051E-01;1.402190515028931E-01;-1.072782289963563E-02;
5.225225225225225E+07;2.963102205083052E-01;8.456949832133650E-01;1.402856131140938E-01;-1.285249603974991E-02;2.963102205083052E-01;8.456949832133650E-01;1.402856131140938E-01;-1.285249603974991E-02;
5.250250250250250E+07;2.919763398192453E-01;8.499746464837268E-01;1.400984835649411E-01;-1.443264946171358E-02;2.919763398192453E-01;8.499746464837268E-01;1.400984835649411E-01;-1.443264946171358E-02;
5.275275275275275E+07;2.877725705520032E-01;8.532011872943506E-01;1.395323337615115E-01;-1.546956661739613E-02;2.877725705520032E-01;8.532011872943506E-01;1.395323337615115E-01;-1.546956661739613E-02;
5.300300300300300E+07;2.832857367695917E-01;8.561365552420166E-01;1.388936819155799E-01;-1.618397056785102E-02;2.832857367695917E-01;8.561365552420166E-01;1.388936819155799E-01;-1.618397056785102E-02;
5.325325325325325E+07;2.790869623720227E-01;8.595801502813851E-01;1.381527151039513E-01;-1.640158603205151E-02;2.790869623720227E-01;8.595801502813851E-01;1.381527151039513E-01;-1.640158603205151E-02;
5.350350350350350E+07;2.750549128197282E-01;8.626311060916845E-01;1.373291339912394E-01;-1.632333175376968E-02;2.750549128197282E-01;8.626311060916845E-01;1.373291339912394E-01;-1.632333175376968E-02;
5.375375375375375E+07;2.709337406507663E-01;8.657036805337350E-01;1.366816801301500E-01;-1.491561033513489E-02;2.709337406507663E-01;8.657036805337350E-01;1.366816801301500E-01;-1.491561033513489E-02;
5.400400400400400E+07;2.670594067155500E-01;8.685295491036432E-01;1.360641318974092E-01;-1.426311310234579E-02;2.670594067155500E-01;8.685295491036432E-01;1.360641318974092E-01;-1.426311310234579E-02;
5.425425425425425E+07;2.632392110796895E-01;8.712270004342242E-01;1.352656596652274E-01;-1.350454410257589E-02;2.632392110796895E-01;8.712270004342242E-01;1.352656596652274E-01;-1.350454410257589E-02;
5.450450450450450E+07;2.597346463928379E-01;8.736212437189373E-01;1.345906285098633E-01;-1.255891045172013E-02;2.597346463928379E-01;8.736212437189373E-01;1.345906285098633E-01;-1.255891045172013E-02;
5.475475475475475E+07;2.559001151499669E-01;8.756644601883953E-01;1.338449527460368E-01;-1.132315931948730E-02;2.559001151499669E-01;8.756644601883953E-01;1.338449527460368E-01;-1.132315931948730E-02;
5.500500500500500E+07;2.527124856849312E-01;8.778249914928494E-01;1.324724057971706E-01;-1.009149961496673E-02;2.527124856849312E-01;8.778249914928494E-01;1.324724057971706E-01;-1.009149961496673E-02;
5.525525525525525E+07;2.485933355411509E-01;8.793706561487543E-01;1.327378121273254E-01;-8.419377091749196E-03;2.485933355411509E-01;8.793706561487543E-01;1.327378121273254E-01;-8.419377091749196E-03;
5.550550550550550E+07;2.449182848054643E-01;8.809869909818300E-01;1.323209246581365E-01;-6.688254707953160E-03;2.449182848054643E-01;8.809869909818300E-01;1.323209246581365E-01;-6.688254707953160E-03;
5.575575575575575E+07;2.412445569829308E-01;8.825552527795212E-01;1.319505212576882E-01;-4.809336215841664E-03;2.412445569829308E-01;8.825552527795212E-01;1.319505212576882E-01;-4.809336215841664E-03;
5.600600600600600E+07;2.375060328592225E-01;8.837053350395946E-01;1.317455519577841E-01;-2.872292603344582E-03;2.375060328592225E-01;8.837053350395946E-01;1.317455519577841E-01;-2.872292603344582E-03;
5.625625625625625E+07;2.336225453158439E-01;8.850596074151834E-01;1.315517691241548E-01;-7.440583076616614E-04;2.336225453158439E-01;8.850596074151834E-01;1.315517691241548E-01;-7.440583076616614E-04;
5.650650650650650E+07;2.299628662858869E-01;8.859691374087370E-01;1.314169057314177E-01;1.382735568838199E-03;2.299628662858869E-01;8.859691374087370E-01;1.314169057314177E-01;1.382735568838199E-03;
5.675675675675675E+07;2.262577520997846E-01;8.870698190212819E-01;1.311949427234452E-01;3.632175857236939E-03;2.262577520997846E-01;8.870698190212819E-01;1.311949427234452E-01;3.632175857236939E-03;
5.700700700700700E+07;2.226409864072687E-01;8.878727662787360E-01;1.311331373760570E-01;6.100781349319359E-03;2.226409864072687E-01;8.878727662787360E-01;1.311331373760570E-01;6.100781349319359E-03;
5.725725725725726E+07;2.187901016605970E-01;8.884993014186727E-01;1.310980290888875E-01;8.592616577308306E-03;2.187901016605970E-01;8.884993014186727E-01;1.310980290888875E-01;8.592616577308306E-03;
5.750750750750751E+07;2.152395462858254E-01;8.891944755515758E-01;1.311391842626661E-01;1.127635368131588E-02;2.152395462858254E-01;8.891944755515758E-01;1.311391842626661E-01;1.127635368131588E-02;
5.775775775775776E+07;2.113882406846573E-01;8.898939728739981E-01;1.312230723737006E-01;1.398318795316762E-02;2.113882406846573E-01;8.898939728739981E-01;1.312230723737006E-01;1.398318795316762E-02;
5.800800800800801E+07;2.075290308103368E-01;8.901238042090076E-01;1.314113982707943E-01;1.716133127038635E-02;2.075290308103368E-01;8.901238042090076E-01;1.314113982707943E-01;1.716133127038635E-02;
5.825825825825826E+07;2.034809599466739E-01;8.902424565509356E-01;1.314940383364490E-01;2.018623407646702E-02;2.034809599466739E-01;8.902424565509356E-01;1.314940383364490E-01;2.018623407646702E-02;
5.850850850850851E+07;1.999149317240493E-01;8.901185138606506E-01;1.317007430496854E-01;2.344671117009602E-02;1.999149317240493E-01;8.901185138606506E-01;1.317007430496854E-01;2.344671117009602E-02;
5.875875875875876E+07;1.961603664006524E-01;8.900315956863176E-01;1.315279039464819E-01;2.673656443652683E-02;1.961603664006524E-01;8.900315956863176E-01;1.315279039464819E-01;2.673656443652683E-02;
5.900900900900901E+07;1.917673461641503E-01;8.895628121594096E-01;1.327541484180771E-01;3.085555324517296E-02;1.917673461641503E-01;8.895628121594096E-01;1.327541484180771E-01;3.085555324517296E-02;
5.925925925925926E+07;1.872750737517956E-01;8.890815658775121E-01;1.339189965450023E-01;3.488007020788030E-02;1.872750737517956E-01;8.890815658775121E-01;1.339189965450023E-01;3.488007020788030E-02;
5.950950950950951E+07;1.824260572003645E-01;8.888385109605299E-01;1.355280122841259E-01;3.862293608354989E-02;1.824260572003645E-01;8.888385109605299E-01;1.355280122841259E-01;3.862293608354989E-02;
5.975975975975976E+07;1.774687512517149E-01;8.888268747624521E-01;1.376612188451055E-01;4.228645506201136E-02;1.774687512517149E-01;8.888268747624521E-01;1.376612188451055E-01;4.228645506201136E-02;
6.001001001001001E+07;1.724924099548728E-01;8.890065140311701E-01;1.401090102459567E-01;4.540359139119090E-02;1.724924099548728E-01;8.890065140311701E-01;1.401090102459567E-01;4.540359139119090E-02;
6.026026026026026E+07;1.677291891534622E-01;8.898582398232873E-01;1.427546875116089E-01;4.793615314976484E-02;1.677291891534622E-01;8.898582398232873E-01;1.427546875116089E-01;4.793615314976484E-02;
6.051051051051051E+07;1.629954809170715E-01;8.909433111370695E-01;1.452168245666517E-01;4.995748004987290E-02;1.629954809170715E-01;8.909433111370695E-01;1.452168245666517E-01;4.995748004987290E-02;
6.076076076076076E+07;1.587209617758430E-01;8.922283844512064E-01;1.474351848256787E-01;5.147052193910124E-02;1.587209617758430E-01;8.922283844512064E-01;1.474351848256787E-01;5.147052193910124E-02;
6.101101101101101E+07;1.549525783212823E-01;8.936771605941936E-01;1.491369140307809E-01;5.280671083571859E-02;1.549525783212823E-01;8.936771605941936E-01;1.491369140307809E-01;5.280671083571859E-02;
6.126126126126126E+07;1.511569344781413E-01;8.950977000611816E-01;1.504123014560677E-01;5.412471010793237E-02;1.511569344781413E-01;8.950977000611816E-01;1.504123014560677E-01;5.412471010793237E-02;
6.151151151151151E+07;1.479777186700953E-01;8.964183064411306E-01;1.513779922142553E-01;5.553799164280284E-02;1.479777186700953E-01;8.964183064411306E-01;1.513779922142553E-01;5.553799164280284E-02;
6.176176176176176E+07;1.450904606866598E-01;8.974920565967066E-01;1.520459313778917E-01;5.708206575487771E-02;1.450904606866598E-01;8.974920565967066E-01;1.520459313778917E-01;5.708206575487771E-02;
6.201201201201201E+07;1.421937480445829E-01;8.983924213698868E-01;1.526174199186426E-01;5.876909149131118E-02;1.421937480445829E-01;8.983924213698868E-01;1.526174199186426E-01;5.876909149131118E-02;
6.226226226226226E+07;1.397855887653175E-01;8.992929023897291E-01;1.530123773671651E-01;6.050764882852280E-02;1.397855887653175E-01;8.992929023897291E-01;1.530123773671651E-01;6.050764882852280E-02;
6.251251251251251E+07;1.374938783888968E-01;9.000338722045104E-01;1.527423113336732E-01;6.230233183494626E-02;1.374938783888968E-01;9.000338722045104E-01;1.527423113336732E-01;6.230233183494626E-02;
6.276276276276276E+07;1.349777682104601E-01;9.004469761657978E-01;1.533823469867401E-01;6.436965422738299E-02;1.349777682104601E-01;9.004469761657978E-01;1.533823469867401E-01;6.436965422738299E-02;
6.301301301301301E+07;1.328119679176353E-01;9.008383442353258E-01;1.533470250698434E-01;6.655450678381995E-02;1.328119679176353E-01;9.008383442353258E-01;1.533470250698434E-01;6.655450678381995E-02;
6.326326326326326E+07;1.304878985122629E-01;9.010882075384146E-01;1.529039411534198E-01;6.864170164333791E-02;1.304878985122629E-01;9.010882075384146E-01;1.529039411534198E-01;6.864170164333791E-02;
6.351351351351351E+07;1.280836257273875E-01;9.011912093691175E-01;1.527072577146447E-01;7.123172633801124E-02;1.280836257273875E-01;9.011912093691175E-01;1.527072577146447E-01;7.123172633801124E-02;
6.376376376376376E+07;1.259731079478678E-01;9.011544006751602E-01;1.527419203142735E-01;7.398411848115265E-02;1.259731079478678E-01;9.011544006751602E-01;1.527419203142735E-01;7.398411848115265E-02;
6.401401401401401E+07;1.237293538958530E-01;9.012530599269943E-01;1.528808912185351E-01;7.670449476958810E-02;1.237293538958530E-01;9.012530599269943E-01;1.528808912185351E-01;7.670449476958810E-02;
6.426426426426426E+07;1.216104816980597E-01;9.011798619881531E-01;1.529467578513065E-01;7.949453158581718E-02;1.216104816980597E-01;9.011798619881531E-01;1.529467578513065E-01;7.949453158581718E-02;
6.451451451451451E+07;1.195728219585965E-01;9.009653179015005E-01;1.530191381666175E-01;8.239359431235936E-02;1.195728219585965E-01;9.009653179015005E-01;1.530191381666175E-01;8.239359431235936E-02;
6.476476476476476E+07;1.178427637380681E-01;9.008080313917202E-01;1.530646648421384E-01;8.525746216878657E-02;1.178427637380681E-01;9.008080313917202E-01;1.530646648421384E-01;8.525746216878657E-02;
6.501501501501501E+07;1.157597641945069E-01;9.006402066602716E-01;1.529399486791763E-01;8.823673992721723E-02;1.157597641945069E-01;9.006402066602716E-01;1.529399486791763E-01;8.823673992721723E-02;
6.526526526526526E+07;1.140683620521742E-01;9.003526500739824E-01;1.528989899090885E-01;9.129050500895193E-02;1.140683620521742E-01;9.003526500739824E-01;1.528989899090885E-01;9.129050500895193E-02;
6.551551551551551E+07;1.124667750763378E-01;8.999568238612912E-01;1.527899580898546E-01;9.441126219514019E-02;1.124667750763378E-01;8.999568238612912E-01;1.527899580898546E-01;9.441126219514019E-02;
6.576576576576576E+07;1.131526917939878E-01;9.004537338198777E-01;1.529760711969079E-01;9.752626847942397E-02;1.131526917939878E-01;9.004537338198777E-01;1.529760711969079E-01;9.752626847942397E-02;
6.601601601601601E+07;1.117513580284736E-01;8.998901360960486E-01;1.530342646799801E-01;1.005759868813897E-01;1.117513580284736E-01;8.998901360960486E-01;1.530342646799801E-01;1.005759868813897E-01;
6.626626626626626E+07;1.100690208483738E-01;8.993831763169944E-01;1.529885291155501E-01;1.038592140226558E-01;1.100690208483738E-01;8.993831763169944E-01;1.529885291155501E-01;1.038592140226558E-01;
6.651651651651651E+07;1.083279895405466E-01;8.988675798293275E-01;1.529117023753249E-01;1.070887787087243E-01;1.083279895405466E-01;8.988675798293275E-01;1.529117023753249E-01;1.070887787087243E-01;
6.676676676676676E+07;1.065551187802920E-01;8.982919606472426E-01;1.529065105227247E-01;1.100350379830737E-01;1.065551187802920E-01;8.982919606472426E-01;1.529065105227247E-01;1.100350379830737E-01;
6.701701701701702E+07;1.060114109688684E-01;8.971994206653809E-01;1.526742083592291E-01;1.138947706847204E-01;1.060114109688684E-01;8.971994206653809E-01;1.526742083592291E-01;1.138947706847204E-01;
6.726726726726727E+07;1.045800135250672E-01;8.966314885923614E-01;1.527957648200967E-01;1.172169698353957E-01;1.045800135250672E-01;8.966314885923614E-01;1.527957648200967E-01;1.172169698353957E-01;
6.751751751751752E+07;1.028970868526726E-01;8.960316834911040E-01;1.529834194468334E-01;1.204798601311482E-01;1.028970868526726E-01;8.960316834911040E-01;1.529834194468334E-01;1.204798601311482E-01;
6.776776776776777E+07;1.012557113800244E-01;8.954644868677266E-01;1.530403400719187E-01;1.237665095128055E-01;1.012557113800244E-01;8.954644868677266E-01;1.530403400719187E-01;1.237665095128055E-01;
6.801801801801802E+07;9.952908539751512E-02;8.949269372660813E-01;1.531229012243199E-01;1.272264808121322E-01;9.952908539751512E-02;8.949269372660813E-01;1.531229012243199E-01;1.272264808121322E-01;
6.826826826826827E+07;9.797954462462113E-02;8.942712529861147E-01;1.529786181102395E-01;1.309797269814534E-01;9.797954462462113E-02;8.942712529861147E-01;1.529786181102395E-01;1.309797269814534E-01;
6.851851851851852E+07;9.663646092006466E-02;8.934319935296309E-01;1.526957137436188E-01;1.350949247920701E-01;9.663646092006466E-02;8.934319935296309E-01;1.526957137436188E-01;1.350949247920701E-01;
6.876876876876877E+07;9.638282404558808E-02;8.918345357154209E-01;1.519514643605414E-01;1.393146558954453E-01;9.638282404558808E-02;8.918345357154209E-01;1.519514643605414E-01;1.393146558954453E-01;
6.901901901901902E+07;9.648643983556063E-02;8.905294113265276E-01;1.513326514496484E-01;1.438474311735614E-01;9.648643983556063E-02;8.905294113265276E-01;1.513326514496484E-01;1.438474311735614E-01;
6.926926926926927E+07;9.729252375055535E-02;8.889184675802146E-01;1.504109197590808E-01;1.483938446836705E-01;9.729252375055535E-02;8.889184675802146E-01;1.504109197590808E-01;1.483938446836705E-01;
6.951951951951952E+07;9.796661697735347E-02;8.872615278593688E-01;1.498271545829516E-01;1.530903099450209E-01;9.796661697735347E-02;8.872615278593688E-01;1.498271545829516E-01;1.530903099450209E-01;
6.976976976976977E+07;9.910707285430946E-02;8.855064881786414E-01;1.491284827441853E-01;1.576859341449899E-01;9.910707285430946E-02;8.855064881786414E-01;1.491284827441853E-01;1.576859341449899E-01;
7.002002002002002E+07;9.975729683603916E-02;8.836552561730135E-01;1.485634860990708E-01;1.624340810949787E-01;9.975729683603916E-02;8.836552561730135E-01;1.485634860990708E-01;1.624340810949787E-01;
7.027027027027027E+07;1.001958096009092E-01;8.818841489633427E-01;1.481245022318975E-01;1.669332884502524E-01;1.001958096009092E-01;8.818841489633427E-01;1.481245022318975E-01;1.669332884502524E-01;
7.052052052052052E+07;1.005046321447847E-01;8.802128729006160E-01;1.479524276675342E-01;1.714184365796161E-01;1.005046321447847E-01;8.802128729006160E-01;1.479524276675342E-01;1.714184365796161E-01;
7.077077077077077E+07;1.008595055879114E-01;8.785759953460510E-01;1.477450470388117E-01;1.758715675656236E-01;1.008595055879114E-01;8.785759953460510E-01;1.477450470388117E-01;1.758715675656236E-01;
7.102102102102102E+07;1.009057473000489E-01;8.769092324185903E-01;1.476747782393945E-01;1.802626299886749E-01;1.009057473000489E-01;8.769092324185903E-01;1.476747782393945E-01;1.802626299886749E-01;
7.127127127127127E+07;1.012017853944114E-01;8.752039338974864E-01;1.476790273069221E-01;1.846871666951890E-01;1.012017853944114E-01;8.752039338974864E-01;1.476790273069221E-01;1.846871666951890E-01;
7.152152152152152E+07;1.015857118821807E-01;8.734370162290106E-01;1.478373288148208E-01;1.890895638674493E-01;1.015857118821807E-01;8.734370162290106E-01;1.478373288148208E-01;1.890895638674493E-01;
7.177177177177177E+07;1.017641739616396E-01;8.718510928514280E-01;1.478857950979095E-01;1.936936521001454E-01;1.017641739616396E-01;8.718510928514280E-01;1.478857950979095E-01;1.936936521001454E-01;
7.202202202202202E+07;1.019271420957627E-01;8.701898466683102E-01;1.480404682361303E-01;1.986893920001443E-01;1.019271420957627E-01;8.701898466683102E-01;1.480404682361303E-01;1.986893920001443E-01;
7.227227227227227E+07;1.023503776117030E-01;8.682858376605466E-01;1.476929781369331E-01;2.038656583129165E-01;1.023503776117030E-01;8.682858376605466E-01;1.476929781369331E-01;2.038656583129165E-01;
7.252252252252252E+07;1.033518206498776E-01;8.662710687642020E-01;1.472961673900996E-01;2.091939212903662E-01;1.033518206498776E-01;8.662710687642020E-01;1.472961673900996E-01;2.091939212903662E-01;
7.277277277277277E+07;1.046326316329899E-01;8.640735185226650E-01;1.467149608756098E-01;2.145953173828939E-01;1.046326316329899E-01;8.640735185226650E-01;1.467149608756098E-01;2.145953173828939E-01;
7.302302302302302E+07;1.067094959034827E-01;8.615048815681354E-01;1.457968365236955E-01;2.201000270331332E-01;1.067094959034827E-01;8.615048815681354E-01;1.457968365236955E-01;2.201000270331332E-01;
7.327327327327327E+07;1.092503669300768E-01;8.587217329321271E-01;1.454729978672964E-01;2.259598611979979E-01;1.092503669300768E-01;8.587217329321271E-01;1.454729978672964E-01;2.259598611979979E-01;
7.352352352352352E+07;1.118662366565364E-01;8.558458662778776E-01;1.448487385221358E-01;2.316246644882352E-01;1.118662366565364E-01;8.558458662778776E-01;1.448487385221358E-01;2.316246644882352E-01;
7.377377377377377E+07;1.147133331124839E-01;8.527302615147195E-01;1.444204622157499E-01;2.373963270389509E-01;1.147133331124839E-01;8.527302615147195E-01;1.444204622157499E-01;2.373963270389509E-01;
7.402402402402402E+07;1.174063843603681E-01;8.495850279251110E-01;1.441203305003226E-01;2.431927824670800E-01;1.174063843603681E-01;8.495850279251110E-01;1.441203305003226E-01;2.431927824670800E-01;
7.427427427427427E+07;1.201690321301691E-01;8.464722303982147E-01;1.439433256519105E-01;2.490659786135566E-01;1.201690321301691E-01;8.464722303982147E-01;1.439433256519105E-01;2.490659786135566E-01;
