# Version 1.00
#
# Ref Impedances: Z01: 50, Z02: 50
# 
freq[Hz];re:SMag2_S11;im:SMag2_S11;re:ZPh2_S12;im:ZPh2_S12;re:SPh2_S11;im:SPh2_S11;re:ZMag2_S12;im:ZMag2_S12;
5.000000000000000E+07;3.637380472128616E-01;8.171912357317921E-01;9.735624264062318E-02;4.593838395470910E-03;3.637380472128616E-01;8.171912357317921E-01;9.735624264062318E-02;4.593838395470910E-03;
5.025025025025025E+07;3.583445735107434E-01;8.171873964051876E-01;9.957799758513966E-02;8.612099608384912E-03;3.583445735107434E-01;8.171873964051876E-01;9.957799758513966E-02;8.612099608384912E-03;
5.050050050050050E+07;3.519967886598395E-01;8.171359459449890E-01;1.026580233825178E-01;1.282615625665884E-02;3.519967886598395E-01;8.171359459449890E-01;1.026580233825178E-01;1.282615625665884E-02;
5.075075075075075E+07;3.449863690514834E-01;8.170620281586662E-01;1.070109975651370E-01;1.682364878251150E-02;3.449863690514834E-01;8.170620281586662E-01;1.070109975651370E-01;1.682364878251150E-02;
5.100100100100100E+07;3.367818246782818E-01;8.173453227328643E-01;1.130297993273585E-01;1.950667906444188E-02;3.367818246782818E-01;8.173453227328643E-01;1.130297993273585E-01;1.950667906444188E-02;
5.125125125125125E+07;3.281610937962535E-01;8.185431952365791E-01;1.191155419414038E-01;2.089704326856094E-02;3.281610937962535E-01;8.185431952365791E-01;1.191155419414038E-01;2.089704326856094E-02;
5.150150150150150E+07;3.192288202437515E-01;8.208916212450269E-01;1.251325924921070E-01;2.043477596009811E-02;3.192288202437515E-01;8.208916212450269E-01;1.251325924921070E-01;2.043477596009811E-02;
5.175175175175175E+07;3.103099098771214E-01;8.243281675356638E-01;1.303314735107694E-01;1.856760434078508E-02;3.103099098771214E-01;8.243281675356638E-01;1.303314735107694E-01;1.856760434078508E-02;
5.200200200200200E+07;3.020828209941884E-01;8.284076565979184E-01;1.344028581801979E-01;1.581326309048529E-02;3.020828209941884E-01;8.284076565979184E-01;1.344028581801979E-01;1.581326309048529E-02;
5.225225225225225E+07;2.948638381284471E-01;8.336758244095225E-01;1.371051659818964E-01;1.260935919455667E-02;2.948638381284471E-01;8.336758244095225E-01;1.371051659818964E-01;1.260935919455667E-02;
5.250250250250250E+07;2.882034362385658E-01;8.388341529334963E-01;1.386971352110550E-01;9.523584734113667E-03;2.882034362385658E-01;8.388341529334963E-01;1.386971352110550E-01;9.523584734113667E-03;
5.275275275275275E+07;2.824376120379667E-01;8.434922310826277E-01;1.393362434684511E-01;6.851396831563510E-03;2.824376120379667E-01;8.434922310826277E-01;1.393362434684511E-01;6.851396831563510E-03;
5.300300300300300E+07;2.773773067545464E-01;8.481583912323709E-01;1.393587252993656E-01;4.502330455071765E-03;2.773773067545464E-01;8.481583912323709E-01;1.393587252993656E-01;4.502330455071765E-03;
5.325325325325325E+07;2.725569212296544E-01;8.525066934351745E-01;1.387924079236611E-01;2.631422593839567E-03;2.725569212296544E-01;8.525066934351745E-01;1.387924079236611E-01;2.631422593839567E-03;
5.350350350350350E+07;2.694135859369545E-01;8.570961531000451E-01;1.371103586343228E-01;5.146674847578540E-04;2.694135859369545E-01;8.570961531000451E-01;1.371103586343228E-01;5.146674847578540E-04;
5.375375375375375E+07;2.643500359872554E-01;8.602084598496158E-01;1.371130210378635E-01;3.568769825367337E-04;2.643500359872554E-01;8.602084598496158E-01;1.371130210378635E-01;3.568769825367337E-04;
5.400400400400400E+07;2.606589857265433E-01;8.634690965518038E-01;1.359257911649982E-01;-6.455478949441404E-05;2.606589857265433E-01;8.634690965518038E-01;1.359257911649982E-01;-6.455478949441404E-05;
5.425425425425425E+07;2.569029482599027E-01;8.664868805417267E-01;1.346342083636484E-01;2.856687338454671E-05;2.569029482599027E-01;8.664868805417267E-01;1.346342083636484E-01;2.856687338454671E-05;
5.450450450450450E+07;2.532405163291807E-01;8.691286698736093E-01;1.333784608422301E-01;4.214394285122147E-04;2.532405163291807E-01;8.691286698736093E-01;1.333784608422301E-01;4.214394285122147E-04;
5.475475475475475E+07;2.496509745551130E-01;8.715685704441656E-01;1.321998574167071E-01;1.117318080945041E-03;2.496509745551130E-01;8.715685704441656E-01;1.321998574167071E-01;1.117318080945041E-03;
5.500500500500500E+07;2.461591068679513E-01;8.737580206416208E-01;1.310763687982324E-01;2.116507936956764E-03;2.461591068679513E-01;8.737580206416208E-01;1.310763687982324E-01;2.116507936956764E-03;
5.525525525525525E+07;2.424082458161807E-01;8.757795704505325E-01;1.299491366176235E-01;3.250720325000526E-03;2.424082458161807E-01;8.757795704505325E-01;1.299491366176235E-01;3.250720325000526E-03;
5.550550550550550E+07;2.389516670167295E-01;8.778357588288954E-01;1.288285867101679E-01;4.627743714097619E-03;2.389516670167295E-01;8.778357588288954E-01;1.288285867101679E-01;4.627743714097619E-03;
5.575575575575575E+07;2.353652713259934E-01;8.794981876096837E-01;1.277154352544020E-01;6.127990644283033E-03;2.353652713259934E-01;8.794981876096837E-01;1.277154352544020E-01;6.127990644283033E-03;
5.600600600600600E+07;2.318035411979884E-01;8.811273620682982E-01;1.266755792573780E-01;7.759799010116781E-03;2.318035411979884E-01;8.811273620682982E-01;1.266755792573780E-01;7.759799010116781E-03;
5.625625625625625E+07;2.280855204824128E-01;8.826064593820531E-01;1.257487115675757E-01;9.695594102443693E-03;2.280855204824128E-01;8.826064593820531E-01;1.257487115675757E-01;9.695594102443693E-03;
5.650650650650650E+07;2.245241222616430E-01;8.835262376605562E-01;1.248739341626813E-01;1.166674201326417E-02;2.245241222616430E-01;8.835262376605562E-01;1.248739341626813E-01;1.166674201326417E-02;
5.675675675675675E+07;2.210699244321104E-01;8.846059518048291E-01;1.241530351169479E-01;1.405729046636291E-02;2.210699244321104E-01;8.846059518048291E-01;1.241530351169479E-01;1.405729046636291E-02;
5.700700700700700E+07;2.170264767307810E-01;8.855334580068203E-01;1.234771603929060E-01;1.606129898441892E-02;2.170264767307810E-01;8.855334580068203E-01;1.234771603929060E-01;1.606129898441892E-02;
5.725725725725726E+07;2.134751317611117E-01;8.863134330705600E-01;1.229606128933443E-01;1.832864554423635E-02;2.134751317611117E-01;8.863134330705600E-01;1.229606128933443E-01;1.832864554423635E-02;
5.750750750750751E+07;2.099398126587513E-01;8.872562582723486E-01;1.219691110875094E-01;2.036674704438303E-02;2.099398126587513E-01;8.872562582723486E-01;1.219691110875094E-01;2.036674704438303E-02;
5.775775775775776E+07;2.060855873245777E-01;8.880598459317010E-01;1.216593167720487E-01;2.295373283513306E-02;2.060855873245777E-01;8.880598459317010E-01;1.216593167720487E-01;2.295373283513306E-02;
5.800800800800801E+07;2.025077437785165E-01;8.884792857928034E-01;1.209969498162814E-01;2.606561339943602E-02;2.025077437785165E-01;8.884792857928034E-01;1.209969498162814E-01;2.606561339943602E-02;
5.825825825825826E+07;1.989191884556037E-01;8.885688886214763E-01;1.201287406203430E-01;2.881691123472109E-02;1.989191884556037E-01;8.885688886214763E-01;1.201287406203430E-01;2.881691123472109E-02;
5.850850850850851E+07;1.953020186884644E-01;8.885496897806189E-01;1.192553011207972E-01;3.188654446494391E-02;1.953020186884644E-01;8.885496897806189E-01;1.192553011207972E-01;3.188654446494391E-02;
5.875875875875876E+07;1.915708613545007E-01;8.883755021171865E-01;1.184965307002527E-01;3.544093475151160E-02;1.915708613545007E-01;8.883755021171865E-01;1.184965307002527E-01;3.544093475151160E-02;
5.900900900900901E+07;1.877980447274366E-01;8.876838552057533E-01;1.180143401133829E-01;3.930533786590740E-02;1.877980447274366E-01;8.876838552057533E-01;1.180143401133829E-01;3.930533786590740E-02;
5.925925925925926E+07;1.835303135176224E-01;8.867543666440391E-01;1.179261839170300E-01;4.360925656176721E-02;1.835303135176224E-01;8.867543666440391E-01;1.179261839170300E-01;4.360925656176721E-02;
5.950950950950951E+07;1.789964570807900E-01;8.858837779388140E-01;1.184412889521336E-01;4.810346857749200E-02;1.789964570807900E-01;8.858837779388140E-01;1.184412889521336E-01;4.810346857749200E-02;
5.975975975975976E+07;1.739736772546666E-01;8.850591484950782E-01;1.196628592785972E-01;5.259597066694363E-02;1.739736772546666E-01;8.850591484950782E-01;1.196628592785972E-01;5.259597066694363E-02;
6.001001001001001E+07;1.684985557228691E-01;8.845993644690046E-01;1.215638636305655E-01;5.687187860126701E-02;1.684985557228691E-01;8.845993644690046E-01;1.215638636305655E-01;5.687187860126701E-02;
6.026026026026026E+07;1.628336306498656E-01;8.846963963620937E-01;1.240309480483631E-01;6.059011545504431E-02;1.628336306498656E-01;8.846963963620937E-01;1.240309480483631E-01;6.059011545504431E-02;
6.051051051051051E+07;1.572466611405358E-01;8.852414525559023E-01;1.268220619465115E-01;6.350928631866504E-02;1.572466611405358E-01;8.852414525559023E-01;1.268220619465115E-01;6.350928631866504E-02;
6.076076076076076E+07;1.517459205367171E-01;8.863359489911701E-01;1.295671101665995E-01;6.566950684275351E-02;1.517459205367171E-01;8.863359489911701E-01;1.295671101665995E-01;6.566950684275351E-02;
6.101101101101101E+07;1.470850254336596E-01;8.880152414151947E-01;1.319632943426261E-01;6.720180154683068E-02;1.470850254336596E-01;8.880152414151947E-01;1.319632943426261E-01;6.720180154683068E-02;
6.126126126126126E+07;1.427005323462557E-01;8.897358489619880E-01;1.333374838186268E-01;6.797306960414726E-02;1.427005323462557E-01;8.897358489619880E-01;1.333374838186268E-01;6.797306960414726E-02;
6.151151151151151E+07;1.385095984095120E-01;8.912539594549224E-01;1.351837678259825E-01;6.936638324440693E-02;1.385095984095120E-01;8.912539594549224E-01;1.351837678259825E-01;6.936638324440693E-02;
6.176176176176176E+07;1.347865761452256E-01;8.927488441193179E-01;1.361003406765502E-01;7.049109638898773E-02;1.347865761452256E-01;8.927488441193179E-01;1.361003406765502E-01;7.049109638898773E-02;
6.201201201201201E+07;1.312207494744418E-01;8.941155684996147E-01;1.369065141113932E-01;7.161766516826860E-02;1.312207494744418E-01;8.941155684996147E-01;1.369065141113932E-01;7.161766516826860E-02;
6.226226226226226E+07;1.278878858046964E-01;8.954164899147445E-01;1.374573469957409E-01;7.274724639605455E-02;1.278878858046964E-01;8.954164899147445E-01;1.374573469957409E-01;7.274724639605455E-02;
6.251251251251251E+07;1.247536801984613E-01;8.966450466578320E-01;1.377049134722892E-01;7.398320304456396E-02;1.247536801984613E-01;8.966450466578320E-01;1.377049134722892E-01;7.398320304456396E-02;
6.276276276276276E+07;1.220333343416003E-01;8.976333967010117E-01;1.377386080879691E-01;7.534539539688100E-02;1.220333343416003E-01;8.976333967010117E-01;1.377386080879691E-01;7.534539539688100E-02;
6.301301301301301E+07;1.192154624187457E-01;8.983837446047487E-01;1.376230804499308E-01;7.682904886286596E-02;1.192154624187457E-01;8.983837446047487E-01;1.376230804499308E-01;7.682904886286596E-02;
6.326326326326326E+07;1.165561068203655E-01;8.991891583444038E-01;1.373182654289215E-01;7.853828002265281E-02;1.165561068203655E-01;8.991891583444038E-01;1.373182654289215E-01;7.853828002265281E-02;
6.351351351351351E+07;1.140433558125808E-01;8.997621054366822E-01;1.370436747095765E-01;8.044006835760142E-02;1.140433558125808E-01;8.997621054366822E-01;1.370436747095765E-01;8.044006835760142E-02;
6.376376376376376E+07;1.113654125739301E-01;9.003010193735704E-01;1.367252638951373E-01;8.228589135847320E-02;1.113654125739301E-01;9.003010193735704E-01;1.367252638951373E-01;8.228589135847320E-02;
6.401401401401401E+07;1.088069847613219E-01;9.006774326552297E-01;1.364981197044327E-01;8.426894367385102E-02;1.088069847613219E-01;9.006774326552297E-01;1.364981197044327E-01;8.426894367385102E-02;
6.426426426426426E+07;1.064281555703535E-01;9.010934284986349E-01;1.361257869616897E-01;8.633628158813435E-02;1.064281555703535E-01;9.010934284986349E-01;1.361257869616897E-01;8.633628158813435E-02;
6.451451451451451E+07;1.040412824226805E-01;9.014889806278638E-01;1.356201808755820E-01;8.845941017895091E-02;1.040412824226805E-01;9.014889806278638E-01;1.356201808755820E-01;8.845941017895091E-02;
6.476476476476476E+07;1.018314317756397E-01;9.016887774582292E-01;1.351356485599708E-01;9.054225282978755E-02;1.018314317756397E-01;9.016887774582292E-01;1.351356485599708E-01;9.054225282978755E-02;
6.501501501501501E+07;1.001241935168086E-01;9.018376501112964E-01;1.340605250397841E-01;9.267530077848100E-02;1.001241935168086E-01;9.018376501112964E-01;1.340605250397841E-01;9.267530077848100E-02;
6.526526526526526E+07;9.774929992322343E-02;9.017418330680856E-01;1.338041960277659E-01;9.517131278831269E-02;9.774929992322343E-02;9.017418330680856E-01;1.338041960277659E-01;9.517131278831269E-02;
6.551551551551551E+07;9.584070501127516E-02;9.016495541127566E-01;1.331361675068251E-01;9.764273239716476E-02;9.584070501127516E-02;9.016495541127566E-01;1.331361675068251E-01;9.764273239716476E-02;
6.576576576576576E+07;9.600982142445184E-02;9.024330457677178E-01;1.330813333936114E-01;9.955020999710497E-02;9.600982142445184E-02;9.024330457677178E-01;1.330813333936114E-01;9.955020999710497E-02;
6.601601601601601E+07;9.400341229759504E-02;9.021663832517730E-01;1.325126946609095E-01;1.020372933618919E-01;9.400341229759504E-02;9.021663832517730E-01;1.325126946609095E-01;1.020372933618919E-01;
6.626626626626626E+07;9.184549103189737E-02;9.018229358901183E-01;1.318520380098773E-01;1.046307472435430E-01;9.184549103189737E-02;9.018229358901183E-01;1.318520380098773E-01;1.046307472435430E-01;
6.651651651651651E+07;8.965479426354611E-02;9.015362806385048E-01;1.313276127886554E-01;1.072640760959894E-01;8.965479426354611E-02;9.015362806385048E-01;1.313276127886554E-01;1.072640760959894E-01;
6.676676676676676E+07;8.740397878435012E-02;9.012878296292473E-01;1.308642528477323E-01;1.098914703415163E-01;8.740397878435012E-02;9.012878296292473E-01;1.308642528477323E-01;1.098914703415163E-01;
6.701701701701702E+07;8.630334307997693E-02;9.006352761764818E-01;1.299886494585447E-01;1.131345296224277E-01;8.630334307997693E-02;9.006352761764818E-01;1.299886494585447E-01;1.131345296224277E-01;
6.726726726726727E+07;8.415405716638608E-02;9.003226089859917E-01;1.295795067187117E-01;1.157994294010096E-01;8.415405716638608E-02;9.003226089859917E-01;1.295795067187117E-01;1.157994294010096E-01;
6.751751751751752E+07;8.198107676590090E-02;9.001601571340242E-01;1.292337026425824E-01;1.183149323812426E-01;8.198107676590090E-02;9.001601571340242E-01;1.292337026425824E-01;1.183149323812426E-01;
6.776776776776777E+07;7.980498345958340E-02;8.998608884611872E-01;1.287986568448827E-01;1.209190990508011E-01;7.980498345958340E-02;8.998608884611872E-01;1.287986568448827E-01;1.209190990508011E-01;
6.801801801801802E+07;7.748747328007584E-02;8.997192205065797E-01;1.280345727870429E-01;1.235190408245525E-01;7.748747328007584E-02;8.997192205065797E-01;1.280345727870429E-01;1.235190408245525E-01;
6.826826826826827E+07;7.505569206619941E-02;8.994692140578477E-01;1.275110725579230E-01;1.265137292862889E-01;7.505569206619941E-02;8.994692140578477E-01;1.275110725579230E-01;1.265137292862889E-01;
6.851851851851852E+07;7.323626901313157E-02;8.990351585256663E-01;1.265510718979741E-01;1.298049076419635E-01;7.323626901313157E-02;8.990351585256663E-01;1.265510718979741E-01;1.298049076419635E-01;
6.876876876876877E+07;7.228874004358382E-02;8.978322512794417E-01;1.249833853120279E-01;1.332147116025043E-01;7.228874004358382E-02;8.978322512794417E-01;1.249833853120279E-01;1.332147116025043E-01;
6.901901901901902E+07;7.168067016695351E-02;8.969263322876506E-01;1.237876051461460E-01;1.367723116607547E-01;7.168067016695351E-02;8.969263322876506E-01;1.237876051461460E-01;1.367723116607547E-01;
6.926926926926927E+07;7.153326817840530E-02;8.957297428113259E-01;1.223171521017152E-01;1.404164234263459E-01;7.153326817840530E-02;8.957297428113259E-01;1.223171521017152E-01;1.404164234263459E-01;
6.951951951951952E+07;7.176350461800006E-02;8.945641142412080E-01;1.209768045304050E-01;1.439485791505550E-01;7.176350461800006E-02;8.945641142412080E-01;1.209768045304050E-01;1.439485791505550E-01;
6.976976976976977E+07;7.198758718933392E-02;8.931307498516210E-01;1.195134895774267E-01;1.475731656062879E-01;7.198758718933392E-02;8.931307498516210E-01;1.195134895774267E-01;1.475731656062879E-01;
7.002002002002002E+07;7.172505054106533E-02;8.919929661589405E-01;1.181712516997041E-01;1.512314264823224E-01;7.172505054106533E-02;8.919929661589405E-01;1.181712516997041E-01;1.512314264823224E-01;
7.027027027027027E+07;7.144392074669174E-02;8.907045691165604E-01;1.171241257902115E-01;1.546701318662876E-01;7.144392074669174E-02;8.907045691165604E-01;1.171241257902115E-01;1.546701318662876E-01;
7.052052052052052E+07;7.082526068458569E-02;8.895791999371326E-01;1.160672885370337E-01;1.581429781360209E-01;7.082526068458569E-02;8.895791999371326E-01;1.160672885370337E-01;1.581429781360209E-01;
7.077077077077077E+07;7.032033698766872E-02;8.884083468924424E-01;1.150637994647307E-01;1.616513533472214E-01;7.032033698766872E-02;8.884083468924424E-01;1.150637994647307E-01;1.616513533472214E-01;
7.102102102102102E+07;6.966438069665085E-02;8.872701928517077E-01;1.141044736151519E-01;1.650044379253776E-01;6.966438069665085E-02;8.872701928517077E-01;1.141044736151519E-01;1.650044379253776E-01;
7.127127127127127E+07;6.870637331271634E-02;8.861317404328706E-01;1.131931544755495E-01;1.684810502142968E-01;6.870637331271634E-02;8.861317404328706E-01;1.131931544755495E-01;1.684810502142968E-01;
7.152152152152152E+07;6.812729847966886E-02;8.848693618047409E-01;1.124382964654922E-01;1.718237566113593E-01;6.812729847966886E-02;8.848693618047409E-01;1.124382964654922E-01;1.718237566113593E-01;
7.177177177177177E+07;6.719018835305499E-02;8.837935919071876E-01;1.115475863909007E-01;1.752967067080355E-01;6.719018835305499E-02;8.837935919071876E-01;1.115475863909007E-01;1.752967067080355E-01;
7.202202202202202E+07;6.603937689600342E-02;8.827002097724297E-01;1.108445489929812E-01;1.789853230421883E-01;6.603937689600342E-02;8.827002097724297E-01;1.108445489929812E-01;1.789853230421883E-01;
7.227227227227227E+07;6.543934872707335E-02;8.816236704705104E-01;1.096417508427370E-01;1.829060162154076E-01;6.543934872707335E-02;8.816236704705104E-01;1.096417508427370E-01;1.829060162154076E-01;
7.252252252252252E+07;6.485046624134611E-02;8.801036556992852E-01;1.082047742009182E-01;1.869041632018062E-01;6.485046624134611E-02;8.801036556992852E-01;1.082047742009182E-01;1.869041632018062E-01;
7.277277277277277E+07;6.486176905168370E-02;8.786232043146190E-01;1.066956718283127E-01;1.910259591455361E-01;6.486176905168370E-02;8.786232043146190E-01;1.066956718283127E-01;1.910259591455361E-01;
7.302302302302302E+07;6.549425177565059E-02;8.769924214574156E-01;1.049333325495227E-01;1.953156035008883E-01;6.549425177565059E-02;8.769924214574156E-01;1.049333325495227E-01;1.953156035008883E-01;
7.327327327327327E+07;6.669548888464608E-02;8.751654497156582E-01;1.031852009868892E-01;1.996079087453377E-01;6.669548888464608E-02;8.751654497156582E-01;1.031852009868892E-01;1.996079087453377E-01;
7.352352352352352E+07;6.780525322978088E-02;8.733159721850529E-01;1.015465575509770E-01;2.040987646183517E-01;6.780525322978088E-02;8.733159721850529E-01;1.015465575509770E-01;2.040987646183517E-01;
7.377377377377377E+07;6.948327168590386E-02;8.713067046300547E-01;1.000044386387840E-01;2.086482841180963E-01;6.948327168590386E-02;8.713067046300547E-01;1.000044386387840E-01;2.086482841180963E-01;
7.402402402402402E+07;7.065197623047016E-02;8.694625954593338E-01;9.852248522871505E-02;2.131060519406911E-01;7.065197623047016E-02;8.694625954593338E-01;9.852248522871505E-02;2.131060519406911E-01;
7.427427427427427E+07;7.167585139969428E-02;8.675080901084512E-01;9.711281188817818E-02;2.176637660891626E-01;7.167585139969428E-02;8.675080901084512E-01;9.711281188817818E-02;2.176637660891626E-01;
7.452452452452452E+07;7.274306291842930E-02;8.653166008504309E-01;9.581981059766244E-02;2.221230208685756E-01;7.274306291842930E-02;8.653166008504309E-01;9.581981059766244E-02;2.221230208685756E-01;
