# Version 1.00
#
# Ref Impedances: Z01: 50, Z02: 50
# 
freq[Hz];re:SMag2_S11;im:SMag2_S11;re:ZPh2_S12;im:ZPh2_S12;re:SPh2_S11;im:SPh2_S11;re:ZMag2_S12;im:ZMag2_S12;
5.000000000000000E+07;3.619174477991424E-01;8.154976194854132E-01;1.059270101230546E-01;-3.136237212675296E-03;3.619174477991424E-01;8.154976194854132E-01;1.059270101230546E-01;-3.136237212675296E-03;
5.025025025025025E+07;3.549066590583267E-01;8.164689238921788E-01;1.096409866027257E-01;-2.216618545949919E-04;3.549066590583267E-01;8.164689238921788E-01;1.096409866027257E-01;-2.216618545949919E-04;
5.050050050050050E+07;3.472905647262281E-01;8.174286723585040E-01;1.149845128874520E-01;1.311155418903003E-03;3.472905647262281E-01;8.174286723585040E-01;1.149845128874520E-01;1.311155418903003E-03;
5.075075075075075E+07;3.392218253324796E-01;8.190499457023698E-01;1.204925510703420E-01;1.878200180959825E-03;3.392218253324796E-01;8.190499457023698E-01;1.204925510703420E-01;1.878200180959825E-03;
5.100100100100100E+07;3.281783608044846E-01;8.208988654067325E-01;1.258633198074757E-01;1.669142090374070E-03;3.281783608044846E-01;8.208988654067325E-01;1.258633198074757E-01;1.669142090374070E-03;
5.125125125125125E+07;3.202551438746714E-01;8.252584522373260E-01;1.304001669771232E-01;-2.604151432454854E-04;3.202551438746714E-01;8.252584522373260E-01;1.304001669771232E-01;-2.604151432454854E-04;
5.150150150150150E+07;3.128250518302446E-01;8.298824525928027E-01;1.341094956263319E-01;-3.039927491040336E-03;3.128250518302446E-01;8.298824525928027E-01;1.341094956263319E-01;-3.039927491040336E-03;
5.175175175175175E+07;3.067006430895550E-01;8.349817149385560E-01;1.369797146935995E-01;-6.481228432960636E-03;3.067006430895550E-01;8.349817149385560E-01;1.369797146935995E-01;-6.481228432960636E-03;
5.200200200200200E+07;3.010595293144765E-01;8.399190663253964E-01;1.399366425883409E-01;-1.087514407046764E-02;3.010595293144765E-01;8.399190663253964E-01;1.399366425883409E-01;-1.087514407046764E-02;
5.225225225225225E+07;2.960271626816562E-01;8.447724502026733E-01;1.399562966339997E-01;-1.312346834682019E-02;2.960271626816562E-01;8.447724502026733E-01;1.399562966339997E-01;-1.312346834682019E-02;
5.250250250250250E+07;2.915925160615789E-01;8.491438661308190E-01;1.395684235965897E-01;-1.483974556380490E-02;2.915925160615789E-01;8.491438661308190E-01;1.395684235965897E-01;-1.483974556380490E-02;
5.275275275275275E+07;2.870213487688006E-01;8.530468344926738E-01;1.387731954293010E-01;-1.590337836823819E-02;2.870213487688006E-01;8.530468344926738E-01;1.387731954293010E-01;-1.590337836823819E-02;
5.300300300300300E+07;2.829155183261952E-01;8.568145182970487E-01;1.379532152617666E-01;-1.662278753114184E-02;2.829155183261952E-01;8.568145182970487E-01;1.379532152617666E-01;-1.662278753114184E-02;
5.325325325325325E+07;2.792133770315334E-01;8.601387726525267E-01;1.371302346422854E-01;-1.684506435429192E-02;2.792133770315334E-01;8.601387726525267E-01;1.371302346422854E-01;-1.684506435429192E-02;
5.350350350350350E+07;2.761567627579457E-01;8.636963236478719E-01;1.342642835678118E-01;-1.709615359069719E-02;2.761567627579457E-01;8.636963236478719E-01;1.342642835678118E-01;-1.709615359069719E-02;
5.375375375375375E+07;2.714728472442088E-01;8.662721933929109E-01;1.354584579881570E-01;-1.640228617170859E-02;2.714728472442088E-01;8.662721933929109E-01;1.354584579881570E-01;-1.640228617170859E-02;
5.400400400400400E+07;2.677219158664539E-01;8.690209233037525E-01;1.347105923641420E-01;-1.581071074437995E-02;2.677219158664539E-01;8.690209233037525E-01;1.347105923641420E-01;-1.581071074437995E-02;
5.425425425425425E+07;2.642228338889955E-01;8.714178709363170E-01;1.339229607883879E-01;-1.497801193337499E-02;2.642228338889955E-01;8.714178709363170E-01;1.339229607883879E-01;-1.497801193337499E-02;
5.450450450450450E+07;2.606033107078542E-01;8.737496559241513E-01;1.331642882961678E-01;-1.384008209879241E-02;2.606033107078542E-01;8.737496559241513E-01;1.331642882961678E-01;-1.384008209879241E-02;
5.475475475475475E+07;2.570243699461466E-01;8.758966755282860E-01;1.324676904559692E-01;-1.271414855116735E-02;2.570243699461466E-01;8.758966755282860E-01;1.324676904559692E-01;-1.271414855116735E-02;
5.500500500500500E+07;2.534919455358908E-01;8.776291049799996E-01;1.318680616637961E-01;-1.117248233646793E-02;2.534919455358908E-01;8.776291049799996E-01;1.318680616637961E-01;-1.117248233646793E-02;
5.525525525525525E+07;2.499678661871414E-01;8.794318207092059E-01;1.313365825374594E-01;-9.564341026274098E-03;2.499678661871414E-01;8.794318207092059E-01;1.313365825374594E-01;-9.564341026274098E-03;
5.550550550550550E+07;2.463772685518701E-01;8.808420933882737E-01;1.308950723937784E-01;-7.836243498171462E-03;2.463772685518701E-01;8.808420933882737E-01;1.308950723937784E-01;-7.836243498171462E-03;
5.575575575575575E+07;2.426942306771238E-01;8.822328963935552E-01;1.305112564984922E-01;-5.897632690479015E-03;2.426942306771238E-01;8.822328963935552E-01;1.305112564984922E-01;-5.897632690479015E-03;
5.600600600600600E+07;2.392538824346759E-01;8.836251756932766E-01;1.301436930002872E-01;-3.822836736213993E-03;2.392538824346759E-01;8.836251756932766E-01;1.301436930002872E-01;-3.822836736213993E-03;
5.625625625625625E+07;2.356854646174210E-01;8.846207349028227E-01;1.298046804865746E-01;-1.519239836131849E-03;2.356854646174210E-01;8.846207349028227E-01;1.298046804865746E-01;-1.519239836131849E-03;
5.650650650650650E+07;2.322008986583357E-01;8.853992723710629E-01;1.296474932032884E-01;5.153591004970577E-04;2.322008986583357E-01;8.853992723710629E-01;1.296474932032884E-01;5.153591004970577E-04;
5.675675675675675E+07;2.286258279102310E-01;8.862822666017236E-01;1.294795968802216E-01;2.962350978990579E-03;2.286258279102310E-01;8.862822666017236E-01;1.294795968802216E-01;2.962350978990579E-03;
5.700700700700700E+07;2.248811278129362E-01;8.872158847807581E-01;1.293433997078287E-01;5.508921736582277E-03;2.248811278129362E-01;8.872158847807581E-01;1.293433997078287E-01;5.508921736582277E-03;
5.725725725725726E+07;2.216889964140595E-01;8.878247055691266E-01;1.286750104750488E-01;8.149058821460399E-03;2.216889964140595E-01;8.878247055691266E-01;1.286750104750488E-01;8.149058821460399E-03;
5.750750750750751E+07;2.176042510066825E-01;8.883005462380995E-01;1.288954858285140E-01;1.096271242076756E-02;2.176042510066825E-01;8.883005462380995E-01;1.288954858285140E-01;1.096271242076756E-02;
5.775775775775776E+07;2.139529282686538E-01;8.887143675851491E-01;1.289271501247704E-01;1.376476728510809E-02;2.139529282686538E-01;8.887143675851491E-01;1.289271501247704E-01;1.376476728510809E-02;
5.800800800800801E+07;2.101108650177548E-01;8.890374601689860E-01;1.290361443839735E-01;1.688409241561969E-02;2.101108650177548E-01;8.890374601689860E-01;1.290361443839735E-01;1.688409241561969E-02;
5.825825825825826E+07;2.062787306647043E-01;8.889041261348919E-01;1.290369852817507E-01;1.998213745494597E-02;2.062787306647043E-01;8.889041261348919E-01;1.290369852817507E-01;1.998213745494597E-02;
5.850850850850851E+07;2.025098163886755E-01;8.888087528023090E-01;1.291691878470859E-01;2.334284066078465E-02;2.025098163886755E-01;8.888087528023090E-01;1.291691878470859E-01;2.334284066078465E-02;
5.875875875875876E+07;1.985652778721845E-01;8.885307482915908E-01;1.295019476440722E-01;2.694958928310565E-02;1.985652778721845E-01;8.885307482915908E-01;1.295019476440722E-01;2.694958928310565E-02;
5.900900900900901E+07;1.946254973154004E-01;8.879317574497488E-01;1.301822177499381E-01;3.074678765852538E-02;1.946254973154004E-01;8.879317574497488E-01;1.301822177499381E-01;3.074678765852538E-02;
5.925925925925926E+07;1.898734375306558E-01;8.874179363848752E-01;1.312537745341135E-01;3.471463892785950E-02;1.898734375306558E-01;8.874179363848752E-01;1.312537745341135E-01;3.471463892785950E-02;
5.950950950950951E+07;1.851485419690881E-01;8.870284997551319E-01;1.328993969349081E-01;3.864294729804579E-02;1.851485419690881E-01;8.870284997551319E-01;1.328993969349081E-01;3.864294729804579E-02;
5.975975975975976E+07;1.799854076768255E-01;8.868481940029103E-01;1.350347545886368E-01;4.237254468381078E-02;1.799854076768255E-01;8.868481940029103E-01;1.350347545886368E-01;4.237254468381078E-02;
6.001001001001001E+07;1.747549612466881E-01;8.871759718639614E-01;1.375608527191285E-01;4.552010670518218E-02;1.747549612466881E-01;8.871759718639614E-01;1.375608527191285E-01;4.552010670518218E-02;
6.026026026026026E+07;1.697629853642884E-01;8.879417785991276E-01;1.401754729024866E-01;4.808047066810478E-02;1.697629853642884E-01;8.879417785991276E-01;1.401754729024866E-01;4.808047066810478E-02;
6.051051051051051E+07;1.648302468456536E-01;8.890868390157086E-01;1.427658654011656E-01;5.004838435702239E-02;1.648302468456536E-01;8.890868390157086E-01;1.427658654011656E-01;5.004838435702239E-02;
6.076076076076076E+07;1.605976213163038E-01;8.906974286216891E-01;1.449503552032184E-01;5.157959583149729E-02;1.605976213163038E-01;8.906974286216891E-01;1.449503552032184E-01;5.157959583149729E-02;
6.101101101101101E+07;1.569785973555070E-01;8.923467922027289E-01;1.464633382674099E-01;5.275908329332406E-02;1.569785973555070E-01;8.923467922027289E-01;1.464633382674099E-01;5.275908329332406E-02;
6.126126126126126E+07;1.531945149592487E-01;8.937730091145363E-01;1.478704899006615E-01;5.396661944410460E-02;1.531945149592487E-01;8.937730091145363E-01;1.478704899006615E-01;5.396661944410460E-02;
6.151151151151151E+07;1.499127045569043E-01;8.951520466328868E-01;1.487869177606348E-01;5.535140250624221E-02;1.499127045569043E-01;8.951520466328868E-01;1.487869177606348E-01;5.535140250624221E-02;
6.176176176176176E+07;1.469527326343208E-01;8.963020307661246E-01;1.494198537503772E-01;5.680508701793734E-02;1.469527326343208E-01;8.963020307661246E-01;1.494198537503772E-01;5.680508701793734E-02;
6.201201201201201E+07;1.440740666117968E-01;8.973253696037786E-01;1.499464885309202E-01;5.848314189869919E-02;1.440740666117968E-01;8.973253696037786E-01;1.499464885309202E-01;5.848314189869919E-02;
6.226226226226226E+07;1.414658777749244E-01;8.983765028063535E-01;1.503322687897125E-01;6.010029161108540E-02;1.414658777749244E-01;8.983765028063535E-01;1.503322687897125E-01;6.010029161108540E-02;
6.251251251251251E+07;1.388950811529599E-01;8.991154600506270E-01;1.505769201216492E-01;6.192883594095801E-02;1.388950811529599E-01;8.991154600506270E-01;1.505769201216492E-01;6.192883594095801E-02;
6.276276276276276E+07;1.364726232559027E-01;8.995676771959589E-01;1.506278838872197E-01;6.392948011990916E-02;1.364726232559027E-01;8.995676771959589E-01;1.506278838872197E-01;6.392948011990916E-02;
6.301301301301301E+07;1.341486970019876E-01;9.002104696935654E-01;1.505577006649858E-01;6.608273837208307E-02;1.341486970019876E-01;9.002104696935654E-01;1.505577006649858E-01;6.608273837208307E-02;
6.326326326326326E+07;1.319562373760408E-01;9.003741030184187E-01;1.505597685591890E-01;6.844814979811821E-02;1.319562373760408E-01;9.003741030184187E-01;1.505597685591890E-01;6.844814979811821E-02;
6.351351351351351E+07;1.296624985110995E-01;9.006177649273096E-01;1.504593914930956E-01;7.084635314923142E-02;1.296624985110995E-01;9.006177649273096E-01;1.504593914930956E-01;7.084635314923142E-02;
6.376376376376376E+07;1.274392761225644E-01;9.006806272032514E-01;1.504693286538449E-01;7.345056147888919E-02;1.274392761225644E-01;9.006806272032514E-01;1.504693286538449E-01;7.345056147888919E-02;
6.401401401401401E+07;1.253772980691655E-01;9.007811661459508E-01;1.504024119841552E-01;7.614412243410203E-02;1.253772980691655E-01;9.007811661459508E-01;1.504024119841552E-01;7.614412243410203E-02;
6.426426426426426E+07;1.232554130428714E-01;9.008512506196527E-01;1.504429826918885E-01;7.886854352628844E-02;1.232554130428714E-01;9.008512506196527E-01;1.504429826918885E-01;7.886854352628844E-02;
6.451451451451451E+07;1.213318095482430E-01;9.008039276423915E-01;1.503557641893418E-01;8.152058394475864E-02;1.213318095482430E-01;9.008039276423915E-01;1.503557641893418E-01;8.152058394475864E-02;
6.476476476476476E+07;1.195975388875975E-01;9.007036580992822E-01;1.502735507858519E-01;8.431707892154215E-02;1.195975388875975E-01;9.007036580992822E-01;1.502735507858519E-01;8.431707892154215E-02;
6.501501501501501E+07;1.177576167616411E-01;9.004636175810836E-01;1.499606879977367E-01;8.724588104848650E-02;1.177576167616411E-01;9.004636175810836E-01;1.499606879977367E-01;8.724588104848650E-02;
6.526526526526526E+07;1.160249230404621E-01;9.001639825233753E-01;1.499218729106998E-01;9.014338188175772E-02;1.160249230404621E-01;9.001639825233753E-01;1.499218729106998E-01;9.014338188175772E-02;
6.551551551551551E+07;1.144062990590925E-01;8.998157218034109E-01;1.497164716601738E-01;9.325538683668098E-02;1.144062990590925E-01;8.998157218034109E-01;1.497164716601738E-01;9.325538683668098E-02;
6.576576576576576E+07;1.151670008973289E-01;9.002171473715531E-01;1.495009654748099E-01;9.599992536636856E-02;1.151670008973289E-01;9.002171473715531E-01;1.495009654748099E-01;9.599992536636856E-02;
6.601601601601601E+07;1.136738108928828E-01;8.996571104434301E-01;1.493380351977581E-01;9.907354622424580E-02;1.136738108928828E-01;8.996571104434301E-01;1.493380351977581E-01;9.907354622424580E-02;
6.626626626626626E+07;1.118566631394493E-01;8.991895694410631E-01;1.491888962970089E-01;1.022172689269011E-01;1.118566631394493E-01;8.991895694410631E-01;1.491888962970089E-01;1.022172689269011E-01;
6.651651651651651E+07;1.100144371096632E-01;8.986428640293754E-01;1.491044899018679E-01;1.053713817810784E-01;1.100144371096632E-01;8.986428640293754E-01;1.491044899018679E-01;1.053713817810784E-01;
6.676676676676676E+07;1.082625556570250E-01;8.981625413832555E-01;1.490856092713561E-01;1.085517352891014E-01;1.082625556570250E-01;8.981625413832555E-01;1.490856092713561E-01;1.085517352891014E-01;
6.701701701701702E+07;1.075947415214913E-01;8.972531051136018E-01;1.487505018243520E-01;1.123107901274264E-01;1.075947415214913E-01;8.972531051136018E-01;1.487505018243520E-01;1.123107901274264E-01;
6.726726726726727E+07;1.060415795433943E-01;8.966405941328750E-01;1.487643343935812E-01;1.154900731919932E-01;1.060415795433943E-01;8.966405941328750E-01;1.487643343935812E-01;1.154900731919932E-01;
6.751751751751752E+07;1.042287536960149E-01;8.961876458594179E-01;1.487581279066695E-01;1.186633211875684E-01;1.042287536960149E-01;8.961876458594179E-01;1.487581279066695E-01;1.186633211875684E-01;
6.776776776776777E+07;1.027288694022145E-01;8.956695177004290E-01;1.486797173154523E-01;1.218416789128976E-01;1.027288694022145E-01;8.956695177004290E-01;1.486797173154523E-01;1.218416789128976E-01;
6.801801801801802E+07;1.007000482815311E-01;8.953038820061718E-01;1.487970245765888E-01;1.252353310092607E-01;1.007000482815311E-01;8.953038820061718E-01;1.487970245765888E-01;1.252353310092607E-01;
6.826826826826827E+07;9.919451769797279E-02;8.947299512188186E-01;1.484782618626231E-01;1.288049369831695E-01;9.919451769797279E-02;8.947299512188186E-01;1.484782618626231E-01;1.288049369831695E-01;
6.851851851851852E+07;9.790772716923059E-02;8.939852784088069E-01;1.480467830560714E-01;1.327195053353452E-01;9.790772716923059E-02;8.939852784088069E-01;1.480467830560714E-01;1.327195053353452E-01;
6.876876876876877E+07;9.753901870549619E-02;8.923657584740894E-01;1.472538565801998E-01;1.367994312913793E-01;9.753901870549619E-02;8.923657584740894E-01;1.472538565801998E-01;1.367994312913793E-01;
6.901901901901902E+07;9.753554319765155E-02;8.912795833538711E-01;1.464549977715766E-01;1.411385613733732E-01;9.753554319765155E-02;8.912795833538711E-01;1.464549977715766E-01;1.411385613733732E-01;
6.926926926926927E+07;9.840993199088875E-02;8.897626178918304E-01;1.455940843971768E-01;1.455826860853022E-01;9.840993199088875E-02;8.897626178918304E-01;1.455940843971768E-01;1.455826860853022E-01;
6.951951951951952E+07;9.906606941979691E-02;8.881546161774899E-01;1.448104675358015E-01;1.500403944109927E-01;9.906606941979691E-02;8.881546161774899E-01;1.448104675358015E-01;1.500403944109927E-01;
6.976976976976977E+07;9.992712684620939E-02;8.865315366075160E-01;1.439180788488122E-01;1.544928318169420E-01;9.992712684620939E-02;8.865315366075160E-01;1.439180788488122E-01;1.544928318169420E-01;
7.002002002002002E+07;1.005810789231586E-01;8.846774089889194E-01;1.430929925629565E-01;1.588992983265105E-01;1.005810789231586E-01;8.846774089889194E-01;1.430929925629565E-01;1.588992983265105E-01;
7.027027027027027E+07;1.008163711264739E-01;8.829447947599838E-01;1.427145726407041E-01;1.629657160926569E-01;1.008163711264739E-01;8.829447947599838E-01;1.427145726407041E-01;1.629657160926569E-01;
7.052052052052052E+07;1.011036844236317E-01;8.815134785239925E-01;1.423764964728214E-01;1.672808506129193E-01;1.011036844236317E-01;8.815134785239925E-01;1.423764964728214E-01;1.672808506129193E-01;
7.077077077077077E+07;1.012369749218105E-01;8.797870609500567E-01;1.420075985083948E-01;1.716230857859130E-01;1.012369749218105E-01;8.797870609500567E-01;1.420075985083948E-01;1.716230857859130E-01;
7.102102102102102E+07;1.013810687662348E-01;8.783371827525308E-01;1.417092834583315E-01;1.758254003646630E-01;1.013810687662348E-01;8.783371827525308E-01;1.417092834583315E-01;1.758254003646630E-01;
7.127127127127127E+07;1.013996854170784E-01;8.766382868696264E-01;1.415658656852127E-01;1.801201249146484E-01;1.013996854170784E-01;8.766382868696264E-01;1.415658656852127E-01;1.801201249146484E-01;
7.152152152152152E+07;1.019159922168968E-01;8.749157296169162E-01;1.413454772997751E-01;1.842426946688614E-01;1.019159922168968E-01;8.749157296169162E-01;1.413454772997751E-01;1.842426946688614E-01;
7.177177177177177E+07;1.017312060090894E-01;8.734701912274309E-01;1.414206403152886E-01;1.886292711387895E-01;1.017312060090894E-01;8.734701912274309E-01;1.414206403152886E-01;1.886292711387895E-01;
7.202202202202202E+07;1.017455512943829E-01;8.718439277640718E-01;1.413021285234803E-01;1.930495998910271E-01;1.017455512943829E-01;8.718439277640718E-01;1.413021285234803E-01;1.930495998910271E-01;
7.227227227227227E+07;1.021043067175114E-01;8.700404619327089E-01;1.407488944783223E-01;1.979817110909440E-01;1.021043067175114E-01;8.700404619327089E-01;1.407488944783223E-01;1.979817110909440E-01;
7.252252252252252E+07;1.026320906967851E-01;8.681142498471747E-01;1.401409773431763E-01;2.029264419071760E-01;1.026320906967851E-01;8.681142498471747E-01;1.401409773431763E-01;2.029264419071760E-01;
7.277277277277277E+07;1.038444131665196E-01;8.659822224227999E-01;1.392648106871486E-01;2.081851076747099E-01;1.038444131665196E-01;8.659822224227999E-01;1.392648106871486E-01;2.081851076747099E-01;
7.302302302302302E+07;1.055890140704116E-01;8.634103084500708E-01;1.383621842222612E-01;2.135150651714436E-01;1.055890140704116E-01;8.634103084500708E-01;1.383621842222612E-01;2.135150651714436E-01;
7.327327327327327E+07;1.080166853948719E-01;8.608737844486818E-01;1.374032884714788E-01;2.189345253428180E-01;1.080166853948719E-01;8.608737844486818E-01;1.374032884714788E-01;2.189345253428180E-01;
7.352352352352352E+07;1.102654776938545E-01;8.580278550594801E-01;1.364852163680219E-01;2.243831774415929E-01;1.102654776938545E-01;8.580278550594801E-01;1.364852163680219E-01;2.243831774415929E-01;
7.377377377377377E+07;1.126944821114893E-01;8.549468246511732E-01;1.357761195752748E-01;2.298793858739577E-01;1.126944821114893E-01;8.549468246511732E-01;1.357761195752748E-01;2.298793858739577E-01;
7.402402402402402E+07;1.151714271162628E-01;8.520393318080275E-01;1.350972056983969E-01;2.354081554299854E-01;1.151714271162628E-01;8.520393318080275E-01;1.350972056983969E-01;2.354081554299854E-01;
7.427427427427427E+07;1.173422273369071E-01;8.488266798090991E-01;1.345295782060589E-01;2.411078825489831E-01;1.173422273369071E-01;8.488266798090991E-01;1.345295782060589E-01;2.411078825489831E-01;
