# Version 1.00
#
# Ref Impedances: Z01: 50, Z02: 50
# 
freq[Hz];re:ZMag1_S12;im:ZMag1_S12;re:SMag1_S11;im:SMag1_S11;re:ZPh1_S12;im:ZPh1_S12;re:SPh1_S11;im:SPh1_S11;
5.000000000000000E+07;9.751141432602857E-02;2.359963792504776E-03;3.554427969145771E-01;8.223066019945942E-01;9.751141432602857E-02;2.359963792504776E-03;3.554427969145771E-01;8.223066019945942E-01;
5.025025025025025E+07;9.987319369835346E-02;6.309528400582767E-03;3.499135401360069E-01;8.224464582212550E-01;9.987319369835346E-02;6.309528400582767E-03;3.499135401360069E-01;8.224464582212550E-01;
5.050050050050050E+07;1.032289249655832E-01;1.056091275504595E-02;3.435158678108795E-01;8.220881448310453E-01;1.032289249655832E-01;1.056091275504595E-02;3.435158678108795E-01;8.220881448310453E-01;
5.075075075075075E+07;1.077322617404761E-01;1.440489801375114E-02;3.362504639862319E-01;8.218530481295998E-01;1.077322617404761E-01;1.440489801375114E-02;3.362504639862319E-01;8.218530481295998E-01;
5.100100100100100E+07;1.133228782610177E-01;1.716988596047397E-02;3.280762959315476E-01;8.220801107926861E-01;1.133228782610177E-01;1.716988596047397E-02;3.280762959315476E-01;8.220801107926861E-01;
5.125125125125125E+07;1.201176566253800E-01;1.805210857918210E-02;3.188376495955708E-01;8.236056771358710E-01;1.201176566253800E-01;1.805210857918210E-02;3.188376495955708E-01;8.236056771358710E-01;
5.150150150150150E+07;1.260201299143207E-01;1.371321403603597E-02;3.093902635702732E-01;8.268751712749519E-01;1.260201299143207E-01;1.371321403603597E-02;3.093902635702732E-01;8.268751712749519E-01;
5.175175175175175E+07;1.316580781715370E-01;1.464668056773036E-02;3.007098424687848E-01;8.295577286400290E-01;1.316580781715370E-01;1.464668056773036E-02;3.007098424687848E-01;8.295577286400290E-01;
5.200200200200200E+07;1.355250603551777E-01;1.130260810682649E-02;2.923387549291800E-01;8.342336460352345E-01;1.355250603551777E-01;1.130260810682649E-02;2.923387549291800E-01;8.342336460352345E-01;
5.225225225225225E+07;1.384089615477332E-01;8.092260289269066E-03;2.851205186204720E-01;8.392637959603806E-01;1.384089615477332E-01;8.092260289269066E-03;2.851205186204720E-01;8.392637959603806E-01;
5.250250250250250E+07;1.390162412731696E-01;4.345452495685700E-03;2.786387424959904E-01;8.445557512574190E-01;1.390162412731696E-01;4.345452495685700E-03;2.786387424959904E-01;8.445557512574190E-01;
5.275275275275275E+07;1.391581039944694E-01;1.423282396765590E-03;2.731006580188380E-01;8.496019450326137E-01;1.391581039944694E-01;1.423282396765590E-03;2.731006580188380E-01;8.496019450326137E-01;
5.300300300300300E+07;1.387101619701761E-01;-8.054850067446918E-04;2.681563711065154E-01;8.541829716767931E-01;1.387101619701761E-01;-8.054850067446918E-04;2.681563711065154E-01;8.541829716767931E-01;
5.325325325325325E+07;1.377921035967702E-01;-2.514250431201312E-03;2.636603041516987E-01;8.585062169522281E-01;1.377921035967702E-01;-2.514250431201312E-03;2.636603041516987E-01;8.585062169522281E-01;
5.350350350350350E+07;1.366148519129925E-01;-3.705292399988636E-03;2.595728495396924E-01;8.624793471546397E-01;1.366148519129925E-01;-3.705292399988636E-03;2.595728495396924E-01;8.624793471546397E-01;
5.375375375375375E+07;1.352773038361727E-01;-4.500216232136683E-03;2.554907029541633E-01;8.659663303035450E-01;1.352773038361727E-01;-4.500216232136683E-03;2.554907029541633E-01;8.659663303035450E-01;
5.400400400400400E+07;1.338970437493367E-01;-4.732825496003176E-03;2.518279266967565E-01;8.689592399664967E-01;1.338970437493367E-01;-4.732825496003176E-03;2.518279266967565E-01;8.689592399664967E-01;
5.425425425425425E+07;1.325247423141814E-01;-4.451282245380490E-03;2.480400049361657E-01;8.717042437166055E-01;1.325247423141814E-01;-4.451282245380490E-03;2.480400049361657E-01;8.717042437166055E-01;
5.450450450450450E+07;1.311524872481414E-01;-3.816794464684604E-03;2.445220086122100E-01;8.742641647702730E-01;1.311524872481414E-01;-3.816794464684604E-03;2.445220086122100E-01;8.742641647702730E-01;
5.475475475475475E+07;1.298303161853117E-01;-2.849820605378485E-03;2.410064608077839E-01;8.762410409168508E-01;1.298303161853117E-01;-2.849820605378485E-03;2.410064608077839E-01;8.762410409168508E-01;
5.500500500500500E+07;1.285970713689094E-01;-1.658516453477812E-03;2.372685788945791E-01;8.782079051343349E-01;1.285970713689094E-01;-1.658516453477812E-03;2.372685788945791E-01;8.782079051343349E-01;
5.525525525525525E+07;1.270166361748830E-01;-3.846331109322842E-04;2.341832765112737E-01;8.801273053158556E-01;1.270166361748830E-01;-3.846331109322842E-04;2.341832765112737E-01;8.801273053158556E-01;
5.550550550550550E+07;1.263662614382895E-01;1.343309256109354E-03;2.301149276567901E-01;8.814085419238976E-01;1.263662614382895E-01;1.343309256109354E-03;2.301149276567901E-01;8.814085419238976E-01;
5.575575575575575E+07;1.254707799532445E-01;3.237141540712721E-03;2.263113553936196E-01;8.827846217388126E-01;1.254707799532445E-01;3.237141540712721E-03;2.263113553936196E-01;8.827846217388126E-01;
5.600600600600600E+07;1.246007223009925E-01;5.169896565096407E-03;2.225718806435344E-01;8.840634666014123E-01;1.246007223009925E-01;5.169896565096407E-03;2.225718806435344E-01;8.840634666014123E-01;
5.625625625625625E+07;1.238464268750771E-01;7.191425306583346E-03;2.186231584250530E-01;8.851267863755170E-01;1.238464268750771E-01;7.191425306583346E-03;2.186231584250530E-01;8.851267863755170E-01;
5.650650650650650E+07;1.232128833484656E-01;9.315640699243663E-03;2.149093604247827E-01;8.862057789160698E-01;1.232128833484656E-01;9.315640699243663E-03;2.149093604247827E-01;8.862057789160698E-01;
5.675675675675675E+07;1.226354215987095E-01;1.152334140836034E-02;2.111853007583077E-01;8.870971275053189E-01;1.226354215987095E-01;1.152334140836034E-02;2.111853007583077E-01;8.870971275053189E-01;
5.700700700700700E+07;1.221174238779652E-01;1.379182809074436E-02;2.072573690655273E-01;8.879033981219747E-01;1.221174238779652E-01;1.379182809074436E-02;2.072573690655273E-01;8.879033981219747E-01;
5.725725725725726E+07;1.216710121383152E-01;1.611488144552362E-02;2.034849893245639E-01;8.886565013070932E-01;1.216710121383152E-01;1.611488144552362E-02;2.034849893245639E-01;8.886565013070932E-01;
5.750750750750751E+07;1.212368322203471E-01;1.849748443707059E-02;1.994975979868797E-01;8.894231562383562E-01;1.212368322203471E-01;1.849748443707059E-02;1.994975979868797E-01;8.894231562383562E-01;
5.775775775775776E+07;1.207535376390342E-01;2.090452184989055E-02;1.958431155183409E-01;8.901856808819528E-01;1.207535376390342E-01;2.090452184989055E-02;1.958431155183409E-01;8.901856808819528E-01;
5.800800800800801E+07;1.204707246930543E-01;2.375031860533980E-02;1.980176009581837E-01;8.888600254786314E-01;1.204707246930543E-01;2.375031860533980E-02;1.980176009581837E-01;8.888600254786314E-01;
5.825825825825826E+07;1.198201183700531E-01;2.656455054916595E-02;1.943515817879026E-01;8.890914579685397E-01;1.198201183700531E-01;2.656455054916595E-02;1.943515817879026E-01;8.890914579685397E-01;
5.850850850850851E+07;1.191556290165403E-01;2.966949503234428E-02;1.907261537228706E-01;8.892159657924058E-01;1.191556290165403E-01;2.966949503234428E-02;1.907261537228706E-01;8.892159657924058E-01;
5.875875875875876E+07;1.186130607560158E-01;3.313471046071755E-02;1.869139999463587E-01;8.887401919395074E-01;1.186130607560158E-01;3.313471046071755E-02;1.869139999463587E-01;8.887401919395074E-01;
5.900900900900901E+07;1.182286568770493E-01;3.694984418647769E-02;1.831970010879742E-01;8.885000098354169E-01;1.182286568770493E-01;3.694984418647769E-02;1.831970010879742E-01;8.885000098354169E-01;
5.925925925925926E+07;1.182505004123102E-01;4.098508047610776E-02;1.789422290443928E-01;8.876529754545475E-01;1.182505004123102E-01;4.098508047610776E-02;1.789422290443928E-01;8.876529754545475E-01;
5.950950950950951E+07;1.190744445465472E-01;4.556715106592512E-02;1.744917101047529E-01;8.867963474651144E-01;1.190744445465472E-01;4.556715106592512E-02;1.744917101047529E-01;8.867963474651144E-01;
5.975975975975976E+07;1.204362402029375E-01;4.997585117107089E-02;1.693866072702579E-01;8.862242361935458E-01;1.204362402029375E-01;4.997585117107089E-02;1.693866072702579E-01;8.862242361935458E-01;
6.001001001001001E+07;1.225144604315538E-01;5.409577750011321E-02;1.640627714114494E-01;8.857931256774183E-01;1.225144604315538E-01;5.409577750011321E-02;1.640627714114494E-01;8.857931256774183E-01;
6.026026026026026E+07;1.251420247489040E-01;5.762253867659236E-02;1.586943354329184E-01;8.860138578478464E-01;1.251420247489040E-01;5.762253867659236E-02;1.586943354329184E-01;8.860138578478464E-01;
6.051051051051051E+07;1.280308136097538E-01;6.041985746026106E-02;1.534358288987392E-01;8.867730279702883E-01;1.280308136097538E-01;6.041985746026106E-02;1.534358288987392E-01;8.867730279702883E-01;
6.076076076076076E+07;1.308066371834617E-01;6.236131335271342E-02;1.483278614148904E-01;8.879171967166462E-01;1.308066371834617E-01;6.236131335271342E-02;1.483278614148904E-01;8.879171967166462E-01;
6.101101101101101E+07;1.332468656042021E-01;6.378471813627709E-02;1.436333489055412E-01;8.895126122988530E-01;1.332468656042021E-01;6.378471813627709E-02;1.436333489055412E-01;8.895126122988530E-01;
6.126126126126126E+07;1.351273499560997E-01;6.476725051794756E-02;1.395183457554905E-01;8.909749074991173E-01;1.351273499560997E-01;6.476725051794756E-02;1.395183457554905E-01;8.909749074991173E-01;
6.151151151151151E+07;1.364821116979040E-01;6.565487279035878E-02;1.357246937300775E-01;8.925084398488976E-01;1.364821116979040E-01;6.565487279035878E-02;1.357246937300775E-01;8.925084398488976E-01;
6.176176176176176E+07;1.374246903033037E-01;6.661556651126320E-02;1.322768954207637E-01;8.939923916443335E-01;1.374246903033037E-01;6.661556651126320E-02;1.322768954207637E-01;8.939923916443335E-01;
6.201201201201201E+07;1.381051012107105E-01;6.762156824654035E-02;1.290207484347931E-01;8.952714649166970E-01;1.381051012107105E-01;6.762156824654035E-02;1.290207484347931E-01;8.952714649166970E-01;
6.226226226226226E+07;1.385551970616700E-01;6.866431126590987E-02;1.260067358499438E-01;8.964584540321023E-01;1.385551970616700E-01;6.866431126590987E-02;1.260067358499438E-01;8.964584540321023E-01;
6.251251251251251E+07;1.387151048677585E-01;6.986277951794455E-02;1.231822833013357E-01;8.974228972833926E-01;1.387151048677585E-01;6.986277951794455E-02;1.231822833013357E-01;8.974228972833926E-01;
6.276276276276276E+07;1.385235273060983E-01;7.112060728589308E-02;1.207730951980411E-01;8.982751952249826E-01;1.385235273060983E-01;7.112060728589308E-02;1.207730951980411E-01;8.982751952249826E-01;
6.301301301301301E+07;1.382699232478710E-01;7.262398853769389E-02;1.179702634553821E-01;8.988727729337203E-01;1.382699232478710E-01;7.262398853769389E-02;1.179702634553821E-01;8.988727729337203E-01;
6.326326326326326E+07;1.381196847763767E-01;7.434783302345384E-02;1.154268044637826E-01;8.994854773475662E-01;1.381196847763767E-01;7.434783302345384E-02;1.154268044637826E-01;8.994854773475662E-01;
6.351351351351351E+07;1.377423299483364E-01;7.623876043534235E-02;1.129846194455568E-01;8.998389520268679E-01;1.377423299483364E-01;7.623876043534235E-02;1.129846194455568E-01;8.998389520268679E-01;
6.376376376376376E+07;1.374028489714029E-01;7.824241764560921E-02;1.106237093688624E-01;9.001243220528006E-01;1.374028489714029E-01;7.824241764560921E-02;1.106237093688624E-01;9.001243220528006E-01;
6.401401401401401E+07;1.370547935388188E-01;8.033716144084573E-02;1.082535872584698E-01;9.004135771914962E-01;1.370547935388188E-01;8.033716144084573E-02;1.082535872584698E-01;9.004135771914962E-01;
6.426426426426426E+07;1.366539175688172E-01;8.248236980010171E-02;1.059939234503432E-01;9.006703982083101E-01;1.366539175688172E-01;8.248236980010171E-02;1.059939234503432E-01;9.006703982083101E-01;
6.451451451451451E+07;1.362310153865702E-01;8.469018152227095E-02;1.036638276650405E-01;9.009047790241737E-01;1.362310153865702E-01;8.469018152227095E-02;1.036638276650405E-01;9.009047790241737E-01;
6.476476476476476E+07;1.357403610541220E-01;8.696275725169095E-02;1.016736640723011E-01;9.010071822154796E-01;1.357403610541220E-01;8.696275725169095E-02;1.016736640723011E-01;9.010071822154796E-01;
6.501501501501501E+07;1.352016059339111E-01;8.934995921475178E-02;9.963285582931765E-02;9.010136350781871E-01;1.352016059339111E-01;8.934995921475178E-02;9.963285582931765E-02;9.010136350781871E-01;
6.526526526526526E+07;1.346233530818948E-01;9.181292312244883E-02;9.756376006964529E-02;9.009436953794454E-01;1.346233530818948E-01;9.181292312244883E-02;9.756376006964529E-02;9.009436953794454E-01;
6.551551551551551E+07;1.340206495453808E-01;9.439837348456014E-02;9.574631867826690E-02;9.008508151182921E-01;1.340206495453808E-01;9.439837348456014E-02;9.574631867826690E-02;9.008508151182921E-01;
6.576576576576576E+07;1.331434020104953E-01;9.657211669790076E-02;8.642651339190342E-02;9.020317775386518E-01;1.331434020104953E-01;9.657211669790076E-02;8.642651339190342E-02;9.020317775386518E-01;
6.601601601601601E+07;1.327699083450492E-01;9.920691985672621E-02;8.447147239451820E-02;9.017000251614217E-01;1.327699083450492E-01;9.920691985672621E-02;8.447147239451820E-02;9.017000251614217E-01;
6.626626626626626E+07;1.322468360431078E-01;1.019235627175120E-01;8.246904864805099E-02;9.014209640172307E-01;1.322468360431078E-01;1.019235627175120E-01;8.246904864805099E-02;9.014209640172307E-01;
6.651651651651651E+07;1.317932356220907E-01;1.045836430985547E-01;8.028405186197822E-02;9.011387092034863E-01;1.317932356220907E-01;1.045836430985547E-01;8.028405186197822E-02;9.011387092034863E-01;
6.676676676676676E+07;1.313694602583515E-01;1.072580089027764E-01;7.813700603061144E-02;9.009098341960535E-01;1.313694602583515E-01;1.072580089027764E-01;7.813700603061144E-02;9.009098341960535E-01;
6.701701701701702E+07;1.306793938919081E-01;1.105014698750260E-01;7.724746089774433E-02;9.001948962764847E-01;1.306793938919081E-01;1.105014698750260E-01;7.724746089774433E-02;9.001948962764847E-01;
6.726726726726727E+07;1.302945395678492E-01;1.131631376088706E-01;7.526316584494953E-02;8.998316046415303E-01;1.302945395678492E-01;1.131631376088706E-01;7.526316584494953E-02;8.998316046415303E-01;
6.751751751751752E+07;1.299537394150865E-01;1.158110655511980E-01;7.317962828477834E-02;8.995232776947231E-01;1.299537394150865E-01;1.158110655511980E-01;7.317962828477834E-02;8.995232776947231E-01;
6.776776776776777E+07;1.295999011034820E-01;1.185133043980508E-01;7.099595397584080E-02;8.992270945466911E-01;1.295999011034820E-01;1.185133043980508E-01;7.099595397584080E-02;8.992270945466911E-01;
6.801801801801802E+07;1.290910572649533E-01;1.213246508666562E-01;6.863674542800868E-02;8.990142600773914E-01;1.290910572649533E-01;1.213246508666562E-01;6.863674542800868E-02;8.990142600773914E-01;
6.826826826826827E+07;1.284601203466841E-01;1.244530544959837E-01;6.639700993953503E-02;8.987360173454894E-01;1.284601203466841E-01;1.244530544959837E-01;6.639700993953503E-02;8.987360173454894E-01;
6.851851851851852E+07;1.277547295979670E-01;1.278063404151209E-01;6.458759189859146E-02;8.984039946535441E-01;1.277547295979670E-01;1.278063404151209E-01;6.458759189859146E-02;8.984039946535441E-01;
6.876876876876877E+07;1.267119057780464E-01;1.312477860433417E-01;6.734809870780270E-02;8.981029349198647E-01;1.267119057780464E-01;1.312477860433417E-01;6.734809870780270E-02;8.981029349198647E-01;
6.901901901901902E+07;1.257054319147512E-01;1.348831180397159E-01;6.673014842855282E-02;8.974663937421725E-01;1.257054319147512E-01;1.348831180397159E-01;6.673014842855282E-02;8.974663937421725E-01;
6.926926926926927E+07;1.245382252912007E-01;1.385242553739975E-01;6.697140791475910E-02;8.964501439262755E-01;1.245382252912007E-01;1.385242553739975E-01;6.697140791475910E-02;8.964501439262755E-01;
6.951951951951952E+07;1.231926600209320E-01;1.421156081035624E-01;6.738261984932693E-02;8.953926601253054E-01;1.231926600209320E-01;1.421156081035624E-01;6.738261984932693E-02;8.953926601253054E-01;
6.976976976976977E+07;1.220939203374394E-01;1.458418788984008E-01;6.762150368234066E-02;8.939975043817547E-01;1.220939203374394E-01;1.458418788984008E-01;6.762150368234066E-02;8.939975043817547E-01;
7.002002002002002E+07;1.209610397128113E-01;1.495672203238140E-01;6.779666828139538E-02;8.928221947401145E-01;1.209610397128113E-01;1.495672203238140E-01;6.779666828139538E-02;8.928221947401145E-01;
7.027027027027027E+07;1.200345215821305E-01;1.531007542585600E-01;6.754678959465468E-02;8.916073770961128E-01;1.200345215821305E-01;1.531007542585600E-01;6.754678959465468E-02;8.916073770961128E-01;
7.052052052052052E+07;1.191710416984033E-01;1.566351764151351E-01;6.726120420176676E-02;8.905198853139069E-01;1.191710416984033E-01;1.566351764151351E-01;6.726120420176676E-02;8.905198853139069E-01;
7.077077077077077E+07;1.183571767012252E-01;1.601739529178723E-01;6.688207495463214E-02;8.894143147965701E-01;1.183571767012252E-01;1.601739529178723E-01;6.688207495463214E-02;8.894143147965701E-01;
7.102102102102102E+07;1.175889075599433E-01;1.636904776353011E-01;6.636019069722982E-02;8.883585299793638E-01;1.175889075599433E-01;1.636904776353011E-01;6.636019069722982E-02;8.883585299793638E-01;
7.127127127127127E+07;1.169264886155306E-01;1.672332780537821E-01;6.584393430878363E-02;8.872049506278222E-01;1.169264886155306E-01;1.672332780537821E-01;6.584393430878363E-02;8.872049506278222E-01;
7.152152152152152E+07;1.163592187708256E-01;1.706993807513699E-01;6.532638256339404E-02;8.861443589159761E-01;1.163592187708256E-01;1.706993807513699E-01;6.532638256339404E-02;8.861443589159761E-01;
7.177177177177177E+07;1.157940381051182E-01;1.742238630900624E-01;6.454916949192731E-02;8.850696309891776E-01;1.157940381051182E-01;1.742238630900624E-01;6.454916949192731E-02;8.850696309891776E-01;
7.202202202202202E+07;1.151881045359110E-01;1.778660406520645E-01;6.376430582673510E-02;8.839559902339903E-01;1.151881045359110E-01;1.778660406520645E-01;6.376430582673510E-02;8.839559902339903E-01;
7.227227227227227E+07;1.142142679288841E-01;1.818963362288166E-01;6.314381655603492E-02;8.828811620084578E-01;1.142142679288841E-01;1.818963362288166E-01;6.314381655603492E-02;8.828811620084578E-01;
7.252252252252252E+07;1.131425305338095E-01;1.859502767162501E-01;6.300657891924273E-02;8.816061903507255E-01;1.131425305338095E-01;1.859502767162501E-01;6.300657891924273E-02;8.816061903507255E-01;
7.277277277277277E+07;1.117980731896791E-01;1.902305973775416E-01;6.321285401229429E-02;8.802010006305659E-01;1.117980731896791E-01;1.902305973775416E-01;6.321285401229429E-02;8.802010006305659E-01;
7.302302302302302E+07;1.103894535758711E-01;1.945781834291382E-01;6.418774827432858E-02;8.785759950517131E-01;1.103894535758711E-01;1.945781834291382E-01;6.418774827432858E-02;8.785759950517131E-01;
7.327327327327327E+07;1.089132010610190E-01;1.990141905382801E-01;6.557345225137877E-02;8.768607620771176E-01;1.089132010610190E-01;1.990141905382801E-01;6.557345225137877E-02;8.768607620771176E-01;
7.352352352352352E+07;1.074331912483031E-01;2.034397452734259E-01;6.706598284193391E-02;8.750523585232961E-01;1.074331912483031E-01;2.034397452734259E-01;6.706598284193391E-02;8.750523585232961E-01;
7.377377377377377E+07;1.061779715137514E-01;2.081179259682474E-01;6.879859630962382E-02;8.730471015557475E-01;1.061779715137514E-01;2.081179259682474E-01;6.879859630962382E-02;8.730471015557475E-01;
7.402402402402402E+07;1.050896463340414E-01;2.127776545014058E-01;7.034404286533788E-02;8.711146753929293E-01;1.050896463340414E-01;2.127776545014058E-01;7.034404286533788E-02;8.711146753929293E-01;
7.427427427427427E+07;1.040800028937371E-01;2.174334896503648E-01;7.190295351729080E-02;8.690619180359729E-01;1.040800028937371E-01;2.174334896503648E-01;7.190295351729080E-02;8.690619180359729E-01;
7.452452452452452E+07;1.030717112059217E-01;2.221304779412980E-01;7.329953951691918E-02;8.669838020744771E-01;1.030717112059217E-01;2.221304779412980E-01;7.329953951691918E-02;8.669838020744771E-01;
