# Version 1.00
#
# Ref Impedances: Z01: 50, Z02: 50
# 
freq[Hz];re:SMag2_S11;im:SMag2_S11;re:ZPh2_S12;im:ZPh2_S12;re:SPh2_S11;im:SPh2_S11;re:ZMag2_S12;im:ZMag2_S12;
5.000000000000000E+07;3.577727504792491E-01;8.164920029122003E-01;1.022341552332247E-01;-6.271673646383640E-03;3.577727504792491E-01;8.164920029122003E-01;1.022341552332247E-01;-6.271673646383640E-03;
5.025025025025025E+07;3.498715261794066E-01;8.177679304875890E-01;1.072631081927768E-01;-5.230048526020510E-03;3.498715261794066E-01;8.177679304875890E-01;1.072631081927768E-01;-5.230048526020510E-03;
5.050050050050050E+07;3.416099095244253E-01;8.198401922982040E-01;1.127802111736999E-01;-5.153492130816913E-03;3.416099095244253E-01;8.198401922982040E-01;1.127802111736999E-01;-5.153492130816913E-03;
5.075075075075075E+07;3.331773053252906E-01;8.230948691813578E-01;1.178597920635539E-01;-6.685418674014101E-03;3.331773053252906E-01;8.230948691813578E-01;1.178597920635539E-01;-6.685418674014101E-03;
5.100100100100100E+07;3.253291467822040E-01;8.276116965866045E-01;1.220143813198604E-01;-9.249120705012730E-03;3.253291467822040E-01;8.276116965866045E-01;1.220143813198604E-01;-9.249120705012730E-03;
5.125125125125125E+07;3.181576358818052E-01;8.321378211357342E-01;1.249872710300549E-01;-1.238881033637967E-02;3.181576358818052E-01;8.321378211357342E-01;1.249872710300549E-01;-1.238881033637967E-02;
5.150150150150150E+07;3.116924206775896E-01;8.372769064407709E-01;1.266547249063053E-01;-1.553361244076732E-02;3.116924206775896E-01;8.372769064407709E-01;1.266547249063053E-01;-1.553361244076732E-02;
5.175175175175175E+07;3.061826343760511E-01;8.423626163691993E-01;1.273896865024055E-01;-1.837588329093400E-02;3.061826343760511E-01;8.423626163691993E-01;1.273896865024055E-01;-1.837588329093400E-02;
5.200200200200200E+07;3.012514471804053E-01;8.471318783916870E-01;1.269782511274624E-01;-2.034228828068435E-02;3.012514471804053E-01;8.471318783916870E-01;1.269782511274624E-01;-2.034228828068435E-02;
5.225225225225225E+07;2.968505067249961E-01;8.518169161854857E-01;1.269242050779492E-01;-2.230500511610299E-02;2.968505067249961E-01;8.518169161854857E-01;1.269242050779492E-01;-2.230500511610299E-02;
5.250250250250250E+07;2.928175469520311E-01;8.557324454668752E-01;1.261216208490418E-01;-2.348919259757427E-02;2.928175469520311E-01;8.557324454668752E-01;1.261216208490418E-01;-2.348919259757427E-02;
5.275275275275275E+07;2.890903176924764E-01;8.595716509361137E-01;1.253301881874697E-01;-2.399016951092791E-02;2.890903176924764E-01;8.595716509361137E-01;1.253301881874697E-01;-2.399016951092791E-02;
5.300300300300300E+07;2.858404363657879E-01;8.629358282130596E-01;1.231553728475292E-01;-2.421521681538307E-02;2.858404363657879E-01;8.629358282130596E-01;1.231553728475292E-01;-2.421521681538307E-02;
5.325325325325325E+07;2.818308308139085E-01;8.657796409334467E-01;1.236325351226115E-01;-2.384627702246046E-02;2.818308308139085E-01;8.657796409334467E-01;1.236325351226115E-01;-2.384627702246046E-02;
5.350350350350350E+07;2.785125094779577E-01;8.685002701120492E-01;1.229502637558045E-01;-2.328581378062287E-02;2.785125094779577E-01;8.685002701120492E-01;1.229502637558045E-01;-2.328581378062287E-02;
5.375375375375375E+07;2.745931185181673E-01;8.704002395666121E-01;1.223564570264769E-01;-2.252107760140867E-02;2.745931185181673E-01;8.704002395666121E-01;1.223564570264769E-01;-2.252107760140867E-02;
5.400400400400400E+07;2.710901966937085E-01;8.725739036131914E-01;1.217698862595983E-01;-2.150528189274447E-02;2.710901966937085E-01;8.725739036131914E-01;1.217698862595983E-01;-2.150528189274447E-02;
5.425425425425425E+07;2.676137219830174E-01;8.746964878156847E-01;1.212836736139320E-01;-2.031450900048191E-02;2.676137219830174E-01;8.746964878156847E-01;1.212836736139320E-01;-2.031450900048191E-02;
5.450450450450450E+07;2.638669714703689E-01;8.766861819872226E-01;1.207234116368462E-01;-1.887225778271743E-02;2.638669714703689E-01;8.766861819872226E-01;1.207234116368462E-01;-1.887225778271743E-02;
5.475475475475475E+07;2.605341990675842E-01;8.784299081919383E-01;1.204954407751411E-01;-1.691649287628380E-02;2.605341990675842E-01;8.784299081919383E-01;1.204954407751411E-01;-1.691649287628380E-02;
5.500500500500500E+07;2.571918100221389E-01;8.799256560304684E-01;1.202783251185138E-01;-1.529597522313472E-02;2.571918100221389E-01;8.799256560304684E-01;1.202783251185138E-01;-1.529597522313472E-02;
5.525525525525525E+07;2.536107591462228E-01;8.815545628567977E-01;1.200272641461138E-01;-1.352219891877911E-02;2.536107591462228E-01;8.815545628567977E-01;1.200272641461138E-01;-1.352219891877911E-02;
5.550550550550550E+07;2.500185041834070E-01;8.828685701138960E-01;1.198906051535273E-01;-1.166158253919516E-02;2.500185041834070E-01;8.828685701138960E-01;1.198906051535273E-01;-1.166158253919516E-02;
5.575575575575575E+07;2.464467548658419E-01;8.840079258645754E-01;1.196958657409442E-01;-9.691199889079018E-03;2.464467548658419E-01;8.840079258645754E-01;1.196958657409442E-01;-9.691199889079018E-03;
5.600600600600600E+07;2.426595148360364E-01;8.851529874600087E-01;1.197046179163093E-01;-7.662088964890517E-03;2.426595148360364E-01;8.851529874600087E-01;1.197046179163093E-01;-7.662088964890517E-03;
5.625625625625625E+07;2.391218809138756E-01;8.860703919255282E-01;1.196573617228528E-01;-5.490028627667217E-03;2.391218809138756E-01;8.860703919255282E-01;1.196573617228528E-01;-5.490028627667217E-03;
5.650650650650650E+07;2.354760787133743E-01;8.868541477320308E-01;1.197386920359734E-01;-3.273900422316823E-03;2.354760787133743E-01;8.868541477320308E-01;1.197386920359734E-01;-3.273900422316823E-03;
5.675675675675675E+07;2.321819847729832E-01;8.878156139875859E-01;1.193357623798974E-01;-1.042332824407495E-03;2.321819847729832E-01;8.878156139875859E-01;1.193357623798974E-01;-1.042332824407495E-03;
5.700700700700700E+07;2.278987188354532E-01;8.882695709255692E-01;1.200617079959440E-01;1.448512094818417E-03;2.278987188354532E-01;8.882695709255692E-01;1.200617079959440E-01;1.448512094818417E-03;
5.725725725725726E+07;2.242566196196275E-01;8.888013563074129E-01;1.202900525180328E-01;3.987178343996317E-03;2.242566196196275E-01;8.888013563074129E-01;1.202900525180328E-01;3.987178343996317E-03;
5.750750750750751E+07;2.206085464415483E-01;8.894315795038672E-01;1.205856243252767E-01;6.487591538973506E-03;2.206085464415483E-01;8.894315795038672E-01;1.205856243252767E-01;6.487591538973506E-03;
5.775775775775776E+07;2.168950912214193E-01;8.898510618220401E-01;1.209101936359557E-01;9.125271978342432E-03;2.168950912214193E-01;8.898510618220401E-01;1.209101936359557E-01;9.125271978342432E-03;
5.800800800800801E+07;2.130069209409748E-01;8.898196417545681E-01;1.212331842378574E-01;1.208002383110220E-02;2.130069209409748E-01;8.898196417545681E-01;1.212331842378574E-01;1.208002383110220E-02;
5.825825825825826E+07;2.094192367304083E-01;8.899483351377622E-01;1.215095548036327E-01;1.508133841793330E-02;2.094192367304083E-01;8.899483351377622E-01;1.215095548036327E-01;1.508133841793330E-02;
5.850850850850851E+07;2.054007133269837E-01;8.898632768214242E-01;1.218878120403973E-01;1.825474705662717E-02;2.054007133269837E-01;8.898632768214242E-01;1.218878120403973E-01;1.825474705662717E-02;
5.875875875875876E+07;2.014218006335374E-01;8.891090752731386E-01;1.224289777797807E-01;2.168289476042950E-02;2.014218006335374E-01;8.891090752731386E-01;1.224289777797807E-01;2.168289476042950E-02;
5.900900900900901E+07;1.972803298169410E-01;8.886676750201679E-01;1.232541820568425E-01;2.539687673480255E-02;1.972803298169410E-01;8.886676750201679E-01;1.232541820568425E-01;2.539687673480255E-02;
5.925925925925926E+07;1.926482837512581E-01;8.879580165308121E-01;1.246024057605532E-01;2.917260230244625E-02;1.926482837512581E-01;8.879580165308121E-01;1.246024057605532E-01;2.917260230244625E-02;
5.950950950950951E+07;1.878080525290888E-01;8.875603200631794E-01;1.263599977183407E-01;3.294413238260171E-02;1.878080525290888E-01;8.875603200631794E-01;1.263599977183407E-01;3.294413238260171E-02;
5.975975975975976E+07;1.826090356761005E-01;8.875215886054173E-01;1.286983194806991E-01;3.653407329716723E-02;1.826090356761005E-01;8.875215886054173E-01;1.286983194806991E-01;3.653407329716723E-02;
6.001001001001001E+07;1.774683763177040E-01;8.876853889787215E-01;1.312247480073870E-01;3.943150707364945E-02;1.774683763177040E-01;8.876853889787215E-01;1.312247480073870E-01;3.943150707364945E-02;
6.026026026026026E+07;1.723689944189667E-01;8.885863530530540E-01;1.339482455290371E-01;4.195825061823881E-02;1.723689944189667E-01;8.885863530530540E-01;1.339482455290371E-01;4.195825061823881E-02;
6.051051051051051E+07;1.678522682340172E-01;8.899988888113283E-01;1.362782372140753E-01;4.381547464774424E-02;1.678522682340172E-01;8.899988888113283E-01;1.362782372140753E-01;4.381547464774424E-02;
6.076076076076076E+07;1.631313329292703E-01;8.915583387382655E-01;1.386282060446834E-01;4.533667576997786E-02;1.631313329292703E-01;8.915583387382655E-01;1.386282060446834E-01;4.533667576997786E-02;
6.101101101101101E+07;1.591728464309180E-01;8.931125848122933E-01;1.406234198398997E-01;4.672188230042430E-02;1.591728464309180E-01;8.931125848122933E-01;1.406234198398997E-01;4.672188230042430E-02;
6.126126126126126E+07;1.557873442761979E-01;8.947458788129988E-01;1.420500153301456E-01;4.790111846483114E-02;1.557873442761979E-01;8.947458788129988E-01;1.420500153301456E-01;4.790111846483114E-02;
6.151151151151151E+07;1.525785605554759E-01;8.961106937313688E-01;1.430708597036170E-01;4.932722894646550E-02;1.525785605554759E-01;8.961106937313688E-01;1.430708597036170E-01;4.932722894646550E-02;
6.176176176176176E+07;1.495942034724022E-01;8.973414593252222E-01;1.439831689331544E-01;5.083071804090065E-02;1.495942034724022E-01;8.973414593252222E-01;1.439831689331544E-01;5.083071804090065E-02;
6.201201201201201E+07;1.469590161273100E-01;8.983546275159583E-01;1.446614639814183E-01;5.238653980270543E-02;1.469590161273100E-01;8.983546275159583E-01;1.446614639814183E-01;5.238653980270543E-02;
6.226226226226226E+07;1.445682689863211E-01;8.993088987954168E-01;1.451735835685575E-01;5.408190163154065E-02;1.445682689863211E-01;8.993088987954168E-01;1.451735835685575E-01;5.408190163154065E-02;
6.251251251251251E+07;1.420166544474463E-01;9.002045661192162E-01;1.455866081723645E-01;5.592737759303947E-02;1.420166544474463E-01;9.002045661192162E-01;1.455866081723645E-01;5.592737759303947E-02;
6.276276276276276E+07;1.400788115768762E-01;9.008651677212811E-01;1.458754779290047E-01;5.791155173119092E-02;1.400788115768762E-01;9.008651677212811E-01;1.458754779290047E-01;5.791155173119092E-02;
6.301301301301301E+07;1.382644754472215E-01;9.009867129667826E-01;1.460593813282263E-01;6.000576834258344E-02;1.382644754472215E-01;9.009867129667826E-01;1.460593813282263E-01;6.000576834258344E-02;
6.326326326326326E+07;1.359917678015995E-01;9.012849951500818E-01;1.462386735832091E-01;6.233832291597094E-02;1.359917678015995E-01;9.012849951500818E-01;1.462386735832091E-01;6.233832291597094E-02;
6.351351351351351E+07;1.339384384987920E-01;9.013649389033560E-01;1.463491272407263E-01;6.479820635854146E-02;1.339384384987920E-01;9.013649389033560E-01;1.463491272407263E-01;6.479820635854146E-02;
6.376376376376376E+07;1.317873029294820E-01;9.013614833579303E-01;1.465549604102595E-01;6.732823977614537E-02;1.317873029294820E-01;9.013614833579303E-01;1.465549604102595E-01;6.732823977614537E-02;
6.401401401401401E+07;1.296104781700911E-01;9.012994646538692E-01;1.466230513237165E-01;6.989731674930377E-02;1.296104781700911E-01;9.012994646538692E-01;1.466230513237165E-01;6.989731674930377E-02;
6.426426426426426E+07;1.278400767381695E-01;9.012242951156322E-01;1.461916142617916E-01;7.255827940789572E-02;1.278400767381695E-01;9.012242951156322E-01;1.461916142617916E-01;7.255827940789572E-02;
6.451451451451451E+07;1.256790518345356E-01;9.011439679076199E-01;1.464088785895225E-01;7.535072694518824E-02;1.256790518345356E-01;9.011439679076199E-01;1.464088785895225E-01;7.535072694518824E-02;
6.476476476476476E+07;1.239580250640954E-01;9.009518822631427E-01;1.466208390378070E-01;7.826916425264893E-02;1.239580250640954E-01;9.009518822631427E-01;1.466208390378070E-01;7.826916425264893E-02;
6.501501501501501E+07;1.221720430897567E-01;9.005155229024114E-01;1.467350303303780E-01;8.128264701325727E-02;1.221720430897567E-01;9.005155229024114E-01;1.467350303303780E-01;8.128264701325727E-02;
6.526526526526526E+07;1.206396020660654E-01;9.001330310922162E-01;1.468270754725927E-01;8.435451939657460E-02;1.206396020660654E-01;9.001330310922162E-01;1.468270754725927E-01;8.435451939657460E-02;
6.551551551551551E+07;1.190004057316980E-01;8.996410242164442E-01;1.469344454791771E-01;8.746805177480563E-02;1.190004057316980E-01;8.996410242164442E-01;1.469344454791771E-01;8.746805177480563E-02;
6.576576576576576E+07;1.194432561236541E-01;9.000808920262539E-01;1.473960445322432E-01;9.050800504478340E-02;1.194432561236541E-01;9.000808920262539E-01;1.473960445322432E-01;9.050800504478340E-02;
6.601601601601601E+07;1.180128601041848E-01;8.993947154867440E-01;1.475752806647989E-01;9.364235343166816E-02;1.180128601041848E-01;8.993947154867440E-01;1.475752806647989E-01;9.364235343166816E-02;
6.626626626626626E+07;1.164071206653304E-01;8.988760764157251E-01;1.477667448478066E-01;9.688011357144403E-02;1.164071206653304E-01;8.988760764157251E-01;1.477667448478066E-01;9.688011357144403E-02;
6.651651651651651E+07;1.148980433386482E-01;8.984128198577563E-01;1.480874849533549E-01;1.001393735254374E-01;1.148980433386482E-01;8.984128198577563E-01;1.480874849533549E-01;1.001393735254374E-01;
6.676676676676676E+07;1.130431554909515E-01;8.978790465492383E-01;1.483330230141561E-01;1.033338787576701E-01;1.130431554909515E-01;8.978790465492383E-01;1.483330230141561E-01;1.033338787576701E-01;
6.701701701701702E+07;1.125660694293277E-01;8.969350047724554E-01;1.483680757287527E-01;1.071433868476294E-01;1.125660694293277E-01;8.969350047724554E-01;1.483680757287527E-01;1.071433868476294E-01;
6.726726726726727E+07;1.112353210778119E-01;8.962334249540115E-01;1.484241626965409E-01;1.103407842794144E-01;1.112353210778119E-01;8.962334249540115E-01;1.484241626965409E-01;1.103407842794144E-01;
6.751751751751752E+07;1.094588729600455E-01;8.957590991844860E-01;1.489873954037181E-01;1.134473316274453E-01;1.094588729600455E-01;8.957590991844860E-01;1.489873954037181E-01;1.134473316274453E-01;
6.776776776776777E+07;1.079007236105114E-01;8.952844663668268E-01;1.494268411935275E-01;1.164373764052343E-01;1.079007236105114E-01;8.952844663668268E-01;1.494268411935275E-01;1.164373764052343E-01;
6.801801801801802E+07;1.063117661903688E-01;8.947444332832099E-01;1.497165945527614E-01;1.198485791191474E-01;1.063117661903688E-01;8.947444332832099E-01;1.497165945527614E-01;1.198485791191474E-01;
6.826826826826827E+07;1.047330335913935E-01;8.940494900972091E-01;1.497356922082654E-01;1.235492586814586E-01;1.047330335913935E-01;8.940494900972091E-01;1.497356922082654E-01;1.235492586814586E-01;
6.851851851851852E+07;1.037655821332654E-01;8.932614540667928E-01;1.497297892084470E-01;1.275578855027108E-01;1.037655821332654E-01;8.932614540667928E-01;1.497297892084470E-01;1.275578855027108E-01;
6.876876876876877E+07;1.034562615914770E-01;8.916765196052733E-01;1.492817032305666E-01;1.317156184229259E-01;1.034562615914770E-01;8.916765196052733E-01;1.492817032305666E-01;1.317156184229259E-01;
6.901901901901902E+07;1.037069466859423E-01;8.904136732581289E-01;1.488936816774142E-01;1.362432661064887E-01;1.037069466859423E-01;8.904136732581289E-01;1.488936816774142E-01;1.362432661064887E-01;
6.926926926926927E+07;1.044073808849342E-01;8.888129704815344E-01;1.484914223262718E-01;1.406856380597947E-01;1.044073808849342E-01;8.888129704815344E-01;1.484914223262718E-01;1.406856380597947E-01;
6.951951951951952E+07;1.054817218174881E-01;8.869441395284752E-01;1.480215928890352E-01;1.452918533109109E-01;1.054817218174881E-01;8.869441395284752E-01;1.480215928890352E-01;1.452918533109109E-01;
6.976976976976977E+07;1.064768005940065E-01;8.850360915165850E-01;1.476208946468931E-01;1.498425502983969E-01;1.064768005940065E-01;8.850360915165850E-01;1.476208946468931E-01;1.498425502983969E-01;
7.002002002002002E+07;1.074447320020500E-01;8.831904583455524E-01;1.472339897869034E-01;1.544328108448224E-01;1.074447320020500E-01;8.831904583455524E-01;1.472339897869034E-01;1.544328108448224E-01;
7.027027027027027E+07;1.082417581582447E-01;8.813410086013094E-01;1.470721076790732E-01;1.589030824012369E-01;1.082417581582447E-01;8.813410086013094E-01;1.470721076790732E-01;1.589030824012369E-01;
7.052052052052052E+07;1.086321833448933E-01;8.794649874866818E-01;1.470640473499918E-01;1.633751801460624E-01;1.086321833448933E-01;8.794649874866818E-01;1.470640473499918E-01;1.633751801460624E-01;
7.077077077077077E+07;1.090429553159892E-01;8.777074375409647E-01;1.470584865662180E-01;1.678626480339776E-01;1.090429553159892E-01;8.777074375409647E-01;1.470584865662180E-01;1.678626480339776E-01;
7.102102102102102E+07;1.097043552808309E-01;8.757882379202666E-01;1.469502314855196E-01;1.722381027250875E-01;1.097043552808309E-01;8.757882379202666E-01;1.469502314855196E-01;1.722381027250875E-01;
7.127127127127127E+07;1.099380209089386E-01;8.740984401780193E-01;1.474386374160183E-01;1.768309336671743E-01;1.099380209089386E-01;8.740984401780193E-01;1.474386374160183E-01;1.768309336671743E-01;
7.152152152152152E+07;1.103755398915666E-01;8.722608815417295E-01;1.479093787656768E-01;1.812714319703267E-01;1.103755398915666E-01;8.722608815417295E-01;1.479093787656768E-01;1.812714319703267E-01;
7.177177177177177E+07;1.106961113868900E-01;8.700376624466958E-01;1.482199222277245E-01;1.858023613922764E-01;1.106961113868900E-01;8.700376624466958E-01;1.482199222277245E-01;1.858023613922764E-01;
7.202202202202202E+07;1.108899092761959E-01;8.683448303851252E-01;1.485076610143730E-01;1.905543786685897E-01;1.108899092761959E-01;8.683448303851252E-01;1.485076610143730E-01;1.905543786685897E-01;
7.227227227227227E+07;1.115426375893601E-01;8.661825601124070E-01;1.485240805176452E-01;1.956740491544421E-01;1.115426375893601E-01;8.661825601124070E-01;1.485240805176452E-01;1.956740491544421E-01;
7.252252252252252E+07;1.126413964903799E-01;8.639253616377602E-01;1.483766658418482E-01;2.010314113256534E-01;1.126413964903799E-01;8.639253616377602E-01;1.483766658418482E-01;2.010314113256534E-01;
7.277277277277277E+07;1.141164875492164E-01;8.611867604629102E-01;1.479587319970559E-01;2.069185265844659E-01;1.141164875492164E-01;8.611867604629102E-01;1.479587319970559E-01;2.069185265844659E-01;
7.302302302302302E+07;1.163001878483297E-01;8.585422043862977E-01;1.477792229007865E-01;2.129580827809786E-01;1.163001878483297E-01;8.585422043862977E-01;1.477792229007865E-01;2.129580827809786E-01;
7.327327327327327E+07;1.190859076777664E-01;8.554916873203734E-01;1.474999780151664E-01;2.189425969412939E-01;1.190859076777664E-01;8.554916873203734E-01;1.474999780151664E-01;2.189425969412939E-01;
7.352352352352352E+07;1.220526917643948E-01;8.520033553544570E-01;1.473425349015423E-01;2.248931034340284E-01;1.220526917643948E-01;8.520033553544570E-01;1.473425349015423E-01;2.248931034340284E-01;
7.377377377377377E+07;1.249151860194252E-01;8.485204332935596E-01;1.472815114936624E-01;2.309525045478721E-01;1.249151860194252E-01;8.485204332935596E-01;1.472815114936624E-01;2.309525045478721E-01;
7.402402402402402E+07;1.279300499496366E-01;8.451456553548319E-01;1.473708839315815E-01;2.370806554475576E-01;1.279300499496366E-01;8.451456553548319E-01;1.473708839315815E-01;2.370806554475576E-01;
7.427427427427427E+07;1.309117576927137E-01;8.413979669012754E-01;1.476359227590979E-01;2.434019303588019E-01;1.309117576927137E-01;8.413979669012754E-01;1.476359227590979E-01;2.434019303588019E-01;
