# Version 1.00
#
# Ref Impedances: Z01: 50, Z02: 50
# 
freq[Hz];re:ZMag1_S12;im:ZMag1_S12;re:SMag1_S11;im:SMag1_S11;re:ZPh1_S12;im:ZPh1_S12;re:SPh1_S11;im:SPh1_S11;
5.000000000000000E+07;9.641106974359681E-02;1.593974180045686E-03;3.597940481589171E-01;8.256508675314558E-01;9.641106974359681E-02;1.593974180045686E-03;3.597940481589171E-01;8.256508675314558E-01;
5.025025025025025E+07;9.805911495362897E-02;5.792120192985016E-03;3.546085390208683E-01;8.261839942821423E-01;9.805911495362897E-02;5.792120192985016E-03;3.546085390208683E-01;8.261839942821423E-01;
5.050050050050050E+07;1.006274650143105E-01;1.045485912850911E-02;3.489321005902218E-01;8.262197897096750E-01;1.006274650143105E-01;1.045485912850911E-02;3.489321005902218E-01;8.262197897096750E-01;
5.075075075075075E+07;1.044398541328026E-01;1.424930129884589E-02;3.427149222327044E-01;8.264769908255956E-01;1.044398541328026E-01;1.424930129884589E-02;3.427149222327044E-01;8.264769908255956E-01;
5.100100100100100E+07;1.093726692445170E-01;1.745482956102868E-02;3.356030340595083E-01;8.267021741779643E-01;1.093726692445170E-01;1.745482956102868E-02;3.356030340595083E-01;8.267021741779643E-01;
5.125125125125125E+07;1.149479580239300E-01;1.932474487171078E-02;3.278473335654762E-01;8.278684003967676E-01;1.149479580239300E-01;1.932474487171078E-02;3.278473335654762E-01;8.278684003967676E-01;
5.150150150150150E+07;1.206062099285985E-01;1.961272957152884E-02;3.198752111629159E-01;8.294177135086523E-01;1.206062099285985E-01;1.961272957152884E-02;3.198752111629159E-01;8.294177135086523E-01;
5.175175175175175E+07;1.257029626222945E-01;1.853985670579245E-02;3.116771546564805E-01;8.320963814035787E-01;1.257029626222945E-01;1.853985670579245E-02;3.116771546564805E-01;8.320963814035787E-01;
5.200200200200200E+07;1.281088599514115E-01;1.265434180031579E-02;3.040702233028766E-01;8.368397085425366E-01;1.281088599514115E-01;1.265434180031579E-02;3.040702233028766E-01;8.368397085425366E-01;
5.225225225225225E+07;1.327004895382752E-01;1.396571308381639E-02;2.967702964910307E-01;8.390679792208878E-01;1.327004895382752E-01;1.396571308381639E-02;2.967702964910307E-01;8.390679792208878E-01;
5.250250250250250E+07;1.347994593136329E-01;1.130693064093726E-02;2.899709749633604E-01;8.430113914883676E-01;1.347994593136329E-01;1.130693064093726E-02;2.899709749633604E-01;8.430113914883676E-01;
5.275275275275275E+07;1.359400991069978E-01;8.761134819678856E-03;2.837489084925036E-01;8.471232613458605E-01;1.359400991069978E-01;8.761134819678856E-03;2.837489084925036E-01;8.471232613458605E-01;
5.300300300300300E+07;1.363086731127770E-01;6.480857601422827E-03;2.781533758805627E-01;8.512671708832817E-01;1.363086731127770E-01;6.480857601422827E-03;2.781533758805627E-01;8.512671708832817E-01;
5.325325325325325E+07;1.361754051250861E-01;4.590454456168206E-03;2.729418115100068E-01;8.550805525787014E-01;1.361754051250861E-01;4.590454456168206E-03;2.729418115100068E-01;8.550805525787014E-01;
5.350350350350350E+07;1.356508000455843E-01;3.067924944803939E-03;2.678146162890028E-01;8.587651432921000E-01;1.356508000455843E-01;3.067924944803939E-03;2.678146162890028E-01;8.587651432921000E-01;
5.375375375375375E+07;1.347112956992315E-01;1.974906708157450E-03;2.631390166667669E-01;8.624341873381999E-01;1.347112956992315E-01;1.974906708157450E-03;2.631390166667669E-01;8.624341873381999E-01;
5.400400400400400E+07;1.335449000028853E-01;1.290014313010443E-03;2.589292735193672E-01;8.656357221480360E-01;1.335449000028853E-01;1.290014313010443E-03;2.589292735193672E-01;8.656357221480360E-01;
5.425425425425425E+07;1.321679212250830E-01;1.036655718143997E-03;2.549456405253401E-01;8.687075642454192E-01;1.321679212250830E-01;1.036655718143997E-03;2.549456405253401E-01;8.687075642454192E-01;
5.450450450450450E+07;1.308411432464905E-01;1.157903599464261E-03;2.508880561792565E-01;8.713579966383906E-01;1.308411432464905E-01;1.157903599464261E-03;2.508880561792565E-01;8.713579966383906E-01;
5.475475475475475E+07;1.295163585739099E-01;1.633614721983037E-03;2.469772047438286E-01;8.738338792354561E-01;1.295163585739099E-01;1.633614721983037E-03;2.469772047438286E-01;8.738338792354561E-01;
5.500500500500500E+07;1.282207496560428E-01;2.390161747940675E-03;2.431650054735862E-01;8.760909804037578E-01;1.282207496560428E-01;2.390161747940675E-03;2.431650054735862E-01;8.760909804037578E-01;
5.525525525525525E+07;1.269635147966274E-01;3.361528286557229E-03;2.393461572465109E-01;8.781130075804657E-01;1.269635147966274E-01;3.361528286557229E-03;2.393461572465109E-01;8.781130075804657E-01;
5.550550550550550E+07;1.257368908312554E-01;4.490599130370703E-03;2.356066062830942E-01;8.799913384571723E-01;1.257368908312554E-01;4.490599130370703E-03;2.356066062830942E-01;8.799913384571723E-01;
5.575575575575575E+07;1.244994560670652E-01;5.826376914792063E-03;2.321484692356136E-01;8.819921470606443E-01;1.244994560670652E-01;5.826376914792063E-03;2.321484692356136E-01;8.819921470606443E-01;
5.600600600600600E+07;1.233501154193948E-01;7.360508523991882E-03;2.282903969513679E-01;8.831748862475743E-01;1.233501154193948E-01;7.360508523991882E-03;2.282903969513679E-01;8.831748862475743E-01;
5.625625625625625E+07;1.222730536117726E-01;9.069641538340060E-03;2.243602578962705E-01;8.845639208573631E-01;1.222730536117726E-01;9.069641538340060E-03;2.243602578962705E-01;8.845639208573631E-01;
5.650650650650650E+07;1.212027182405221E-01;1.093437273096884E-02;2.208439517788504E-01;8.857853424259693E-01;1.212027182405221E-01;1.093437273096884E-02;2.208439517788504E-01;8.857853424259693E-01;
5.675675675675675E+07;1.201952073771379E-01;1.296834193535155E-02;2.169751254689058E-01;8.868113828010957E-01;1.201952073771379E-01;1.296834193535155E-02;2.169751254689058E-01;8.868113828010957E-01;
5.700700700700700E+07;1.192425040271070E-01;1.512750465398318E-02;2.134471469591493E-01;8.877810387404926E-01;1.192425040271070E-01;1.512750465398318E-02;2.134471469591493E-01;8.877810387404926E-01;
5.725725725725726E+07;1.183537305261199E-01;1.737264737453318E-02;2.097400933651826E-01;8.884842537792764E-01;1.183537305261199E-01;1.737264737453318E-02;2.097400933651826E-01;8.884842537792764E-01;
5.750750750750751E+07;1.174910107759452E-01;1.973235365934638E-02;2.060082934913054E-01;8.892560907257273E-01;1.174910107759452E-01;1.973235365934638E-02;2.060082934913054E-01;8.892560907257273E-01;
5.775775775775776E+07;1.166217569791578E-01;2.215670683220441E-02;2.022661822399798E-01;8.898077998625208E-01;1.166217569791578E-01;2.215670683220441E-02;2.022661822399798E-01;8.898077998625208E-01;
5.800800800800801E+07;1.158783897844100E-01;2.527764812982362E-02;2.048609218741760E-01;8.885747481876025E-01;1.158783897844100E-01;2.527764812982362E-02;2.048609218741760E-01;8.885747481876025E-01;
5.825825825825826E+07;1.148701988971251E-01;2.804772482418312E-02;2.013491229818068E-01;8.886975281656032E-01;1.148701988971251E-01;2.804772482418312E-02;2.013491229818068E-01;8.886975281656032E-01;
5.850850850850851E+07;1.137804703167763E-01;3.123839692327303E-02;1.977365093707724E-01;8.885275526223791E-01;1.137804703167763E-01;3.123839692327303E-02;1.977365093707724E-01;8.885275526223791E-01;
5.875875875875876E+07;1.128140611830018E-01;3.481972312680340E-02;1.941413758273657E-01;8.881892235510027E-01;1.128140611830018E-01;3.481972312680340E-02;1.941413758273657E-01;8.881892235510027E-01;
5.900900900900901E+07;1.121110387003866E-01;3.882313252007267E-02;1.902968927027552E-01;8.874745240233288E-01;1.121110387003866E-01;3.882313252007267E-02;1.902968927027552E-01;8.874745240233288E-01;
5.925925925925926E+07;1.118068925446956E-01;4.324092430715300E-02;1.863324066921113E-01;8.866600264722885E-01;1.118068925446956E-01;4.324092430715300E-02;1.863324066921113E-01;8.866600264722885E-01;
5.950950950950951E+07;1.121482273384805E-01;4.790633160476616E-02;1.819166364020529E-01;8.856841098459228E-01;1.121482273384805E-01;4.790633160476616E-02;1.819166364020529E-01;8.856841098459228E-01;
5.975975975975976E+07;1.128361648994746E-01;5.220119721690495E-02;1.769750339656860E-01;8.846699230098518E-01;1.128361648994746E-01;5.220119721690495E-02;1.769750339656860E-01;8.846699230098518E-01;
6.001001001001001E+07;1.149898475702964E-01;5.715847761181789E-02;1.715732421901500E-01;8.839795104392680E-01;1.149898475702964E-01;5.715847761181789E-02;1.715732421901500E-01;8.839795104392680E-01;
6.026026026026026E+07;1.174796066468972E-01;6.111215512119959E-02;1.660226665603961E-01;8.837762161309684E-01;1.174796066468972E-01;6.111215512119959E-02;1.660226665603961E-01;8.837762161309684E-01;
6.051051051051051E+07;1.203101341984617E-01;6.432652364236635E-02;1.603809715461249E-01;8.841544187244506E-01;1.203101341984617E-01;6.432652364236635E-02;1.603809715461249E-01;8.841544187244506E-01;
6.076076076076076E+07;1.231459458462891E-01;6.669857988948014E-02;1.548782622560061E-01;8.850187935401350E-01;1.231459458462891E-01;6.669857988948014E-02;1.548782622560061E-01;8.850187935401350E-01;
6.101101101101101E+07;1.257623463268182E-01;6.839995971521141E-02;1.496085490836762E-01;8.860749561785090E-01;1.257623463268182E-01;6.839995971521141E-02;1.496085490836762E-01;8.860749561785090E-01;
6.126126126126126E+07;1.278555493657313E-01;6.961363487685476E-02;1.451625156177068E-01;8.877762833815148E-01;1.278555493657313E-01;6.961363487685476E-02;1.451625156177068E-01;8.877762833815148E-01;
6.151151151151151E+07;1.294616826839074E-01;7.059508880800557E-02;1.409298547398311E-01;8.891623422677628E-01;1.294616826839074E-01;7.059508880800557E-02;1.409298547398311E-01;8.891623422677628E-01;
6.176176176176176E+07;1.305786156801819E-01;7.160684527708766E-02;1.369746439112560E-01;8.906683324310495E-01;1.305786156801819E-01;7.160684527708766E-02;1.369746439112560E-01;8.906683324310495E-01;
6.201201201201201E+07;1.314117049890945E-01;7.262359534980499E-02;1.332252364296350E-01;8.919776457854474E-01;1.314117049890945E-01;7.262359534980499E-02;1.332252364296350E-01;8.919776457854474E-01;
6.226226226226226E+07;1.320132689853006E-01;7.369117836555183E-02;1.298812287968449E-01;8.932969979040094E-01;1.320132689853006E-01;7.369117836555183E-02;1.298812287968449E-01;8.932969979040094E-01;
6.251251251251251E+07;1.323545406521582E-01;7.479455741586119E-02;1.266221357294021E-01;8.944942095413039E-01;1.323545406521582E-01;7.479455741586119E-02;1.266221357294021E-01;8.944942095413039E-01;
6.276276276276276E+07;1.324259221635458E-01;7.600551238469884E-02;1.236153735248152E-01;8.955138706196006E-01;1.324259221635458E-01;7.600551238469884E-02;1.236153735248152E-01;8.955138706196006E-01;
6.301301301301301E+07;1.323404464395621E-01;7.735751030266366E-02;1.207103190061471E-01;8.963967821674150E-01;1.323404464395621E-01;7.735751030266366E-02;1.207103190061471E-01;8.963967821674150E-01;
6.326326326326326E+07;1.320913616204175E-01;7.891041235643304E-02;1.181271871139675E-01;8.971689946771647E-01;1.320913616204175E-01;7.891041235643304E-02;1.181271871139675E-01;8.971689946771647E-01;
6.351351351351351E+07;1.313925349585773E-01;8.050870821065963E-02;1.152303937616613E-01;8.976483559760253E-01;1.313925349585773E-01;8.050870821065963E-02;1.152303937616613E-01;8.976483559760253E-01;
6.376376376376376E+07;1.314214909228454E-01;8.244547478459043E-02;1.125974120734659E-01;8.981448919728183E-01;1.314214909228454E-01;8.244547478459043E-02;1.125974120734659E-01;8.981448919728183E-01;
6.401401401401401E+07;1.310567909872163E-01;8.439313906405242E-02;1.100405869843956E-01;8.986700158396198E-01;1.310567909872163E-01;8.439313906405242E-02;1.100405869843956E-01;8.986700158396198E-01;
6.426426426426426E+07;1.307243026487816E-01;8.637991124888898E-02;1.073602288733598E-01;8.989971451711367E-01;1.307243026487816E-01;8.637991124888898E-02;1.073602288733598E-01;8.989971451711367E-01;
6.451451451451451E+07;1.303026695489123E-01;8.847851715064155E-02;1.049110479462016E-01;8.994211114741996E-01;1.303026695489123E-01;8.847851715064155E-02;1.049110479462016E-01;8.994211114741996E-01;
6.476476476476476E+07;1.299281767803699E-01;9.058096568418164E-02;1.025002842062162E-01;8.996220475495499E-01;1.299281767803699E-01;9.058096568418164E-02;1.025002842062162E-01;8.996220475495499E-01;
6.501501501501501E+07;1.295395126981380E-01;9.275812884241545E-02;1.001320628934217E-01;8.999084877052482E-01;1.295395126981380E-01;9.275812884241545E-02;1.001320628934217E-01;8.999084877052482E-01;
6.526526526526526E+07;1.291070753759800E-01;9.491707158415595E-02;9.779740839390944E-02;9.000975623967206E-01;1.291070753759800E-01;9.491707158415595E-02;9.779740839390944E-02;9.000975623967206E-01;
6.551551551551551E+07;1.285921606022977E-01;9.711183760106039E-02;9.580529072337989E-02;9.003154775719501E-01;1.285921606022977E-01;9.711183760106039E-02;9.580529072337989E-02;9.003154775719501E-01;
6.576576576576576E+07;1.282509957667074E-01;9.863146981757943E-02;8.599624485406065E-02;9.018329593586424E-01;1.282509957667074E-01;9.863146981757943E-02;8.599624485406065E-02;9.018329593586424E-01;
6.601601601601601E+07;1.275711340205561E-01;1.007871862968533E-01;8.414294205007000E-02;9.017465799025198E-01;1.275711340205561E-01;1.007871862968533E-01;8.414294205007000E-02;9.017465799025198E-01;
6.626626626626626E+07;1.267874392004103E-01;1.031142597416014E-01;8.213165635390662E-02;9.016875852628441E-01;1.267874392004103E-01;1.031142597416014E-01;8.213165635390662E-02;9.016875852628441E-01;
6.651651651651651E+07;1.258681943683660E-01;1.054067538080356E-01;7.991903045134700E-02;9.015239890996580E-01;1.258681943683660E-01;1.054067538080356E-01;7.991903045134700E-02;9.015239890996580E-01;
6.676676676676676E+07;1.253661134816688E-01;1.078562007998723E-01;7.759561839818238E-02;9.014108431098726E-01;1.253661134816688E-01;1.078562007998723E-01;7.759561839818238E-02;9.014108431098726E-01;
6.701701701701702E+07;1.244012858575069E-01;1.108861619544469E-01;7.663379120825041E-02;9.008622955005944E-01;1.244012858575069E-01;1.108861619544469E-01;7.663379120825041E-02;9.008622955005944E-01;
6.726726726726727E+07;1.237977709921665E-01;1.133777895854496E-01;7.451681259008555E-02;9.006048831958482E-01;1.237977709921665E-01;1.133777895854496E-01;7.451681259008555E-02;9.006048831958482E-01;
6.751751751751752E+07;1.232983997184223E-01;1.157995383668615E-01;7.240226536184700E-02;9.004789513875275E-01;1.232983997184223E-01;1.157995383668615E-01;7.240226536184700E-02;9.004789513875275E-01;
6.776776776776777E+07;1.227863493867030E-01;1.182705673402653E-01;7.006864201269561E-02;9.003556099428393E-01;1.227863493867030E-01;1.182705673402653E-01;7.006864201269561E-02;9.003556099428393E-01;
6.801801801801802E+07;1.221347779466229E-01;1.208092465311569E-01;6.768376000543408E-02;9.002723826292731E-01;1.221347779466229E-01;1.208092465311569E-01;6.768376000543408E-02;9.002723826292731E-01;
6.826826826826827E+07;1.212552352814181E-01;1.235926760048553E-01;6.535813900520411E-02;9.001220726468311E-01;1.212552352814181E-01;1.235926760048553E-01;6.535813900520411E-02;9.001220726468311E-01;
6.851851851851852E+07;1.202174579668861E-01;1.266860330919894E-01;6.359820041883653E-02;8.997184793285719E-01;1.202174579668861E-01;1.266860330919894E-01;6.359820041883653E-02;8.997184793285719E-01;
6.876876876876877E+07;1.186812604381784E-01;1.298925741357841E-01;6.644872956029965E-02;8.995118073789788E-01;1.186812604381784E-01;1.298925741357841E-01;6.644872956029965E-02;8.995118073789788E-01;
6.901901901901902E+07;1.173038330190673E-01;1.332481879160422E-01;6.567471072176161E-02;8.987766284894625E-01;1.173038330190673E-01;1.332481879160422E-01;6.567471072176161E-02;8.987766284894625E-01;
6.926926926926927E+07;1.158211293955504E-01;1.367174094387141E-01;6.571296223557510E-02;8.977372888783232E-01;1.158211293955504E-01;1.367174094387141E-01;6.571296223557510E-02;8.977372888783232E-01;
6.951951951951952E+07;1.142989185997160E-01;1.401875072231026E-01;6.585118814291588E-02;8.966086319108698E-01;1.142989185997160E-01;1.401875072231026E-01;6.585118814291588E-02;8.966086319108698E-01;
6.976976976976977E+07;1.127963572442137E-01;1.436818453065074E-01;6.609316887360907E-02;8.954002073822274E-01;1.127963572442137E-01;1.436818453065074E-01;6.609316887360907E-02;8.954002073822274E-01;
7.002002002002002E+07;1.112948169221134E-01;1.472128613700409E-01;6.601984837557345E-02;8.941174236832785E-01;1.112948169221134E-01;1.472128613700409E-01;6.601984837557345E-02;8.941174236832785E-01;
7.027027027027027E+07;1.100079171519545E-01;1.505990077409554E-01;6.556801993320716E-02;8.930605898153680E-01;1.100079171519545E-01;1.505990077409554E-01;6.556801993320716E-02;8.930605898153680E-01;
7.052052052052052E+07;1.090101960465326E-01;1.540523138555407E-01;6.485551899138216E-02;8.919578372034251E-01;1.090101960465326E-01;1.540523138555407E-01;6.485551899138216E-02;8.919578372034251E-01;
7.077077077077077E+07;1.079095705316583E-01;1.574423390865277E-01;6.421696391739982E-02;8.909479103452564E-01;1.079095705316583E-01;1.574423390865277E-01;6.421696391739982E-02;8.909479103452564E-01;
7.102102102102102E+07;1.068883962781505E-01;1.608194527083986E-01;6.350640105342907E-02;8.899058538946832E-01;1.068883962781505E-01;1.608194527083986E-01;6.350640105342907E-02;8.899058538946832E-01;
7.127127127127127E+07;1.059407805387810E-01;1.642227690773838E-01;6.273463839345689E-02;8.888764672881989E-01;1.059407805387810E-01;1.642227690773838E-01;6.273463839345689E-02;8.888764672881989E-01;
7.152152152152152E+07;1.051462775170526E-01;1.676044204657360E-01;6.183573822590271E-02;8.878304382413459E-01;1.051462775170526E-01;1.676044204657360E-01;6.183573822590271E-02;8.878304382413459E-01;
7.177177177177177E+07;1.043514969400379E-01;1.710428126319754E-01;6.086606927268308E-02;8.868202322998526E-01;1.043514969400379E-01;1.710428126319754E-01;6.086606927268308E-02;8.868202322998526E-01;
7.202202202202202E+07;1.034384433753256E-01;1.746225125480808E-01;5.976117995229457E-02;8.858304659953026E-01;1.034384433753256E-01;1.746225125480808E-01;5.976117995229457E-02;8.858304659953026E-01;
7.227227227227227E+07;1.021755017103093E-01;1.784983423067571E-01;5.887882407209770E-02;8.848633088686714E-01;1.021755017103093E-01;1.784983423067571E-01;5.887882407209770E-02;8.848633088686714E-01;
7.252252252252252E+07;1.008195720778840E-01;1.824361861473132E-01;5.830842325250637E-02;8.837003881903851E-01;1.008195720778840E-01;1.824361861473132E-01;5.830842325250637E-02;8.837003881903851E-01;
7.277277277277277E+07;9.928328791365748E-02;1.864960054407704E-01;5.845506938640221E-02;8.824823239771432E-01;9.928328791365748E-02;1.864960054407704E-01;5.845506938640221E-02;8.824823239771432E-01;
7.302302302302302E+07;9.761657680963595E-02;1.906402438475023E-01;5.893957043467601E-02;8.811080693467473E-01;9.761657680963595E-02;1.906402438475023E-01;5.893957043467601E-02;8.811080693467473E-01;
7.327327327327327E+07;9.596080395682999E-02;1.948500334373219E-01;5.994545576277402E-02;8.795561537029848E-01;9.596080395682999E-02;1.948500334373219E-01;5.994545576277402E-02;8.795561537029848E-01;
7.352352352352352E+07;9.434508346527080E-02;1.990887539412707E-01;6.146741075385779E-02;8.779066508286280E-01;9.434508346527080E-02;1.990887539412707E-01;6.146741075385779E-02;8.779066508286280E-01;
7.377377377377377E+07;9.278806581681151E-02;2.034017106197940E-01;6.290997862864488E-02;8.761158948758337E-01;9.278806581681151E-02;2.034017106197940E-01;6.290997862864488E-02;8.761158948758337E-01;
7.402402402402402E+07;9.107561757776939E-02;2.075673974488778E-01;6.419966369792592E-02;8.744061922185357E-01;9.107561757776939E-02;2.075673974488778E-01;6.419966369792592E-02;8.744061922185357E-01;
7.427427427427427E+07;9.000005955442672E-02;2.120927667686746E-01;6.541888490424083E-02;8.726931387605873E-01;9.000005955442672E-02;2.120927667686746E-01;6.541888490424083E-02;8.726931387605873E-01;
7.452452452452452E+07;8.878322493346513E-02;2.165280416456885E-01;6.652916483409932E-02;8.708448698435097E-01;8.878322493346513E-02;2.165280416456885E-01;6.652916483409932E-02;8.708448698435097E-01;
