# Version 1.00
#
# Ref Impedances: Z01: 50, Z02: 50
# 
freq[Hz];re:SMag2_S11;im:SMag2_S11;re:ZPh2_S12;im:ZPh2_S12;re:SPh2_S11;im:SPh2_S11;re:ZMag2_S12;im:ZMag2_S12;
5.000000000000000E+07;3.552604925119792E-01;8.088759130613934E-01;1.084702681248131E-01;3.068721744423888E-03;3.552604925119792E-01;8.088759130613934E-01;1.084702681248131E-01;3.068721744423888E-03;
5.025025025025025E+07;3.476373799300983E-01;8.105681227946842E-01;1.127068206734208E-01;4.388769786948219E-03;3.476373799300983E-01;8.105681227946842E-01;1.127068206734208E-01;4.388769786948219E-03;
5.050050050050050E+07;3.392120420186034E-01;8.147433184669083E-01;1.166765185309183E-01;1.351561761034731E-03;3.392120420186034E-01;8.147433184669083E-01;1.166765185309183E-01;1.351561761034731E-03;
5.075075075075075E+07;3.316023252326816E-01;8.151569237841654E-01;1.217191687812112E-01;4.461314530919778E-03;3.316023252326816E-01;8.151569237841654E-01;1.217191687812112E-01;4.461314530919778E-03;
5.100100100100100E+07;3.233128893491595E-01;8.188084325785162E-01;1.257031066660679E-01;3.228106711923729E-03;3.233128893491595E-01;8.188084325785162E-01;1.257031066660679E-01;3.228106711923729E-03;
5.125125125125125E+07;3.159357190375694E-01;8.227575933970936E-01;1.290475255691435E-01;1.376208980539130E-03;3.159357190375694E-01;8.227575933970936E-01;1.290475255691435E-01;1.376208980539130E-03;
5.150150150150150E+07;3.087352748149958E-01;8.273959608364304E-01;1.313925789675056E-01;-7.805246159320428E-04;3.087352748149958E-01;8.273959608364304E-01;1.313925789675056E-01;-7.805246159320428E-04;
5.175175175175175E+07;3.027187443931469E-01;8.323529633354561E-01;1.329425497845892E-01;-2.852505948269747E-03;3.027187443931469E-01;8.323529633354561E-01;1.329425497845892E-01;-2.852505948269747E-03;
5.200200200200200E+07;2.968109335660248E-01;8.370021568698798E-01;1.338039629420165E-01;-4.803084446176388E-03;2.968109335660248E-01;8.370021568698798E-01;1.338039629420165E-01;-4.803084446176388E-03;
5.225225225225225E+07;2.916657023649101E-01;8.415436477603322E-01;1.341941956108370E-01;-6.477364954255062E-03;2.916657023649101E-01;8.415436477603322E-01;1.341941956108370E-01;-6.477364954255062E-03;
5.250250250250250E+07;2.869695870943605E-01;8.455963492972114E-01;1.342005188798739E-01;-7.794359173769202E-03;2.869695870943605E-01;8.455963492972114E-01;1.342005188798739E-01;-7.794359173769202E-03;
5.275275275275275E+07;2.825183375225388E-01;8.496384317044426E-01;1.339159755978933E-01;-8.668745084260828E-03;2.825183375225388E-01;8.496384317044426E-01;1.339159755978933E-01;-8.668745084260828E-03;
5.300300300300300E+07;2.781883941071113E-01;8.533233553022798E-01;1.336010160428212E-01;-9.275799681652132E-03;2.781883941071113E-01;8.533233553022798E-01;1.336010160428212E-01;-9.275799681652132E-03;
5.325325325325325E+07;2.741444049535452E-01;8.568761663377924E-01;1.330997766951850E-01;-9.555436255973453E-03;2.741444049535452E-01;8.568761663377924E-01;1.330997766951850E-01;-9.555436255973453E-03;
5.350350350350350E+07;2.705396693138371E-01;8.601167345951918E-01;1.323511487817617E-01;-9.516783779161828E-03;2.705396693138371E-01;8.601167345951918E-01;1.323511487817617E-01;-9.516783779161828E-03;
5.375375375375375E+07;2.667619524480755E-01;8.625773414437150E-01;1.316465363216871E-01;-9.230780193898476E-03;2.667619524480755E-01;8.625773414437150E-01;1.316465363216871E-01;-9.230780193898476E-03;
5.400400400400400E+07;2.630406526473557E-01;8.649577905571987E-01;1.308935495209457E-01;-8.666336510663444E-03;2.630406526473557E-01;8.649577905571987E-01;1.308935495209457E-01;-8.666336510663444E-03;
5.425425425425425E+07;2.601665170213233E-01;8.680927409881208E-01;1.295661739275996E-01;-7.909727578968830E-03;2.601665170213233E-01;8.680927409881208E-01;1.295661739275996E-01;-7.909727578968830E-03;
5.450450450450450E+07;2.558567688181891E-01;8.700501993214886E-01;1.293690676008714E-01;-6.823415509215518E-03;2.558567688181891E-01;8.700501993214886E-01;1.293690676008714E-01;-6.823415509215518E-03;
5.475475475475475E+07;2.520816065809535E-01;8.718704119188001E-01;1.288059350200627E-01;-5.490152015517244E-03;2.520816065809535E-01;8.718704119188001E-01;1.288059350200627E-01;-5.490152015517244E-03;
5.500500500500500E+07;2.484620443664236E-01;8.740772134871675E-01;1.281874794379075E-01;-3.740200132462870E-03;2.484620443664236E-01;8.740772134871675E-01;1.281874794379075E-01;-3.740200132462870E-03;
5.525525525525525E+07;2.447005826033492E-01;8.757777189545320E-01;1.277512021565615E-01;-2.138787226047396E-03;2.447005826033492E-01;8.757777189545320E-01;1.277512021565615E-01;-2.138787226047396E-03;
5.550550550550550E+07;2.412799195228307E-01;8.775098617411928E-01;1.272677269029046E-01;-5.493531614933272E-04;2.412799195228307E-01;8.775098617411928E-01;1.272677269029046E-01;-5.493531614933272E-04;
5.575575575575575E+07;2.375688466623379E-01;8.789592103531592E-01;1.268317609926379E-01;1.112397652038105E-03;2.375688466623379E-01;8.789592103531592E-01;1.268317609926379E-01;1.112397652038105E-03;
5.600600600600600E+07;2.338895623314370E-01;8.804959190220397E-01;1.262886767816388E-01;2.827959224311426E-03;2.338895623314370E-01;8.804959190220397E-01;1.262886767816388E-01;2.827959224311426E-03;
5.625625625625625E+07;2.301880977619129E-01;8.818716397472876E-01;1.259159419986835E-01;4.758066534939307E-03;2.301880977619129E-01;8.818716397472876E-01;1.259159419986835E-01;4.758066534939307E-03;
5.650650650650650E+07;2.267547560341044E-01;8.828395120488431E-01;1.254332298884394E-01;6.811602593185483E-03;2.267547560341044E-01;8.828395120488431E-01;1.254332298884394E-01;6.811602593185483E-03;
5.675675675675675E+07;2.231246151971348E-01;8.838041629351665E-01;1.249828591125282E-01;9.042967488143571E-03;2.231246151971348E-01;8.838041629351665E-01;1.249828591125282E-01;9.042967488143571E-03;
5.700700700700700E+07;2.194738708635422E-01;8.846101719377966E-01;1.246491521796389E-01;1.139948433471819E-02;2.194738708635422E-01;8.846101719377966E-01;1.246491521796389E-01;1.139948433471819E-02;
5.725725725725726E+07;2.159126234674895E-01;8.853248316038206E-01;1.243647046775753E-01;1.384709894921292E-02;2.159126234674895E-01;8.853248316038206E-01;1.243647046775753E-01;1.384709894921292E-02;
5.750750750750751E+07;2.121499361258466E-01;8.858394676665282E-01;1.241116566521876E-01;1.639155451695340E-02;2.121499361258466E-01;8.858394676665282E-01;1.241116566521876E-01;1.639155451695340E-02;
5.775775775775776E+07;2.085304930336820E-01;8.865139076359690E-01;1.238765917512378E-01;1.895820531818339E-02;2.085304930336820E-01;8.865139076359690E-01;1.238765917512378E-01;1.895820531818339E-02;
5.800800800800801E+07;2.049423790313536E-01;8.866404102363085E-01;1.235704615371154E-01;2.239883214946094E-02;2.049423790313536E-01;8.866404102363085E-01;1.235704615371154E-01;2.239883214946094E-02;
5.825825825825826E+07;2.011528710356966E-01;8.867330707202739E-01;1.228862876096308E-01;2.516953611522825E-02;2.011528710356966E-01;8.867330707202739E-01;1.228862876096308E-01;2.516953611522825E-02;
5.850850850850851E+07;1.976106706631257E-01;8.865097998079698E-01;1.228284598988949E-01;2.869960029718724E-02;1.976106706631257E-01;8.865097998079698E-01;1.228284598988949E-01;2.869960029718724E-02;
5.875875875875876E+07;1.936251348331125E-01;8.861239926805476E-01;1.226941926001883E-01;3.241616079190348E-02;1.936251348331125E-01;8.861239926805476E-01;1.226941926001883E-01;3.241616079190348E-02;
5.900900900900901E+07;1.897441337106157E-01;8.853277123811830E-01;1.228483367395045E-01;3.641076751214769E-02;1.897441337106157E-01;8.853277123811830E-01;1.228483367395045E-01;3.641076751214769E-02;
5.925925925925926E+07;1.852182052070916E-01;8.844517324966701E-01;1.234492823306811E-01;4.066972239717008E-02;1.852182052070916E-01;8.844517324966701E-01;1.234492823306811E-01;4.066972239717008E-02;
5.950950950950951E+07;1.802857568442653E-01;8.837076298402764E-01;1.246960016484791E-01;4.489333442249321E-02;1.802857568442653E-01;8.837076298402764E-01;1.246960016484791E-01;4.489333442249321E-02;
5.975975975975976E+07;1.749309711919222E-01;8.832236329179554E-01;1.264964397760636E-01;4.909393910032595E-02;1.749309711919222E-01;8.832236329179554E-01;1.264964397760636E-01;4.909393910032595E-02;
6.001001001001001E+07;1.696104473736817E-01;8.830801454153344E-01;1.287710159203892E-01;5.290433768833453E-02;1.696104473736817E-01;8.830801454153344E-01;1.287710159203892E-01;5.290433768833453E-02;
6.026026026026026E+07;1.641631507020768E-01;8.834560419099929E-01;1.313996687242111E-01;5.607011619411861E-02;1.641631507020768E-01;8.834560419099929E-01;1.313996687242111E-01;5.607011619411861E-02;
6.051051051051051E+07;1.588536401156472E-01;8.845541470232672E-01;1.341133343576891E-01;5.866602854431378E-02;1.588536401156472E-01;8.845541470232672E-01;1.341133343576891E-01;5.866602854431378E-02;
6.076076076076076E+07;1.540247033787868E-01;8.860281098497780E-01;1.366452389601833E-01;6.063883109382682E-02;1.540247033787868E-01;8.860281098497780E-01;1.366452389601833E-01;6.063883109382682E-02;
6.101101101101101E+07;1.494085698508146E-01;8.875528991991924E-01;1.387538937404900E-01;6.208166169011960E-02;1.494085698508146E-01;8.875528991991924E-01;1.387538937404900E-01;6.208166169011960E-02;
6.126126126126126E+07;1.455729403088885E-01;8.891344538498809E-01;1.403595749557848E-01;6.339090577230945E-02;1.455729403088885E-01;8.891344538498809E-01;1.403595749557848E-01;6.339090577230945E-02;
6.151151151151151E+07;1.418901296568122E-01;8.906790824831118E-01;1.416117009240862E-01;6.467767374284687E-02;1.418901296568122E-01;8.906790824831118E-01;1.416117009240862E-01;6.467767374284687E-02;
6.176176176176176E+07;1.386978025784393E-01;8.919948067737343E-01;1.425815553413756E-01;6.621555361749761E-02;1.386978025784393E-01;8.919948067737343E-01;1.425815553413756E-01;6.621555361749761E-02;
6.201201201201201E+07;1.352691551292172E-01;8.931540081350968E-01;1.429018892146526E-01;6.756054638994405E-02;1.352691551292172E-01;8.931540081350968E-01;1.429018892146526E-01;6.756054638994405E-02;
6.226226226226226E+07;1.323032249427917E-01;8.942222435396705E-01;1.438678388554736E-01;6.922746587423231E-02;1.323032249427917E-01;8.942222435396705E-01;1.438678388554736E-01;6.922746587423231E-02;
6.251251251251251E+07;1.294064832916214E-01;8.953275984387412E-01;1.443347469438093E-01;7.088918967808011E-02;1.294064832916214E-01;8.953275984387412E-01;1.443347469438093E-01;7.088918967808011E-02;
6.276276276276276E+07;1.268009617682423E-01;8.960592443742792E-01;1.445128317577683E-01;7.262308198249055E-02;1.268009617682423E-01;8.960592443742792E-01;1.445128317577683E-01;7.262308198249055E-02;
6.301301301301301E+07;1.241083128936094E-01;8.966914833420955E-01;1.446209637937311E-01;7.451415654030455E-02;1.241083128936094E-01;8.966914833420955E-01;1.446209637937311E-01;7.451415654030455E-02;
6.326326326326326E+07;1.221278240471233E-01;8.973048340153252E-01;1.447621069002911E-01;7.667283682771764E-02;1.221278240471233E-01;8.973048340153252E-01;1.447621069002911E-01;7.667283682771764E-02;
6.351351351351351E+07;1.195493838703869E-01;8.977314171615102E-01;1.448564955800747E-01;7.887961518124892E-02;1.195493838703869E-01;8.977314171615102E-01;1.448564955800747E-01;7.887961518124892E-02;
6.376376376376376E+07;1.170078890464836E-01;8.981323224907518E-01;1.449488588505628E-01;8.109908080495060E-02;1.170078890464836E-01;8.981323224907518E-01;1.449488588505628E-01;8.109908080495060E-02;
6.401401401401401E+07;1.146686059105505E-01;8.984571804019076E-01;1.449424071037231E-01;8.331434428438773E-02;1.146686059105505E-01;8.984571804019076E-01;1.449424071037231E-01;8.331434428438773E-02;
6.426426426426426E+07;1.124199492854113E-01;8.987565014561595E-01;1.448574014624483E-01;8.548990349464315E-02;1.124199492854113E-01;8.987565014561595E-01;1.448574014624483E-01;8.548990349464315E-02;
6.451451451451451E+07;1.103411649904139E-01;8.989390898874277E-01;1.442909527208527E-01;8.762525923057907E-02;1.103411649904139E-01;8.989390898874277E-01;1.442909527208527E-01;8.762525923057907E-02;
6.476476476476476E+07;1.081740985380601E-01;8.990578515808706E-01;1.440739755728308E-01;9.003580519920325E-02;1.081740985380601E-01;8.990578515808706E-01;1.440739755728308E-01;9.003580519920325E-02;
6.501501501501501E+07;1.063055561282754E-01;8.990073158236760E-01;1.437286019551640E-01;9.264401129527298E-02;1.063055561282754E-01;8.990073158236760E-01;1.437286019551640E-01;9.264401129527298E-02;
6.526526526526526E+07;1.044432547482064E-01;8.988180934865284E-01;1.432714417034878E-01;9.526469722391710E-02;1.044432547482064E-01;8.988180934865284E-01;1.432714417034878E-01;9.526469722391710E-02;
6.551551551551551E+07;1.025759111803617E-01;8.986132983152280E-01;1.428393590066782E-01;9.804001051732388E-02;1.025759111803617E-01;8.986132983152280E-01;1.428393590066782E-01;9.804001051732388E-02;
6.576576576576576E+07;1.031056446530098E-01;8.990696660953968E-01;1.434038425263573E-01;1.000150901176237E-01;1.031056446530098E-01;8.990696660953968E-01;1.434038425263573E-01;1.000150901176237E-01;
6.601601601601601E+07;1.014697035836332E-01;8.985711486459944E-01;1.431191149657930E-01;1.028947098747447E-01;1.014697035836332E-01;8.985711486459944E-01;1.431191149657930E-01;1.028947098747447E-01;
6.626626626626626E+07;9.945814681393694E-02;8.981096319645213E-01;1.426865657440095E-01;1.058223682551230E-01;9.945814681393694E-02;8.981096319645213E-01;1.426865657440095E-01;1.058223682551230E-01;
6.651651651651651E+07;9.736188130386170E-02;8.976973566217296E-01;1.424020982885071E-01;1.088242467431446E-01;9.736188130386170E-02;8.976973566217296E-01;1.424020982885071E-01;1.088242467431446E-01;
6.676676676676676E+07;9.528395736412079E-02;8.971715143453166E-01;1.422027609525310E-01;1.117889410052444E-01;9.528395736412079E-02;8.971715143453166E-01;1.422027609525310E-01;1.117889410052444E-01;
6.701701701701702E+07;9.463676206686801E-02;8.966230458149249E-01;1.415459004754693E-01;1.154444585255052E-01;9.463676206686801E-02;8.966230458149249E-01;1.415459004754693E-01;1.154444585255052E-01;
6.726726726726727E+07;9.281146286371572E-02;8.959905610092701E-01;1.413855972148256E-01;1.184156839555727E-01;9.281146286371572E-02;8.959905610092701E-01;1.413855972148256E-01;1.184156839555727E-01;
6.751751751751752E+07;9.076951299869961E-02;8.955145907782676E-01;1.412835105721054E-01;1.213901654558741E-01;9.076951299869961E-02;8.955145907782676E-01;1.412835105721054E-01;1.213901654558741E-01;
6.776776776776777E+07;8.870714508843400E-02;8.951661483052876E-01;1.411140167543652E-01;1.243244100107784E-01;8.870714508843400E-02;8.951661483052876E-01;1.411140167543652E-01;1.243244100107784E-01;
6.801801801801802E+07;8.647395185682498E-02;8.948264716421306E-01;1.407687908394239E-01;1.273697339531899E-01;8.647395185682498E-02;8.948264716421306E-01;1.407687908394239E-01;1.273697339531899E-01;
6.826826826826827E+07;8.445831250088415E-02;8.943211908651549E-01;1.403306015171144E-01;1.305953100922803E-01;8.445831250088415E-02;8.943211908651549E-01;1.403306015171144E-01;1.305953100922803E-01;
6.851851851851852E+07;8.270901124532012E-02;8.936222936908785E-01;1.398058229455815E-01;1.342988791236877E-01;8.270901124532012E-02;8.936222936908785E-01;1.398058229455815E-01;1.342988791236877E-01;
6.876876876876877E+07;8.200903315951769E-02;8.922376656641260E-01;1.381843544606205E-01;1.382837203626626E-01;8.200903315951769E-02;8.922376656641260E-01;1.381843544606205E-01;1.382837203626626E-01;
6.901901901901902E+07;8.146400872228488E-02;8.913714305956670E-01;1.374400218856994E-01;1.424194511586717E-01;8.146400872228488E-02;8.913714305956670E-01;1.374400218856994E-01;1.424194511586717E-01;
6.926926926926927E+07;8.157069959389601E-02;8.900729265439904E-01;1.365196046206641E-01;1.465404004252604E-01;8.157069959389601E-02;8.900729265439904E-01;1.365196046206641E-01;1.465404004252604E-01;
6.951951951951952E+07;8.188809328350208E-02;8.885922192336220E-01;1.355510339495422E-01;1.507659131252372E-01;8.188809328350208E-02;8.885922192336220E-01;1.355510339495422E-01;1.507659131252372E-01;
6.976976976976977E+07;8.235525928600118E-02;8.872635290129066E-01;1.346100212180422E-01;1.549062880027704E-01;8.235525928600118E-02;8.872635290129066E-01;1.346100212180422E-01;1.549062880027704E-01;
7.002002002002002E+07;8.254284532890642E-02;8.858686089936312E-01;1.336874756126164E-01;1.589697923982504E-01;8.254284532890642E-02;8.858686089936312E-01;1.336874756126164E-01;1.589697923982504E-01;
7.027027027027027E+07;8.240214253394276E-02;8.843317942591062E-01;1.329544242592277E-01;1.629798286341434E-01;8.240214253394276E-02;8.843317942591062E-01;1.329544242592277E-01;1.629798286341434E-01;
7.052052052052052E+07;8.233639619891425E-02;8.830768322325849E-01;1.324102402616341E-01;1.668328993134306E-01;8.233639619891425E-02;8.830768322325849E-01;1.324102402616341E-01;1.668328993134306E-01;
7.077077077077077E+07;8.217110756054319E-02;8.818143488981466E-01;1.317628640894874E-01;1.707120924410637E-01;8.217110756054319E-02;8.818143488981466E-01;1.317628640894874E-01;1.707120924410637E-01;
7.102102102102102E+07;8.200359185257637E-02;8.803540014221133E-01;1.311566544336574E-01;1.745853248315744E-01;8.200359185257637E-02;8.803540014221133E-01;1.311566544336574E-01;1.745853248315744E-01;
7.127127127127127E+07;8.168518381656840E-02;8.789256617056561E-01;1.306797159148422E-01;1.784852900626859E-01;8.168518381656840E-02;8.789256617056561E-01;1.306797159148422E-01;1.784852900626859E-01;
7.152152152152152E+07;8.123845697471865E-02;8.775157413168871E-01;1.303280803259199E-01;1.824034816371550E-01;8.123845697471865E-02;8.775157413168871E-01;1.303280803259199E-01;1.824034816371550E-01;
7.177177177177177E+07;8.108956558812942E-02;8.760393215608496E-01;1.300283049613223E-01;1.862311055838595E-01;8.108956558812942E-02;8.760393215608496E-01;1.300283049613223E-01;1.862311055838595E-01;
7.202202202202202E+07;7.996976808277095E-02;8.744827480901289E-01;1.295533451162857E-01;1.903113224350959E-01;7.996976808277095E-02;8.744827480901289E-01;1.295533451162857E-01;1.903113224350959E-01;
7.227227227227227E+07;7.984157721630214E-02;8.731315209042620E-01;1.286105856298999E-01;1.947833590715800E-01;7.984157721630214E-02;8.731315209042620E-01;1.286105856298999E-01;1.947833590715800E-01;
7.252252252252252E+07;7.975446795462567E-02;8.713773112577851E-01;1.275432747739809E-01;1.993282695672759E-01;7.975446795462567E-02;8.713773112577851E-01;1.275432747739809E-01;1.993282695672759E-01;
7.277277277277277E+07;8.022433275130507E-02;8.695147941043110E-01;1.263706372290462E-01;2.041502582116203E-01;8.022433275130507E-02;8.695147941043110E-01;1.263706372290462E-01;2.041502582116203E-01;
7.302302302302302E+07;8.119577753081059E-02;8.675521155017240E-01;1.249482809076750E-01;2.094770743741030E-01;8.119577753081059E-02;8.675521155017240E-01;1.249482809076750E-01;2.094770743741030E-01;
7.327327327327327E+07;8.289375352817584E-02;8.654106452856545E-01;1.237447445634901E-01;2.147811125163717E-01;8.289375352817584E-02;8.654106452856545E-01;1.237447445634901E-01;2.147811125163717E-01;
7.352352352352352E+07;8.465553225735512E-02;8.628937383429567E-01;1.225281389532732E-01;2.198880475887091E-01;8.465553225735512E-02;8.628937383429567E-01;1.225281389532732E-01;2.198880475887091E-01;
7.377377377377377E+07;8.660496405490953E-02;8.604146486825923E-01;1.214111403889209E-01;2.250390580228325E-01;8.660496405490953E-02;8.604146486825923E-01;1.214111403889209E-01;2.250390580228325E-01;
7.402402402402402E+07;8.839311906530427E-02;8.579587154259988E-01;1.203690149399441E-01;2.302732815762194E-01;8.839311906530427E-02;8.579587154259988E-01;1.203690149399441E-01;2.302732815762194E-01;
7.427427427427427E+07;8.992578167060800E-02;8.553769620608241E-01;1.194196222089992E-01;2.355271317679458E-01;8.992578167060800E-02;8.553769620608241E-01;1.194196222089992E-01;2.355271317679458E-01;
