# Version 1.00
#
# Ref Impedances: Z01: 50, Z02: 50
# 
freq[Hz];re:ZMag1_S12;im:ZMag1_S12;re:SMag1_S11;im:SMag1_S11;re:ZPh1_S12;im:ZPh1_S12;re:SPh1_S11;im:SPh1_S11;
5.000000000000000E+07;9.648165027080688E-02;-1.204234294020749E-02;3.513543485354901E-01;8.162543319623821E-01;9.648165027080688E-02;-1.204234294020749E-02;3.513543485354901E-01;8.162543319623821E-01;
5.025025025025025E+07;1.002087788747493E-01;-9.947381215781434E-03;3.432167658533807E-01;8.176224329104848E-01;1.002087788747493E-01;-9.947381215781434E-03;3.432167658533807E-01;8.176224329104848E-01;
5.050050050050050E+07;1.046795161977737E-01;-8.632075851039041E-03;3.345724340866549E-01;8.196348422469275E-01;1.046795161977737E-01;-8.632075851039041E-03;3.345724340866549E-01;8.196348422469275E-01;
5.075075075075075E+07;1.098592144999533E-01;-8.243821133987386E-03;3.257156995785965E-01;8.230403181429292E-01;1.098592144999533E-01;-8.243821133987386E-03;3.257156995785965E-01;8.230403181429292E-01;
5.100100100100100E+07;1.178228859720297E-01;-1.004753257782709E-02;3.173259402521100E-01;8.273998571203128E-01;1.178228859720297E-01;-1.004753257782709E-02;3.173259402521100E-01;8.273998571203128E-01;
5.125125125125125E+07;1.207434620362628E-01;-1.255215049183536E-02;3.100644763642751E-01;8.324676875455307E-01;1.207434620362628E-01;-1.255215049183536E-02;3.100644763642751E-01;8.324676875455307E-01;
5.150150150150150E+07;1.225877740419256E-01;-1.516734031670376E-02;3.034330018108357E-01;8.377899402169577E-01;1.225877740419256E-01;-1.516734031670376E-02;3.034330018108357E-01;8.377899402169577E-01;
5.175175175175175E+07;1.234827173873947E-01;-1.751872251278776E-02;2.977184748021099E-01;8.431785714085981E-01;1.234827173873947E-01;-1.751872251278776E-02;2.977184748021099E-01;8.431785714085981E-01;
5.200200200200200E+07;1.238776152355823E-01;-1.951284517660467E-02;2.927350184272103E-01;8.480992320036612E-01;1.238776152355823E-01;-1.951284517660467E-02;2.927350184272103E-01;8.480992320036612E-01;
5.225225225225225E+07;1.237620254033252E-01;-2.096912561420936E-02;2.883337605877224E-01;8.526182438088158E-01;1.237620254033252E-01;-2.096912561420936E-02;2.883337605877224E-01;8.526182438088158E-01;
5.250250250250250E+07;1.225028021030726E-01;-2.215856066614614E-02;2.857936275621483E-01;8.574180790534880E-01;1.225028021030726E-01;-2.215856066614614E-02;2.857936275621483E-01;8.574180790534880E-01;
5.275275275275275E+07;1.226232815038623E-01;-2.247642058658702E-02;2.805284620169549E-01;8.605223456309493E-01;1.226232815038623E-01;-2.247642058658702E-02;2.805284620169549E-01;8.605223456309493E-01;
5.300300300300300E+07;1.221646405454991E-01;-2.257828853053178E-02;2.768779256963472E-01;8.638932195534553E-01;1.221646405454991E-01;-2.257828853053178E-02;2.768779256963472E-01;8.638932195534553E-01;
5.325325325325325E+07;1.216045609683127E-01;-2.234533254426313E-02;2.732932981148798E-01;8.666849718935588E-01;1.216045609683127E-01;-2.234533254426313E-02;2.732932981148798E-01;8.666849718935588E-01;
5.350350350350350E+07;1.211043557199320E-01;-2.183325165896697E-02;2.697065619889240E-01;8.693964352399014E-01;1.211043557199320E-01;-2.183325165896697E-02;2.697065619889240E-01;8.693964352399014E-01;
5.375375375375375E+07;1.204808621870064E-01;-2.091398527445379E-02;2.660918872645353E-01;8.716580459319820E-01;1.204808621870064E-01;-2.091398527445379E-02;2.660918872645353E-01;8.716580459319820E-01;
5.400400400400400E+07;1.201996361357497E-01;-2.024569379791658E-02;2.624904540650435E-01;8.739054482695502E-01;1.201996361357497E-01;-2.024569379791658E-02;2.624904540650435E-01;8.739054482695502E-01;
5.425425425425425E+07;1.198049394198027E-01;-1.911395697659106E-02;2.590036482405867E-01;8.759726359121068E-01;1.198049394198027E-01;-1.911395697659106E-02;2.590036482405867E-01;8.759726359121068E-01;
5.450450450450450E+07;1.194664305296613E-01;-1.782897316433115E-02;2.553114135823880E-01;8.776891863788331E-01;1.194664305296613E-01;-1.782897316433115E-02;2.553114135823880E-01;8.776891863788331E-01;
5.475475475475475E+07;1.191989024866406E-01;-1.638496006123447E-02;2.517286745122037E-01;8.793665639511903E-01;1.191989024866406E-01;-1.638496006123447E-02;2.517286745122037E-01;8.793665639511903E-01;
5.500500500500500E+07;1.189858685942267E-01;-1.481506126407527E-02;2.483075104768569E-01;8.807575521877774E-01;1.189858685942267E-01;-1.481506126407527E-02;2.483075104768569E-01;8.807575521877774E-01;
5.525525525525525E+07;1.188108916718740E-01;-1.312840849314719E-02;2.446292115609071E-01;8.816839343442540E-01;1.188108916718740E-01;-1.312840849314719E-02;2.446292115609071E-01;8.816839343442540E-01;
5.550550550550550E+07;1.187075864616723E-01;-1.129574747674847E-02;2.411482807347561E-01;8.829527672951021E-01;1.187075864616723E-01;-1.129574747674847E-02;2.411482807347561E-01;8.829527672951021E-01;
5.575575575575575E+07;1.186634439255031E-01;-9.318016156203620E-03;2.375527852467887E-01;8.839161991900044E-01;1.186634439255031E-01;-9.318016156203620E-03;2.375527852467887E-01;8.839161991900044E-01;
5.600600600600600E+07;1.185605298654517E-01;-7.242342261324394E-03;2.338010985242972E-01;8.848468558364736E-01;1.185605298654517E-01;-7.242342261324394E-03;2.338010985242972E-01;8.848468558364736E-01;
5.625625625625625E+07;1.185820645688696E-01;-4.908318296106895E-03;2.303017497685993E-01;8.857312716639789E-01;1.185820645688696E-01;-4.908318296106895E-03;2.303017497685993E-01;8.857312716639789E-01;
5.650650650650650E+07;1.182227844354937E-01;-2.709102365176905E-03;2.266051351984426E-01;8.864880758795887E-01;1.182227844354937E-01;-2.709102365176905E-03;2.266051351984426E-01;8.864880758795887E-01;
5.675675675675675E+07;1.187748449168464E-01;-3.251620235616979E-04;2.227756989716478E-01;8.868971152701548E-01;1.187748449168464E-01;-3.251620235616979E-04;2.227756989716478E-01;8.868971152701548E-01;
5.700700700700700E+07;1.189723608685140E-01;2.063763020659763E-03;2.189678049796379E-01;8.875625396065879E-01;1.189723608685140E-01;2.063763020659763E-03;2.189678049796379E-01;8.875625396065879E-01;
5.725725725725726E+07;1.192324859261763E-01;4.519458849491049E-03;2.153360482306443E-01;8.880448089307178E-01;1.192324859261763E-01;4.519458849491049E-03;2.153360482306443E-01;8.880448089307178E-01;
5.750750750750751E+07;1.195143738587343E-01;7.042211972296824E-03;2.115334890759612E-01;8.884958689501624E-01;1.195143738587343E-01;7.042211972296824E-03;2.115334890759612E-01;8.884958689501624E-01;
5.775775775775776E+07;1.198281801814917E-01;9.626027314866134E-03;2.077784645211933E-01;8.888237625092271E-01;1.198281801814917E-01;9.626027314866134E-03;2.077784645211933E-01;8.888237625092271E-01;
5.800800800800801E+07;1.204348555398246E-01;1.230706011487578E-02;2.099422341472447E-01;8.871282799131722E-01;1.204348555398246E-01;1.230706011487578E-02;2.099422341472447E-01;8.871282799131722E-01;
5.825825825825826E+07;1.207029336599030E-01;1.520123048311594E-02;2.063119627814237E-01;8.871162882818545E-01;1.207029336599030E-01;1.520123048311594E-02;2.063119627814237E-01;8.871162882818545E-01;
5.850850850850851E+07;1.210445729880843E-01;1.834830379213846E-02;2.024230254115030E-01;8.868434429592910E-01;1.210445729880843E-01;1.834830379213846E-02;2.024230254115030E-01;8.868434429592910E-01;
5.875875875875876E+07;1.215543676915534E-01;2.177221120923788E-02;1.984052009468519E-01;8.863362435992325E-01;1.215543676915534E-01;2.177221120923788E-02;1.984052009468519E-01;8.863362435992325E-01;
5.900900900900901E+07;1.223856291781379E-01;2.541470021606852E-02;1.943083347866306E-01;8.856938601179527E-01;1.223856291781379E-01;2.541470021606852E-02;1.943083347866306E-01;8.856938601179527E-01;
5.925925925925926E+07;1.236083292180798E-01;2.915869384762913E-02;1.896022346104259E-01;8.850130187642490E-01;1.236083292180798E-01;2.915869384762913E-02;1.896022346104259E-01;8.850130187642490E-01;
5.950950950950951E+07;1.253047890268895E-01;3.289926224319566E-02;1.847091887482739E-01;8.844333729588019E-01;1.253047890268895E-01;3.289926224319566E-02;1.847091887482739E-01;8.844333729588019E-01;
5.975975975975976E+07;1.274592949814193E-01;3.642783342884782E-02;1.795108662807655E-01;8.843420852938256E-01;1.274592949814193E-01;3.642783342884782E-02;1.795108662807655E-01;8.843420852938256E-01;
6.001001001001001E+07;1.299591120888546E-01;3.950523861596882E-02;1.743072499707884E-01;8.846757329514152E-01;1.299591120888546E-01;3.950523861596882E-02;1.743072499707884E-01;8.846757329514152E-01;
6.026026026026026E+07;1.320987415356960E-01;4.191450237674827E-02;1.696553810857221E-01;8.854960970523391E-01;1.320987415356960E-01;4.191450237674827E-02;1.696553810857221E-01;8.854960970523391E-01;
6.051051051051051E+07;1.351555538560642E-01;4.415504836275917E-02;1.644565019406583E-01;8.867433811891681E-01;1.351555538560642E-01;4.415504836275917E-02;1.644565019406583E-01;8.867433811891681E-01;
6.076076076076076E+07;1.374345918085765E-01;4.580027436904052E-02;1.602027005227024E-01;8.883137645853814E-01;1.374345918085765E-01;4.580027436904052E-02;1.602027005227024E-01;8.883137645853814E-01;
6.101101101101101E+07;1.393098925476459E-01;4.715669412166253E-02;1.562586061134703E-01;8.899445948945780E-01;1.393098925476459E-01;4.715669412166253E-02;1.562586061134703E-01;8.899445948945780E-01;
6.126126126126126E+07;1.407947015619463E-01;4.847051023020509E-02;1.529243876218685E-01;8.914487824644307E-01;1.407947015619463E-01;4.847051023020509E-02;1.529243876218685E-01;8.914487824644307E-01;
6.151151151151151E+07;1.420146714182799E-01;4.981872622549807E-02;1.498381200296978E-01;8.926948003354911E-01;1.420146714182799E-01;4.981872622549807E-02;1.498381200296978E-01;8.926948003354911E-01;
6.176176176176176E+07;1.428151223598557E-01;5.138659250132927E-02;1.469539373914330E-01;8.939686606413919E-01;1.428151223598557E-01;5.138659250132927E-02;1.469539373914330E-01;8.939686606413919E-01;
6.201201201201201E+07;1.435808225115905E-01;5.304961277691971E-02;1.442356809554580E-01;8.950242831769808E-01;1.435808225115905E-01;5.304961277691971E-02;1.442356809554580E-01;8.950242831769808E-01;
6.226226226226226E+07;1.441929677312591E-01;5.474499307821043E-02;1.416793035224951E-01;8.958815962700966E-01;1.441929677312591E-01;5.474499307821043E-02;1.416793035224951E-01;8.958815962700966E-01;
6.251251251251251E+07;1.446542722283746E-01;5.656984608473827E-02;1.393652940379645E-01;8.966133136394816E-01;1.446542722283746E-01;5.656984608473827E-02;1.393652940379645E-01;8.966133136394816E-01;
6.276276276276276E+07;1.449670400501339E-01;5.858198600691907E-02;1.372455414153295E-01;8.971617101409023E-01;1.449670400501339E-01;5.858198600691907E-02;1.372455414153295E-01;8.971617101409023E-01;
6.301301301301301E+07;1.451891535494405E-01;6.069590382235469E-02;1.350818244092807E-01;8.975658211118739E-01;1.451891535494405E-01;6.069590382235469E-02;1.350818244092807E-01;8.975658211118739E-01;
6.326326326326326E+07;1.453993440476735E-01;6.302451971796685E-02;1.329883931702818E-01;8.978191173429408E-01;1.453993440476735E-01;6.302451971796685E-02;1.329883931702818E-01;8.978191173429408E-01;
6.351351351351351E+07;1.455952710342464E-01;6.543806259792607E-02;1.309112192049854E-01;8.979355516331375E-01;1.455952710342464E-01;6.543806259792607E-02;1.309112192049854E-01;8.979355516331375E-01;
6.376376376376376E+07;1.457674771932044E-01;6.799830649520980E-02;1.289386028178563E-01;8.980126603810734E-01;1.457674771932044E-01;6.799830649520980E-02;1.289386028178563E-01;8.980126603810734E-01;
6.401401401401401E+07;1.456698644523051E-01;7.064058993126755E-02;1.272718785393124E-01;8.979200235782502E-01;1.456698644523051E-01;7.064058993126755E-02;1.272718785393124E-01;8.979200235782502E-01;
6.426426426426426E+07;1.461480468256361E-01;7.333975631343012E-02;1.251852935948906E-01;8.979845708493945E-01;1.461480468256361E-01;7.333975631343012E-02;1.251852935948906E-01;8.979845708493945E-01;
6.451451451451451E+07;1.462798793228716E-01;7.610242461114286E-02;1.234829182741210E-01;8.977033127436677E-01;1.462798793228716E-01;7.610242461114286E-02;1.234829182741210E-01;8.977033127436677E-01;
6.476476476476476E+07;1.463830948370202E-01;7.895461795412638E-02;1.218401998650807E-01;8.974741505647063E-01;1.463830948370202E-01;7.895461795412638E-02;1.218401998650807E-01;8.974741505647063E-01;
6.501501501501501E+07;1.464877850880938E-01;8.190483631750235E-02;1.201788613472042E-01;8.971301183729448E-01;1.464877850880938E-01;8.190483631750235E-02;1.201788613472042E-01;8.971301183729448E-01;
6.526526526526526E+07;1.465750762859000E-01;8.496142312094550E-02;1.185331038140651E-01;8.968130615502274E-01;1.465750762859000E-01;8.496142312094550E-02;1.185331038140651E-01;8.968130615502274E-01;
6.551551551551551E+07;1.466142200653664E-01;8.805496666331862E-02;1.169004188567173E-01;8.964303429366191E-01;1.466142200653664E-01;8.805496666331862E-02;1.169004188567173E-01;8.964303429366191E-01;
6.576576576576576E+07;1.458418315255513E-01;9.143029269622052E-02;1.080805662626080E-01;8.975283218192872E-01;1.458418315255513E-01;9.143029269622052E-02;1.080805662626080E-01;8.975283218192872E-01;
6.601601601601601E+07;1.460432178396158E-01;9.452101653676492E-02;1.066833961034947E-01;8.969897706814627E-01;1.460432178396158E-01;9.452101653676492E-02;1.066833961034947E-01;8.969897706814627E-01;
6.626626626626626E+07;1.462214007169891E-01;9.779021304726587E-02;1.050594493183972E-01;8.965215430073762E-01;1.462214007169891E-01;9.779021304726587E-02;1.050594493183972E-01;8.965215430073762E-01;
6.651651651651651E+07;1.464215805927583E-01;1.009874125492863E-01;1.033809580455439E-01;8.959797348891956E-01;1.464215805927583E-01;1.009874125492863E-01;1.033809580455439E-01;8.959797348891956E-01;
6.676676676676676E+07;1.466911923849961E-01;1.042125305207093E-01;1.016962458126204E-01;8.954913539475126E-01;1.466911923849961E-01;1.042125305207093E-01;1.016962458126204E-01;8.954913539475126E-01;
6.701701701701702E+07;1.465031957570446E-01;1.080293806191900E-01;1.013204254384000E-01;8.945616829842087E-01;1.465031957570446E-01;1.080293806191900E-01;1.013204254384000E-01;8.945616829842087E-01;
6.726726726726727E+07;1.469855582215847E-01;1.113003115418435E-01;9.978834465229025E-02;8.940724497181302E-01;1.469855582215847E-01;1.113003115418435E-01;9.978834465229025E-02;8.940724497181302E-01;
6.751751751751752E+07;1.473582643955199E-01;1.144851820442924E-01;9.830203717460224E-02;8.935977975855662E-01;1.473582643955199E-01;1.144851820442924E-01;9.830203717460224E-02;8.935977975855662E-01;
6.776776776776777E+07;1.477229417758079E-01;1.177171779492000E-01;9.679388930243676E-02;8.931924397385218E-01;1.477229417758079E-01;1.177171779492000E-01;9.679388930243676E-02;8.931924397385218E-01;
6.801801801801802E+07;1.479717016463843E-01;1.210917473626281E-01;9.538977660816669E-02;8.927918968773428E-01;1.479717016463843E-01;1.210917473626281E-01;9.538977660816669E-02;8.927918968773428E-01;
6.826826826826827E+07;1.480767627858574E-01;1.247247924724203E-01;9.398457155251459E-02;8.923836695028484E-01;1.480767627858574E-01;1.247247924724203E-01;9.398457155251459E-02;8.923836695028484E-01;
6.851851851851852E+07;1.480042563859033E-01;1.287353355013634E-01;9.305900455451571E-02;8.915602809071329E-01;1.480042563859033E-01;1.287353355013634E-01;9.305900455451571E-02;8.915602809071329E-01;
6.876876876876877E+07;1.479531715075080E-01;1.326942396577972E-01;9.625777238098576E-02;8.906777331502601E-01;1.479531715075080E-01;1.326942396577972E-01;9.625777238098576E-02;8.906777331502601E-01;
6.901901901901902E+07;1.475035140161439E-01;1.368736196386724E-01;9.651826176870658E-02;8.893858599959563E-01;1.475035140161439E-01;1.368736196386724E-01;9.651826176870658E-02;8.893858599959563E-01;
6.926926926926927E+07;1.470785759813091E-01;1.413694870327309E-01;9.737780427137510E-02;8.878748553423926E-01;1.470785759813091E-01;1.413694870327309E-01;9.737780427137510E-02;8.878748553423926E-01;
6.951951951951952E+07;1.466192417128591E-01;1.458739680491497E-01;9.853313581761958E-02;8.862205447657863E-01;1.466192417128591E-01;1.458739680491497E-01;9.853313581761958E-02;8.862205447657863E-01;
6.976976976976977E+07;1.461380354262149E-01;1.504460763867530E-01;9.963103196165807E-02;8.843893391517132E-01;1.461380354262149E-01;1.504460763867530E-01;9.963103196165807E-02;8.843893391517132E-01;
7.002002002002002E+07;1.457222329805392E-01;1.550104010969993E-01;1.006119040073036E-01;8.826508442949100E-01;1.457222329805392E-01;1.550104010969993E-01;1.006119040073036E-01;8.826508442949100E-01;
7.027027027027027E+07;1.456083237113555E-01;1.594611654180210E-01;1.014071673557294E-01;8.808898921303572E-01;1.456083237113555E-01;1.594611654180210E-01;1.014071673557294E-01;8.808898921303572E-01;
7.052052052052052E+07;1.454828753052126E-01;1.638926581619735E-01;1.019050487991659E-01;8.792519925363560E-01;1.454828753052126E-01;1.638926581619735E-01;1.019050487991659E-01;8.792519925363560E-01;
7.077077077077077E+07;1.452058783970482E-01;1.682993627271313E-01;1.026036194610600E-01;8.773771373752192E-01;1.452058783970482E-01;1.682993627271313E-01;1.026036194610600E-01;8.773771373752192E-01;
7.102102102102102E+07;1.455393390183515E-01;1.728412678300933E-01;1.029788224375737E-01;8.757074088190013E-01;1.455393390183515E-01;1.728412678300933E-01;1.029788224375737E-01;8.757074088190013E-01;
7.127127127127127E+07;1.457692216111620E-01;1.773211722330166E-01;1.035243002616492E-01;8.739576327247957E-01;1.457692216111620E-01;1.773211722330166E-01;1.035243002616492E-01;8.739576327247957E-01;
7.152152152152152E+07;1.460950078717179E-01;1.818100550009786E-01;1.040325716206833E-01;8.721452087095638E-01;1.460950078717179E-01;1.818100550009786E-01;1.040325716206833E-01;8.721452087095638E-01;
7.177177177177177E+07;1.464637286795100E-01;1.862957282014554E-01;1.045629430374121E-01;8.703212613971117E-01;1.464637286795100E-01;1.862957282014554E-01;1.045629430374121E-01;8.703212613971117E-01;
7.202202202202202E+07;1.467368044143595E-01;1.910655819511617E-01;1.049686454778215E-01;8.684931899768755E-01;1.467368044143595E-01;1.910655819511617E-01;1.049686454778215E-01;8.684931899768755E-01;
7.227227227227227E+07;1.466083151705467E-01;1.962350376530432E-01;1.057260605604144E-01;8.663399904510528E-01;1.466083151705467E-01;1.962350376530432E-01;1.057260605604144E-01;8.663399904510528E-01;
7.252252252252252E+07;1.464310648601383E-01;2.015620734213606E-01;1.069243545498295E-01;8.641957727743937E-01;1.464310648601383E-01;2.015620734213606E-01;1.069243545498295E-01;8.641957727743937E-01;
7.277277277277277E+07;1.460857282648824E-01;2.071438036973010E-01;1.087146759543118E-01;8.616594348186277E-01;1.460857282648824E-01;2.071438036973010E-01;1.087146759543118E-01;8.616594348186277E-01;
7.302302302302302E+07;1.456716958989162E-01;2.128816794855044E-01;1.110135618997833E-01;8.587868184034055E-01;1.456716958989162E-01;2.128816794855044E-01;1.110135618997833E-01;8.587868184034055E-01;
7.327327327327327E+07;1.452784061953397E-01;2.187561448188664E-01;1.134612979687984E-01;8.556194821579444E-01;1.452784061953397E-01;2.187561448188664E-01;1.134612979687984E-01;8.556194821579444E-01;
7.352352352352352E+07;1.449720264142962E-01;2.246837045067108E-01;1.164679246292229E-01;8.523925294017839E-01;1.449720264142962E-01;2.246837045067108E-01;1.164679246292229E-01;8.523925294017839E-01;
7.377377377377377E+07;1.448443377190375E-01;2.306846352324547E-01;1.194708142600151E-01;8.490062389090698E-01;1.448443377190375E-01;2.306846352324547E-01;1.194708142600151E-01;8.490062389090698E-01;
7.402402402402402E+07;1.448173635322814E-01;2.367733582602395E-01;1.225494201734431E-01;8.455188087113491E-01;1.448173635322814E-01;2.367733582602395E-01;1.225494201734431E-01;8.455188087113491E-01;
7.427427427427427E+07;1.448504243562652E-01;2.431969066622724E-01;1.254085093542132E-01;8.419199933368932E-01;1.448504243562652E-01;2.431969066622724E-01;1.254085093542132E-01;8.419199933368932E-01;
