# Version 1.00
#
# Ref Impedances: Z01: 50, Z02: 50
# 
freq[Hz];re:ZMag1_S12;im:ZMag1_S12;re:SMag1_S11;im:SMag1_S11;re:ZPh1_S12;im:ZPh1_S12;re:SPh1_S11;im:SPh1_S11;
5.000000000000000E+07;-1.080285035258358E-03;-4.865682619756061E-03;5.075258809803197E-01;7.660728350419820E-01;-1.080285035258358E-03;-4.865682619756061E-03;5.075258809803197E-01;7.660728350419820E-01;
5.025025025025025E+07;-2.802258168742685E-03;-4.338336998195373E-03;4.919522976654900E-01;7.659310644307042E-01;-2.802258168742685E-03;-4.338336998195373E-03;4.919522976654900E-01;7.659310644307042E-01;
5.050050050050050E+07;-3.864233419092500E-03;-2.831889464399062E-03;4.748102080908992E-01;7.741585441575207E-01;-3.864233419092500E-03;-2.831889464399062E-03;4.748102080908992E-01;7.741585441575207E-01;
5.075075075075075E+07;-3.758827315662793E-03;-1.076933161761945E-03;4.643640895158063E-01;7.889056661762501E-01;-3.758827315662793E-03;-1.076933161761945E-03;4.643640895158063E-01;7.889056661762501E-01;
5.100100100100100E+07;-3.231310756410739E-03;-2.529815690490763E-04;4.587808225404764E-01;7.999798357778694E-01;-3.231310756410739E-03;-2.529815690490763E-04;4.587808225404764E-01;7.999798357778694E-01;
5.125125125125125E+07;-2.574839806825319E-03;2.239647845834908E-04;4.563943522383350E-01;8.092756576055868E-01;-2.574839806825319E-03;2.239647845834908E-04;4.563943522383350E-01;8.092756576055868E-01;
5.150150150150150E+07;-2.053710492563287E-03;4.082139718831250E-04;4.541088838857495E-01;8.161391437622528E-01;-2.053710492563287E-03;4.082139718831250E-04;4.541088838857495E-01;8.161391437622528E-01;
5.175175175175175E+07;-1.644159392469725E-03;4.775767331671897E-04;4.515766418324038E-01;8.213441282299923E-01;-1.644159392469725E-03;4.775767331671897E-04;4.515766418324038E-01;8.213441282299923E-01;
5.200200200200200E+07;-1.342130154869337E-03;4.664107740363230E-04;4.486545500832247E-01;8.257436441605945E-01;-1.342130154869337E-03;4.664107740363230E-04;4.486545500832247E-01;8.257436441605945E-01;
5.225225225225225E+07;-1.114302583566044E-03;4.417267229594820E-04;4.455555800534294E-01;8.294599219237194E-01;-1.114302583566044E-03;4.417267229594820E-04;4.455555800534294E-01;8.294599219237194E-01;
5.250250250250250E+07;-9.512696572537438E-04;3.969432842045427E-04;4.418761120382366E-01;8.328420587547827E-01;-9.512696572537438E-04;3.969432842045427E-04;4.418761120382366E-01;8.328420587547827E-01;
5.275275275275275E+07;-8.210922102565271E-04;3.618427200600429E-04;4.382082982507970E-01;8.358064068599190E-01;-8.210922102565271E-04;3.618427200600429E-04;4.382082982507970E-01;8.358064068599190E-01;
5.300300300300300E+07;-7.069959155809329E-04;3.264046259129975E-04;4.338217719884452E-01;8.387515769298129E-01;-7.069959155809329E-04;3.264046259129975E-04;4.338217719884452E-01;8.387515769298129E-01;
5.325325325325325E+07;-6.301533481204066E-04;2.823441628349241E-04;4.297527625325936E-01;8.414678265319646E-01;-6.301533481204066E-04;2.823441628349241E-04;4.297527625325936E-01;8.414678265319646E-01;
5.350350350350350E+07;-5.548420358295949E-04;2.530829524173294E-04;4.252448295806883E-01;8.441739515570130E-01;-5.548420358295949E-04;2.530829524173294E-04;4.252448295806883E-01;8.441739515570130E-01;
5.375375375375375E+07;-4.968982385883776E-04;2.329407684711428E-04;4.206161887465748E-01;8.469253690975606E-01;-4.968982385883776E-04;2.329407684711428E-04;4.206161887465748E-01;8.469253690975606E-01;
5.400400400400400E+07;-4.459771816971056E-04;2.035191612131784E-04;4.161278434279354E-01;8.493569553899202E-01;-4.459771816971056E-04;2.035191612131784E-04;4.161278434279354E-01;8.493569553899202E-01;
5.425425425425425E+07;-4.031652116478800E-04;1.786936568677250E-04;4.113716274796433E-01;8.517785013666664E-01;-4.031652116478800E-04;1.786936568677250E-04;4.113716274796433E-01;8.517785013666664E-01;
5.450450450450450E+07;-3.740752903359369E-04;1.491745152529104E-04;4.065743726228008E-01;8.542307731563621E-01;-3.740752903359369E-04;1.491745152529104E-04;4.065743726228008E-01;8.542307731563621E-01;
5.475475475475475E+07;-3.445618974602595E-04;1.362641675149233E-04;4.018480039286028E-01;8.563835402191381E-01;-3.445618974602595E-04;1.362641675149233E-04;4.018480039286028E-01;8.563835402191381E-01;
5.500500500500500E+07;-3.101577462145804E-04;1.172420846864201E-04;3.969298373253118E-01;8.587926908542649E-01;-3.101577462145804E-04;1.172420846864201E-04;3.969298373253118E-01;8.587926908542649E-01;
5.525525525525525E+07;-2.805938869046564E-04;1.068825067264324E-04;3.921712424185863E-01;8.608402042022618E-01;-2.805938869046564E-04;1.068825067264324E-04;3.921712424185863E-01;8.608402042022618E-01;
5.550550550550550E+07;-2.612169529785398E-04;8.310453308411293E-05;3.870927132684026E-01;8.632469882398752E-01;-2.612169529785398E-04;8.310453308411293E-05;3.870927132684026E-01;8.632469882398752E-01;
5.575575575575575E+07;-2.259120055891907E-04;6.852832444636709E-05;3.824393133207981E-01;8.650736176228454E-01;-2.259120055891907E-04;6.852832444636709E-05;3.824393133207981E-01;8.650736176228454E-01;
5.600600600600600E+07;-2.129851273267432E-04;5.223822614375758E-05;3.774982998338258E-01;8.671531438852218E-01;-2.129851273267432E-04;5.223822614375758E-05;3.774982998338258E-01;8.671531438852218E-01;
5.625625625625625E+07;-2.057821218942393E-04;4.088638288035899E-05;3.728271926424541E-01;8.690327378431201E-01;-2.057821218942393E-04;4.088638288035899E-05;3.728271926424541E-01;8.690327378431201E-01;
5.650650650650650E+07;-1.822603794047309E-04;2.526838549264914E-05;3.678375503299066E-01;8.710395621944593E-01;-1.822603794047309E-04;2.526838549264914E-05;3.678375503299066E-01;8.710395621944593E-01;
5.675675675675675E+07;-1.701898545317081E-04;3.752902787107850E-05;3.630058721855545E-01;8.728986623791545E-01;-1.701898545317081E-04;3.752902787107850E-05;3.630058721855545E-01;8.728986623791545E-01;
5.700700700700700E+07;-1.547111543957148E-04;1.746298378933292E-05;3.580872840838170E-01;8.746599870809855E-01;-1.547111543957148E-04;1.746298378933292E-05;3.580872840838170E-01;8.746599870809855E-01;
5.725725725725726E+07;-1.334124638940726E-04;8.948760283835850E-06;3.534866821612315E-01;8.764599422999679E-01;-1.334124638940726E-04;8.948760283835850E-06;3.534866821612315E-01;8.764599422999679E-01;
5.750750750750751E+07;-1.310827568686169E-04;1.000808137613195E-05;3.487174996765559E-01;8.781321831063952E-01;-1.310827568686169E-04;1.000808137613195E-05;3.487174996765559E-01;8.781321831063952E-01;
5.775775775775776E+07;-1.071081607975813E-04;-8.592018057101587E-06;3.439915718045726E-01;8.798816562144336E-01;-1.071081607975813E-04;-8.592018057101587E-06;3.439915718045726E-01;8.798816562144336E-01;
5.800800800800801E+07;-1.029061202980943E-04;-1.284619493881365E-05;3.460733121671428E-01;8.782423335490858E-01;-1.029061202980943E-04;-1.284619493881365E-05;3.460733121671428E-01;8.782423335490858E-01;
5.825825825825826E+07;-9.133741982166526E-05;-2.748420436754853E-05;3.413169455869980E-01;8.797886580606704E-01;-9.133741982166526E-05;-2.748420436754853E-05;3.413169455869980E-01;8.797886580606704E-01;
5.850850850850851E+07;-6.967712081842004E-05;-2.784404186479988E-05;3.367356711228148E-01;8.812474468993198E-01;-6.967712081842004E-05;-2.784404186479988E-05;3.367356711228148E-01;8.812474468993198E-01;
5.875875875875876E+07;-6.903651314538635E-05;-2.144853597160225E-05;3.322456980416903E-01;8.823837459961709E-01;-6.903651314538635E-05;-2.144853597160225E-05;3.322456980416903E-01;8.823837459961709E-01;
5.900900900900901E+07;-5.207952391140822E-05;-3.057781908972215E-05;3.277251640493641E-01;8.838559169461983E-01;-5.207952391140822E-05;-3.057781908972215E-05;3.277251640493641E-01;8.838559169461983E-01;
5.925925925925926E+07;-3.511163613820350E-05;-3.544269106823566E-05;3.233374547428758E-01;8.848995954016063E-01;-3.511163613820350E-05;-3.544269106823566E-05;3.233374547428758E-01;8.848995954016063E-01;
5.950950950950951E+07;-3.600468711945319E-05;-3.135074045659349E-05;3.188323321111826E-01;8.862259403742845E-01;-3.600468711945319E-05;-3.135074045659349E-05;3.188323321111826E-01;8.862259403742845E-01;
5.975975975975976E+07;-1.453790834968903E-05;-3.371859294086427E-05;3.145337068736499E-01;8.874492564373000E-01;-1.453790834968903E-05;-3.371859294086427E-05;3.145337068736499E-01;8.874492564373000E-01;
6.001001001001001E+07;-1.728703935918325E-05;-5.600594215663263E-05;3.104766184589502E-01;8.884235131330027E-01;-1.728703935918325E-05;-5.600594215663263E-05;3.104766184589502E-01;8.884235131330027E-01;
6.026026026026026E+07;1.870636437292536E-06;-4.457277828471752E-05;3.064813851405487E-01;8.895100065958856E-01;1.870636437292536E-06;-4.457277828471752E-05;3.064813851405487E-01;8.895100065958856E-01;
6.051051051051051E+07;5.565849672180625E-06;-5.300383325490103E-05;3.025840685440598E-01;8.906744295411599E-01;5.565849672180625E-06;-5.300383325490103E-05;3.025840685440598E-01;8.906744295411599E-01;
6.076076076076076E+07;2.393570711826859E-05;-5.198866210611562E-05;2.988890635248397E-01;8.916229894269593E-01;2.393570711826859E-05;-5.198866210611562E-05;2.988890635248397E-01;8.916229894269593E-01;
6.101101101101101E+07;4.174063516696765E-05;-6.645927720768591E-05;2.951437052190664E-01;8.925130187259963E-01;4.174063516696765E-05;-6.645927720768591E-05;2.951437052190664E-01;8.925130187259963E-01;
6.126126126126126E+07;5.382374685137445E-05;-5.777313416119022E-05;2.915221019576967E-01;8.934129291455573E-01;5.382374685137445E-05;-5.777313416119022E-05;2.915221019576967E-01;8.934129291455573E-01;
6.151151151151151E+07;6.650200187195361E-05;-5.707907599460755E-05;2.879597498460751E-01;8.941822986777413E-01;6.650200187195361E-05;-5.707907599460755E-05;2.879597498460751E-01;8.941822986777413E-01;
6.176176176176176E+07;8.136156001124116E-05;-6.065562151157009E-05;2.846430931275646E-01;8.947568564579879E-01;8.136156001124116E-05;-6.065562151157009E-05;2.846430931275646E-01;8.947568564579879E-01;
6.201201201201201E+07;9.713120007868200E-05;-6.844860740016115E-05;2.812826671027087E-01;8.953474702841600E-01;9.713120007868200E-05;-6.844860740016115E-05;2.812826671027087E-01;8.953474702841600E-01;
6.226226226226226E+07;1.055576061237717E-04;-6.135382977216964E-05;2.781311851960743E-01;8.958416114327563E-01;1.055576061237717E-04;-6.135382977216964E-05;2.781311851960743E-01;8.958416114327563E-01;
6.251251251251251E+07;1.307980604744671E-04;-7.029051659200628E-05;2.748803112104563E-01;8.962144975806585E-01;1.307980604744671E-04;-7.029051659200628E-05;2.748803112104563E-01;8.962144975806585E-01;
6.276276276276276E+07;1.304212488588633E-04;-8.320333519028403E-05;2.718613703832451E-01;8.965159960292339E-01;1.304212488588633E-04;-8.320333519028403E-05;2.718613703832451E-01;8.965159960292339E-01;
6.301301301301301E+07;1.420153507523960E-04;-7.262851059375281E-05;2.688617980132824E-01;8.966768694720013E-01;1.420153507523960E-04;-7.262851059375281E-05;2.688617980132824E-01;8.966768694720013E-01;
6.326326326326326E+07;1.714298480439857E-04;-7.963424597447281E-05;2.660514958615073E-01;8.968638653392926E-01;1.714298480439857E-04;-7.963424597447281E-05;2.660514958615073E-01;8.968638653392926E-01;
6.351351351351351E+07;1.905188566794116E-04;-7.596437126636243E-05;2.630861180301343E-01;8.968047794055342E-01;1.905188566794116E-04;-7.596437126636243E-05;2.630861180301343E-01;8.968047794055342E-01;
6.376376376376376E+07;1.975187271172439E-04;-8.113734732687300E-05;2.604297350668889E-01;8.967215955103907E-01;1.975187271172439E-04;-8.113734732687300E-05;2.604297350668889E-01;8.967215955103907E-01;
6.401401401401401E+07;2.045205010898160E-04;-8.861885124104817E-05;2.577063407302824E-01;8.965737235943382E-01;2.045205010898160E-04;-8.861885124104817E-05;2.577063407302824E-01;8.965737235943382E-01;
6.426426426426426E+07;2.421919386340977E-04;-8.475102704395504E-05;2.551362396638067E-01;8.963079510019040E-01;2.421919386340977E-04;-8.475102704395504E-05;2.551362396638067E-01;8.963079510019040E-01;
6.451451451451451E+07;2.449828710624784E-04;-9.063946129480587E-05;2.527084357194335E-01;8.958900316642792E-01;2.449828710624784E-04;-9.063946129480587E-05;2.527084357194335E-01;8.958900316642792E-01;
6.476476476476476E+07;2.612113021718464E-04;-8.564444615894889E-05;2.501924815053124E-01;8.954570485778374E-01;2.612113021718464E-04;-8.564444615894889E-05;2.501924815053124E-01;8.954570485778374E-01;
6.501501501501501E+07;2.913969774437362E-04;-9.797680270289336E-05;2.479612676387660E-01;8.948718435469382E-01;2.913969774437362E-04;-9.797680270289336E-05;2.479612676387660E-01;8.948718435469382E-01;
6.526526526526526E+07;3.128864592794202E-04;-1.070289648546864E-04;2.457664793220472E-01;8.941478940505768E-01;3.128864592794202E-04;-1.070289648546864E-04;2.457664793220472E-01;8.941478940505768E-01;
6.551551551551551E+07;3.234863635457041E-04;-1.149566330136261E-04;2.436902990084114E-01;8.932193929424989E-01;3.234863635457041E-04;-1.149566330136261E-04;2.436902990084114E-01;8.932193929424989E-01;
6.576576576576576E+07;3.424318521693294E-04;-9.959147114382185E-05;2.329797080205057E-01;8.949440467874871E-01;3.424318521693294E-04;-9.959147114382185E-05;2.329797080205057E-01;8.949440467874871E-01;
6.601601601601601E+07;3.584482223459618E-04;-1.281255251267172E-04;2.308583343609499E-01;8.937761299821065E-01;3.584482223459618E-04;-1.281255251267172E-04;2.308583343609499E-01;8.937761299821065E-01;
6.626626626626626E+07;3.850403582271909E-04;-1.350883527669894E-04;2.286217986462881E-01;8.926128222576776E-01;3.850403582271909E-04;-1.350883527669894E-04;2.286217986462881E-01;8.926128222576776E-01;
6.651651651651651E+07;3.892478034584450E-04;-1.398374375287905E-04;2.261339962339139E-01;8.915508416362424E-01;3.892478034584450E-04;-1.398374375287905E-04;2.261339962339139E-01;8.915508416362424E-01;
6.676676676676676E+07;4.295298889373427E-04;-1.264470208227906E-04;2.235062758772068E-01;8.905066910511936E-01;4.295298889373427E-04;-1.264470208227906E-04;2.235062758772068E-01;8.905066910511936E-01;
6.701701701701702E+07;4.416393208201855E-04;-1.817184755292969E-04;2.222449290502330E-01;8.889765078990148E-01;4.416393208201855E-04;-1.817184755292969E-04;2.222449290502330E-01;8.889765078990148E-01;
6.726726726726727E+07;4.567435080754313E-04;-1.428680122783791E-04;2.200142695393521E-01;8.879579182461009E-01;4.567435080754313E-04;-1.428680122783791E-04;2.200142695393521E-01;8.879579182461009E-01;
6.751751751751752E+07;4.403371082370559E-04;-1.524194084217932E-04;2.178965021098496E-01;8.870375179957873E-01;4.403371082370559E-04;-1.524194084217932E-04;2.178965021098496E-01;8.870375179957873E-01;
6.776776776776777E+07;4.728871781261503E-04;-1.434648032796377E-04;2.157148520053837E-01;8.861558227120367E-01;4.728871781261503E-04;-1.434648032796377E-04;2.157148520053837E-01;8.861558227120367E-01;
6.801801801801802E+07;5.154541350358236E-04;-1.578825786737455E-04;2.137561134538991E-01;8.852539768601536E-01;5.154541350358236E-04;-1.578825786737455E-04;2.137561134538991E-01;8.852539768601536E-01;
6.826826826826827E+07;5.343403586035694E-04;-1.397423727077222E-04;2.119162209959115E-01;8.842464912676687E-01;5.343403586035694E-04;-1.397423727077222E-04;2.119162209959115E-01;8.842464912676687E-01;
6.851851851851852E+07;5.614376794068266E-04;-1.341419366017150E-04;2.106924615809045E-01;8.828758431506978E-01;5.614376794068266E-04;-1.341419366017150E-04;2.106924615809045E-01;8.828758431506978E-01;
6.876876876876877E+07;6.056975932297826E-04;-1.242964244193676E-04;2.145691760484589E-01;8.807347232759275E-01;6.056975932297826E-04;-1.242964244193676E-04;2.145691760484589E-01;8.807347232759275E-01;
6.901901901901902E+07;6.218179307428250E-04;-1.077460185838419E-04;2.147264524928000E-01;8.781614007063699E-01;6.218179307428250E-04;-1.077460185838419E-04;2.147264524928000E-01;8.781614007063699E-01;
6.926926926926927E+07;6.802820883219787E-04;-1.207819921634060E-04;2.157415890410644E-01;8.749688540000014E-01;6.802820883219787E-04;-1.207819921634060E-04;2.157415890410644E-01;8.749688540000014E-01;
6.951951951951952E+07;6.991349762983430E-04;-1.183758130246436E-04;2.170887675957698E-01;8.712534481673131E-01;6.991349762983430E-04;-1.183758130246436E-04;2.170887675957698E-01;8.712534481673131E-01;
6.976976976976977E+07;7.760319476467097E-04;-1.089023080048302E-04;2.185133708815284E-01;8.667993913548095E-01;7.760319476467097E-04;-1.089023080048302E-04;2.185133708815284E-01;8.667993913548095E-01;
7.002002002002002E+07;8.467369503728406E-04;-1.172292235978067E-04;2.194836370375360E-01;8.620380348380313E-01;8.467369503728406E-04;-1.172292235978067E-04;2.194836370375360E-01;8.620380348380313E-01;
7.027027027027027E+07;8.968461379265816E-04;-1.435308945856827E-04;2.199840018168795E-01;8.570984885496630E-01;8.968461379265816E-04;-1.435308945856827E-04;2.199840018168795E-01;8.570984885496630E-01;
7.052052052052052E+07;9.660340903300530E-04;-1.623841719937852E-04;2.202306150160866E-01;8.517988452942146E-01;9.660340903300530E-04;-1.623841719937852E-04;2.202306150160866E-01;8.517988452942146E-01;
7.077077077077077E+07;9.920853049106609E-04;-1.864706480038479E-04;2.202157453179384E-01;8.461111887701851E-01;9.920853049106609E-04;-1.864706480038479E-04;2.202157453179384E-01;8.461111887701851E-01;
7.102102102102102E+07;1.070406342518653E-03;-1.885480823464178E-04;2.199574949793459E-01;8.400353689313521E-01;1.070406342518653E-03;-1.885480823464178E-04;2.199574949793459E-01;8.400353689313521E-01;
7.127127127127127E+07;1.156056194140469E-03;-2.208542110831519E-04;2.195714168970586E-01;8.334003695190610E-01;1.156056194140469E-03;-2.208542110831519E-04;2.195714168970586E-01;8.334003695190610E-01;
7.152152152152152E+07;1.188901136837380E-03;-2.731477968840443E-04;2.188182886001192E-01;8.260723701606836E-01;1.188901136837380E-03;-2.731477968840443E-04;2.188182886001192E-01;8.260723701606836E-01;
7.177177177177177E+07;1.313914435711785E-03;-3.118848286785521E-04;2.174025973299114E-01;8.182597421766280E-01;1.313914435711785E-03;-3.118848286785521E-04;2.174025973299114E-01;8.182597421766280E-01;
7.202202202202202E+07;1.369816616475301E-03;-3.632759454744462E-04;2.153379863381525E-01;8.097142107491937E-01;1.369816616475301E-03;-3.632759454744462E-04;2.153379863381525E-01;8.097142107491937E-01;
7.227227227227227E+07;1.472094253172049E-03;-4.249275853045693E-04;2.127497827893695E-01;8.002872182261971E-01;1.472094253172049E-03;-4.249275853045693E-04;2.127497827893695E-01;8.002872182261971E-01;
7.252252252252252E+07;1.562558452778933E-03;-4.827052121471395E-04;2.097335442882551E-01;7.899694607806541E-01;1.562558452778933E-03;-4.827052121471395E-04;2.097335442882551E-01;7.899694607806541E-01;
7.277277277277277E+07;1.612642149758383E-03;-5.958326728890103E-04;2.050169505299760E-01;7.792758960991898E-01;1.612642149758383E-03;-5.958326728890103E-04;2.050169505299760E-01;7.792758960991898E-01;
7.302302302302302E+07;1.659518611411610E-03;-7.013154294763106E-04;1.996522664118023E-01;7.677564596758600E-01;1.659518611411610E-03;-7.013154294763106E-04;1.996522664118023E-01;7.677564596758600E-01;
7.327327327327327E+07;1.758570797284437E-03;-7.911972053064549E-04;1.930235712849025E-01;7.561466527281279E-01;1.758570797284437E-03;-7.911972053064549E-04;1.930235712849025E-01;7.561466527281279E-01;
7.352352352352352E+07;1.827307998525019E-03;-9.135455158331307E-04;1.845571182424735E-01;7.450706432296960E-01;1.827307998525019E-03;-9.135455158331307E-04;1.845571182424735E-01;7.450706432296960E-01;
7.377377377377377E+07;1.840294851842704E-03;-1.024821587627669E-03;1.745651973140276E-01;7.351052448753319E-01;1.840294851842704E-03;-1.024821587627669E-03;1.745651973140276E-01;7.351052448753319E-01;
7.402402402402402E+07;1.852057067357503E-03;-1.166262438576436E-03;1.631184332415344E-01;7.265169246714018E-01;1.852057067357503E-03;-1.166262438576436E-03;1.631184332415344E-01;7.265169246714018E-01;
7.427427427427427E+07;1.855552844843399E-03;-1.330047687400741E-03;1.507616374291824E-01;7.195124580723394E-01;1.855552844843399E-03;-1.330047687400741E-03;1.507616374291824E-01;7.195124580723394E-01;
