# Version 1.00
#
# Ref Impedances: Z01: 50, Z02: 50
# 
freq[Hz];re:ZMag1_S12;im:ZMag1_S12;re:SMag1_S11;im:SMag1_S11;re:ZPh1_S12;im:ZPh1_S12;re:SPh1_S11;im:SPh1_S11;
5.000000000000000E+07;-1.424612456218970E-04;-3.146526416591224E-04;6.546531980563031E-01;6.241506830644511E-01;-1.424612456218970E-04;-3.146526416591224E-04;6.546531980563031E-01;6.241506830644511E-01;
5.025025025025025E+07;-1.444586754917164E-04;-3.460615050481541E-04;6.557327808004420E-01;6.181263438431609E-01;-1.444586754917164E-04;-3.460615050481541E-04;6.557327808004420E-01;6.181263438431609E-01;
5.050050050050050E+07;-1.611635192274553E-04;-3.679145345248558E-04;6.566991350947039E-01;6.109378455653934E-01;-1.611635192274553E-04;-3.679145345248558E-04;6.566991350947039E-01;6.109378455653934E-01;
5.075075075075075E+07;-1.766715340532010E-04;-3.670109239721066E-04;6.572037770936375E-01;6.029996190332120E-01;-1.766715340532010E-04;-3.670109239721066E-04;6.572037770936375E-01;6.029996190332120E-01;
5.100100100100100E+07;-1.916487174447499E-04;-4.032870684395816E-04;6.579032464512464E-01;5.938010102113306E-01;-1.916487174447499E-04;-4.032870684395816E-04;6.579032464512464E-01;5.938010102113306E-01;
5.125125125125125E+07;-2.037041255717076E-04;-4.468486611700635E-04;6.587048461721502E-01;5.836126434605330E-01;-2.037041255717076E-04;-4.468486611700635E-04;6.587048461721502E-01;5.836126434605330E-01;
5.150150150150150E+07;-2.456958851336901E-04;-4.546368474336379E-04;6.597579381303443E-01;5.718879424440513E-01;-2.456958851336901E-04;-4.546368474336379E-04;6.597579381303443E-01;5.718879424440513E-01;
5.175175175175175E+07;-2.539956440063373E-04;-5.248942414794260E-04;6.609137044029514E-01;5.583536368164371E-01;-2.539956440063373E-04;-5.248942414794260E-04;6.609137044029514E-01;5.583536368164371E-01;
5.200200200200200E+07;-3.030255173550766E-04;-5.694517668861640E-04;6.624691630030357E-01;5.417837103822782E-01;-3.030255173550766E-04;-5.694517668861640E-04;6.624691630030357E-01;5.417837103822782E-01;
5.225225225225225E+07;-3.155291133940780E-04;-5.871209889001458E-04;6.632385450459515E-01;5.221504399062278E-01;-3.155291133940780E-04;-5.871209889001458E-04;6.632385450459515E-01;5.221504399062278E-01;
5.250250250250250E+07;-3.756109817158329E-04;-6.744316483525144E-04;6.632311854636265E-01;4.985029595166135E-01;-3.756109817158329E-04;-6.744316483525144E-04;6.632311854636265E-01;4.985029595166135E-01;
5.275275275275275E+07;-4.624359961384829E-04;-7.359274048695776E-04;6.615328613871021E-01;4.703651830000330E-01;-4.624359961384829E-04;-7.359274048695776E-04;6.615328613871021E-01;4.703651830000330E-01;
5.300300300300300E+07;-5.357426949363302E-04;-7.994890651076569E-04;6.569619542832046E-01;4.368206609065922E-01;-5.357426949363302E-04;-7.994890651076569E-04;6.569619542832046E-01;4.368206609065922E-01;
5.325325325325325E+07;-6.540829911190895E-04;-8.665967655173123E-04;6.479702985638287E-01;3.967766318130355E-01;-6.540829911190895E-04;-8.665967655173123E-04;6.479702985638287E-01;3.967766318130355E-01;
5.350350350350350E+07;-7.955326052512738E-04;-9.505280305996196E-04;6.319594243275518E-01;3.495658388319595E-01;-7.955326052512738E-04;-9.505280305996196E-04;6.319594243275518E-01;3.495658388319595E-01;
5.375375375375375E+07;-9.656698661593424E-04;-1.020760782076956E-03;6.049964694409418E-01;2.947381590992493E-01;-9.656698661593424E-04;-1.020760782076956E-03;6.049964694409418E-01;2.947381590992493E-01;
5.400400400400400E+07;-1.211822691458834E-03;-1.060112874786662E-03;5.617338169906818E-01;2.334100363122228E-01;-1.211822691458834E-03;-1.060112874786662E-03;5.617338169906818E-01;2.334100363122228E-01;
5.425425425425425E+07;-1.525208474308738E-03;-1.059994041075628E-03;4.946478382601096E-01;1.698321406468097E-01;-1.525208474308738E-03;-1.059994041075628E-03;4.946478382601096E-01;1.698321406468097E-01;
5.450450450450450E+07;-1.922323891774031E-03;-9.730081406489091E-04;3.960240712340473E-01;1.134758099557355E-01;-1.922323891774031E-03;-9.730081406489091E-04;3.960240712340473E-01;1.134758099557355E-01;
5.475475475475475E+07;-2.313708391763462E-03;-7.050426122482857E-04;2.621387944963827E-01;8.301199304723110E-02;-2.313708391763462E-03;-7.050426122482857E-04;2.621387944963827E-01;8.301199304723110E-02;
5.500500500500500E+07;-2.701797121734573E-03;-2.585237723599581E-04;1.024854717815854E-01;1.045654594971199E-01;-2.701797121734573E-03;-2.585237723599581E-04;1.024854717815854E-01;1.045654594971199E-01;
5.525525525525525E+07;-2.920392081225132E-03;3.337955208037743E-04;-5.099181368037453E-02;1.955512504623031E-01;-2.920392081225132E-03;3.337955208037743E-04;-5.099181368037453E-02;1.955512504623031E-01;
5.550550550550550E+07;-2.824021629862698E-03;9.789330181914065E-04;-1.566101442576423E-01;3.433745563224103E-01;-2.824021629862698E-03;9.789330181914065E-04;-1.566101442576423E-01;3.433745563224103E-01;
5.575575575575575E+07;-2.530619845141786E-03;1.522293412260265E-03;-1.920871945837395E-01;5.071939767923263E-01;-2.530619845141786E-03;1.522293412260265E-03;-1.920871945837395E-01;5.071939767923263E-01;
5.600600600600600E+07;-2.132404294622550E-03;1.889949956710874E-03;-1.689746694178179E-01;6.487576521338541E-01;-2.132404294622550E-03;1.889949956710874E-03;-1.689746694178179E-01;6.487576521338541E-01;
5.625625625625625E+07;-1.707518759606097E-03;2.054202455624197E-03;-1.135869110193419E-01;7.526918999864384E-01;-1.707518759606097E-03;2.054202455624197E-03;-1.135869110193419E-01;7.526918999864384E-01;
5.650650650650650E+07;-1.359704312110425E-03;2.113176843140095E-03;-4.805383678314681E-02;8.208811623599775E-01;-1.359704312110425E-03;2.113176843140095E-03;-4.805383678314681E-02;8.208811623599775E-01;
5.675675675675675E+07;-1.038313572255701E-03;2.127188146869152E-03;1.579191710307707E-02;8.618131115704561E-01;-1.038313572255701E-03;2.127188146869152E-03;1.579191710307707E-02;8.618131115704561E-01;
5.700700700700700E+07;-7.866585470584913E-04;2.071682048943349E-03;7.285408855790906E-02;8.839595820591805E-01;-7.866585470584913E-04;2.071682048943349E-03;7.285408855790906E-02;8.839595820591805E-01;
5.725725725725726E+07;-5.739743238785524E-04;2.035128583100905E-03;1.214581104946026E-01;8.935655304864826E-01;-5.739743238785524E-04;2.035128583100905E-03;1.214581104946026E-01;8.935655304864826E-01;
5.750750750750751E+07;-4.021778615136986E-04;1.963860583966671E-03;1.620883212018911E-01;8.948209960602933E-01;-4.021778615136986E-04;1.963860583966671E-03;1.620883212018911E-01;8.948209960602933E-01;
5.775775775775776E+07;-2.549728895259305E-04;1.908548250664620E-03;1.953497427530993E-01;8.907340736772126E-01;-2.549728895259305E-04;1.908548250664620E-03;1.953497427530993E-01;8.907340736772126E-01;
5.800800800800801E+07;-1.399649574644372E-04;1.854068251485739E-03;2.281006100708403E-01;8.807805899243343E-01;-1.399649574644372E-04;1.854068251485739E-03;2.281006100708403E-01;8.807805899243343E-01;
5.825825825825826E+07;-2.930387978453876E-05;1.776631184793691E-03;2.491619370782871E-01;8.713089688350062E-01;-2.930387978453876E-05;1.776631184793691E-03;2.491619370782871E-01;8.713089688350062E-01;
5.850850850850851E+07;7.924652112997302E-05;1.739125081651099E-03;2.653326713935145E-01;8.608623188036915E-01;7.924652112997302E-05;1.739125081651099E-03;2.653326713935145E-01;8.608623188036915E-01;
5.875875875875876E+07;1.549480877474636E-04;1.653373291149804E-03;2.771118772538391E-01;8.500726924223970E-01;1.549480877474636E-04;1.653373291149804E-03;2.771118772538391E-01;8.500726924223970E-01;
5.900900900900901E+07;2.503309928691449E-04;1.597083120773653E-03;2.853749152814040E-01;8.397001304425005E-01;2.503309928691449E-04;1.597083120773653E-03;2.853749152814040E-01;8.397001304425005E-01;
5.925925925925926E+07;3.093608376580458E-04;1.555939493111985E-03;2.905692104789143E-01;8.300696551549761E-01;3.093608376580458E-04;1.555939493111985E-03;2.905692104789143E-01;8.300696551549761E-01;
5.950950950950951E+07;3.513877851436872E-04;1.472787661250104E-03;2.934721690066194E-01;8.217470465345665E-01;3.513877851436872E-04;1.472787661250104E-03;2.934721690066194E-01;8.217470465345665E-01;
5.975975975975976E+07;4.117691510681264E-04;1.448154732713741E-03;2.952206484787295E-01;8.147338645036368E-01;4.117691510681264E-04;1.448154732713741E-03;2.952206484787295E-01;8.147338645036368E-01;
6.001001001001001E+07;4.504039143893902E-04;1.361664687702713E-03;2.963093272879755E-01;8.086649800251982E-01;4.504039143893902E-04;1.361664687702713E-03;2.963093272879755E-01;8.086649800251982E-01;
6.026026026026026E+07;4.432251877330816E-04;1.315762183037122E-03;2.971625140290607E-01;8.027908158500746E-01;4.432251877330816E-04;1.315762183037122E-03;2.971625140290607E-01;8.027908158500746E-01;
6.051051051051051E+07;4.971844454347488E-04;1.269231091551593E-03;2.979788977088013E-01;7.967797696168857E-01;4.971844454347488E-04;1.269231091551593E-03;2.979788977088013E-01;7.967797696168857E-01;
6.076076076076076E+07;5.149445878061970E-04;1.264045433151360E-03;2.983360892590555E-01;7.899025554521223E-01;5.149445878061970E-04;1.264045433151360E-03;2.983360892590555E-01;7.899025554521223E-01;
6.101101101101101E+07;5.446741700277889E-04;1.242372892955638E-03;2.971959581324125E-01;7.821760523135063E-01;5.446741700277889E-04;1.242372892955638E-03;2.971959581324125E-01;7.821760523135063E-01;
6.126126126126126E+07;5.690249649708270E-04;1.244738537102533E-03;2.939261810954821E-01;7.741354342251512E-01;5.690249649708270E-04;1.244738537102533E-03;2.939261810954821E-01;7.741354342251512E-01;
6.151151151151151E+07;6.231308419611916E-04;1.213052186240981E-03;2.891836437097106E-01;7.668065557748079E-01;6.231308419611916E-04;1.213052186240981E-03;2.891836437097106E-01;7.668065557748079E-01;
6.176176176176176E+07;6.597650690835387E-04;1.161332446768389E-03;2.828655091452033E-01;7.605171880426530E-01;6.597650690835387E-04;1.161332446768389E-03;2.828655091452033E-01;7.605171880426530E-01;
6.201201201201201E+07;7.009274823177081E-04;1.109036683976476E-03;2.756130761593877E-01;7.554656002226147E-01;7.009274823177081E-04;1.109036683976476E-03;2.756130761593877E-01;7.554656002226147E-01;
6.226226226226226E+07;7.328843160522632E-04;1.102194313002606E-03;2.679002274417329E-01;7.511564422649989E-01;7.328843160522632E-04;1.102194313002606E-03;2.679002274417329E-01;7.511564422649989E-01;
6.251251251251251E+07;8.012866932570287E-04;1.066320226928211E-03;2.597735324344108E-01;7.480297817509867E-01;8.012866932570287E-04;1.066320226928211E-03;2.597735324344108E-01;7.480297817509867E-01;
6.276276276276276E+07;7.402806651068766E-04;9.709576779522287E-04;2.512294546312958E-01;7.460584270123876E-01;7.402806651068766E-04;9.709576779522287E-04;2.512294546312958E-01;7.460584270123876E-01;
6.301301301301301E+07;8.121332304097627E-04;9.991784803545880E-04;2.429676653891531E-01;7.450819103796464E-01;8.121332304097627E-04;9.991784803545880E-04;2.429676653891531E-01;7.450819103796464E-01;
6.326326326326326E+07;8.112722605183780E-04;9.695802079953199E-04;2.352600658906560E-01;7.452604072533129E-01;8.112722605183780E-04;9.695802079953199E-04;2.352600658906560E-01;7.452604072533129E-01;
6.351351351351351E+07;7.994079744380116E-04;8.936512867896680E-04;2.283058838827860E-01;7.460893519871566E-01;7.994079744380116E-04;8.936512867896680E-04;2.283058838827860E-01;7.460893519871566E-01;
6.376376376376376E+07;7.826282203799209E-04;8.727737087498906E-04;2.227323094012850E-01;7.467054380140556E-01;7.826282203799209E-04;8.727737087498906E-04;2.227323094012850E-01;7.467054380140556E-01;
6.401401401401401E+07;7.989266841882075E-04;8.941112961828371E-04;2.174700456073953E-01;7.466309269968293E-01;7.989266841882075E-04;8.941112961828371E-04;2.174700456073953E-01;7.466309269968293E-01;
6.426426426426426E+07;8.194760511518014E-04;8.824283008310636E-04;2.120435021442375E-01;7.459042119282120E-01;8.194760511518014E-04;8.824283008310636E-04;2.120435021442375E-01;7.459042119282120E-01;
6.451451451451451E+07;8.264340665861531E-04;8.724716429215141E-04;2.060692762662247E-01;7.448940261171871E-01;8.264340665861531E-04;8.724716429215141E-04;2.060692762662247E-01;7.448940261171871E-01;
6.476476476476476E+07;8.069847421374230E-04;8.425116611117307E-04;1.992196343837880E-01;7.442128412406650E-01;8.069847421374230E-04;8.425116611117307E-04;1.992196343837880E-01;7.442128412406650E-01;
6.501501501501501E+07;8.446309382924869E-04;8.500367596881736E-04;1.925133258126845E-01;7.443974570461723E-01;8.446309382924869E-04;8.500367596881736E-04;1.925133258126845E-01;7.443974570461723E-01;
6.526526526526526E+07;8.305799659271739E-04;8.252449244584229E-04;1.863164970418812E-01;7.453411207209013E-01;8.305799659271739E-04;8.252449244584229E-04;1.863164970418812E-01;7.453411207209013E-01;
6.551551551551551E+07;8.440223575571364E-04;8.152399761411859E-04;1.812922323243513E-01;7.464222941490719E-01;8.440223575571364E-04;8.152399761411859E-04;1.812922323243513E-01;7.464222941490719E-01;
6.576576576576576E+07;8.323612719548818E-04;7.891625521424955E-04;1.756672897904503E-01;7.470017314197276E-01;8.323612719548818E-04;7.891625521424955E-04;1.756672897904503E-01;7.470017314197276E-01;
6.601601601601601E+07;8.517074386925936E-04;8.318399403541281E-04;1.717618410913048E-01;7.457518287569573E-01;8.517074386925936E-04;8.318399403541281E-04;1.717618410913048E-01;7.457518287569573E-01;
6.626626626626626E+07;9.296849915574787E-04;8.714337289260171E-04;1.670360792080427E-01;7.436372508816144E-01;9.296849915574787E-04;8.714337289260171E-04;1.670360792080427E-01;7.436372508816144E-01;
6.651651651651651E+07;9.209102035882948E-04;8.455785658087662E-04;1.611250537203558E-01;7.416214706192518E-01;9.209102035882948E-04;8.455785658087662E-04;1.611250537203558E-01;7.416214706192518E-01;
6.676676676676676E+07;9.110393993484819E-04;7.883142351297459E-04;1.549609631603171E-01;7.398531658702795E-01;9.110393993484819E-04;7.883142351297459E-04;1.549609631603171E-01;7.398531658702795E-01;
6.701701701701702E+07;9.260301137721609E-04;8.191174334250191E-04;1.496793382948250E-01;7.374421876707447E-01;9.260301137721609E-04;8.191174334250191E-04;1.496793382948250E-01;7.374421876707447E-01;
6.726726726726727E+07;9.518223794441473E-04;8.785183861708608E-04;1.432366307805518E-01;7.350442100307555E-01;9.518223794441473E-04;8.785183861708608E-04;1.432366307805518E-01;7.350442100307555E-01;
6.751751751751752E+07;9.620052044377188E-04;8.636510243935949E-04;1.363789380617071E-01;7.322110992501313E-01;9.620052044377188E-04;8.636510243935949E-04;1.363789380617071E-01;7.322110992501313E-01;
6.776776776776777E+07;1.020933407315108E-03;8.712693074410429E-04;1.287187835851552E-01;7.293272500621943E-01;1.020933407315108E-03;8.712693074410429E-04;1.287187835851552E-01;7.293272500621943E-01;
6.801801801801802E+07;1.055900780115928E-03;8.560250854642741E-04;1.205534691114582E-01;7.261248948100828E-01;1.055900780115928E-03;8.560250854642741E-04;1.205534691114582E-01;7.261248948100828E-01;
6.826826826826827E+07;1.046006872132877E-03;8.700671457171809E-04;1.111788890217144E-01;7.226050735322900E-01;1.046006872132877E-03;8.700671457171809E-04;1.111788890217144E-01;7.226050735322900E-01;
6.851851851851852E+07;1.130892372697074E-03;9.000338124069155E-04;1.010298924438556E-01;7.190576895977171E-01;1.130892372697074E-03;9.000338124069155E-04;1.010298924438556E-01;7.190576895977171E-01;
6.876876876876877E+07;1.163020714909961E-03;9.378368979522937E-04;9.000353342761050E-02;7.148882654937967E-01;1.163020714909961E-03;9.378368979522937E-04;9.000353342761050E-02;7.148882654937967E-01;
6.901901901901902E+07;1.229510177181948E-03;9.633991908672443E-04;7.723144852196601E-02;7.114639680076353E-01;1.229510177181948E-03;9.633991908672443E-04;7.723144852196601E-02;7.114639680076353E-01;
6.926926926926927E+07;1.254563642975711E-03;8.945318059561456E-04;6.286447041341664E-02;7.095235583564388E-01;1.254563642975711E-03;8.945318059561456E-04;6.286447041341664E-02;7.095235583564388E-01;
6.951951951951952E+07;1.357341710914341E-03;8.850730620392279E-04;4.742726790870241E-02;7.102244261655731E-01;1.357341710914341E-03;8.850730620392279E-04;4.742726790870241E-02;7.102244261655731E-01;
6.976976976976977E+07;1.398119430864878E-03;8.033205585203658E-04;3.248012119694280E-02;7.144160477845644E-01;1.398119430864878E-03;8.033205585203658E-04;3.248012119694280E-02;7.144160477845644E-01;
7.002002002002002E+07;1.425793063777095E-03;7.438706028885158E-04;1.969034101027308E-02;7.205197473432452E-01;1.425793063777095E-03;7.438706028885158E-04;1.969034101027308E-02;7.205197473432452E-01;
7.027027027027027E+07;1.469109212459693E-03;7.005265769429985E-04;8.700453314348881E-03;7.269292024087828E-01;1.469109212459693E-03;7.005265769429985E-04;8.700453314348881E-03;7.269292024087828E-01;
7.052052052052052E+07;1.491267262341569E-03;7.002011360158865E-04;-1.374929980162540E-03;7.331579658922768E-01;1.491267262341569E-03;7.002011360158865E-04;-1.374929980162540E-03;7.331579658922768E-01;
7.077077077077077E+07;1.491801859544491E-03;6.544504302554323E-04;-1.098183159690939E-02;7.395217152184441E-01;1.491801859544491E-03;6.544504302554323E-04;-1.098183159690939E-02;7.395217152184441E-01;
7.102102102102102E+07;1.523404787986531E-03;6.162699393804630E-04;-1.998913999928261E-02;7.459478831217918E-01;1.523404787986531E-03;6.162699393804630E-04;-1.998913999928261E-02;7.459478831217918E-01;
7.127127127127127E+07;1.523321717474474E-03;5.901219346870037E-04;-2.831772418491438E-02;7.524602762839337E-01;1.523321717474474E-03;5.901219346870037E-04;-2.831772418491438E-02;7.524602762839337E-01;
7.152152152152152E+07;1.525415009138347E-03;5.488651997928375E-04;-3.595661694948844E-02;7.587046682545902E-01;1.525415009138347E-03;5.488651997928375E-04;-3.595661694948844E-02;7.587046682545902E-01;
7.177177177177177E+07;1.550755199352815E-03;5.130948600925155E-04;-4.344164860876935E-02;7.646843430780019E-01;1.550755199352815E-03;5.130948600925155E-04;-4.344164860876935E-02;7.646843430780019E-01;
7.202202202202202E+07;1.553519588073224E-03;4.799800172644746E-04;-5.071309668830732E-02;7.705328904553659E-01;1.553519588073224E-03;4.799800172644746E-04;-5.071309668830732E-02;7.705328904553659E-01;
7.227227227227227E+07;1.540774835611062E-03;4.545884181603536E-04;-5.762150083030914E-02;7.764149190429723E-01;1.540774835611062E-03;4.545884181603536E-04;-5.762150083030914E-02;7.764149190429723E-01;
7.252252252252252E+07;1.561687896327045E-03;4.473292252544709E-04;-6.433861430553517E-02;7.820060758123050E-01;1.561687896327045E-03;4.473292252544709E-04;-6.433861430553517E-02;7.820060758123050E-01;
7.277277277277277E+07;1.545387892154878E-03;4.034239641322759E-04;-7.025551812860087E-02;7.877057346888509E-01;1.545387892154878E-03;4.034239641322759E-04;-7.025551812860087E-02;7.877057346888509E-01;
7.302302302302302E+07;1.572046385809057E-03;4.111518680066082E-04;-7.541280656230552E-02;7.932216674828787E-01;1.572046385809057E-03;4.111518680066082E-04;-7.541280656230552E-02;7.932216674828787E-01;
7.327327327327327E+07;1.558951261031183E-03;3.901528666350496E-04;-7.973295846109169E-02;7.987157332545224E-01;1.558951261031183E-03;3.901528666350496E-04;-7.973295846109169E-02;7.987157332545224E-01;
7.352352352352352E+07;1.559266357828587E-03;3.727619425214044E-04;-8.339433605445494E-02;8.037912608663643E-01;1.559266357828587E-03;3.727619425214044E-04;-8.339433605445494E-02;8.037912608663643E-01;
7.377377377377377E+07;1.551145554978024E-03;3.397217430932085E-04;-8.674518033466522E-02;8.085384592277063E-01;1.551145554978024E-03;3.397217430932085E-04;-8.674518033466522E-02;8.085384592277063E-01;
7.402402402402402E+07;1.553564939999329E-03;3.321477893280459E-04;-8.992301139753167E-02;8.130793268141219E-01;1.553564939999329E-03;3.321477893280459E-04;-8.992301139753167E-02;8.130793268141219E-01;
7.427427427427427E+07;1.550807777059063E-03;3.347018081153468E-04;-9.304538015404090E-02;8.170251052391377E-01;1.550807777059063E-03;3.347018081153468E-04;-9.304538015404090E-02;8.170251052391377E-01;
