# Version 1.00
#
# Ref Impedances: Z01: 50, Z02: 50
# 
freq[Hz];re:SMag2_S11;im:SMag2_S11;re:ZPh2_S12;im:ZPh2_S12;re:SPh2_S11;im:SPh2_S11;re:ZMag2_S12;im:ZMag2_S12;
5.000000000000000E+07;5.598402044047213E-01;6.211909029098079E-01;-2.973623344081252E-03;-8.233433476667889E-03;5.598402044047213E-01;6.211909029098079E-01;-2.973623344081252E-03;-8.233433476667889E-03;
5.025025025025025E+07;5.254594430149665E-01;6.062397667067547E-01;-4.836682824655385E-03;-8.001009080759314E-03;5.254594430149665E-01;6.062397667067547E-01;-4.836682824655385E-03;-8.001009080759314E-03;
5.050050050050050E+07;4.808355333904961E-01;6.047136906236429E-01;-6.708340550997603E-03;-6.973522704053567E-03;4.808355333904961E-01;6.047136906236429E-01;-6.708340550997603E-03;-6.973522704053567E-03;
5.075075075075075E+07;4.367596150515721E-01;6.228678038553268E-01;-7.979358857581534E-03;-5.169734748632122E-03;4.367596150515721E-01;6.228678038553268E-01;-7.979358857581534E-03;-5.169734748632122E-03;
5.100100100100100E+07;4.052654082346931E-01;6.555623141659324E-01;-8.367954400098878E-03;-3.223422503000259E-03;4.052654082346931E-01;6.555623141659324E-01;-8.367954400098878E-03;-3.223422503000259E-03;
5.125125125125125E+07;3.898724592239627E-01;6.918505047635720E-01;-7.814055829923401E-03;-1.438828674465646E-03;3.898724592239627E-01;6.918505047635720E-01;-7.814055829923401E-03;-1.438828674465646E-03;
5.150150150150150E+07;3.861379650793195E-01;7.232820824013961E-01;-7.097729958090179E-03;-3.157799143940630E-04;3.861379650793195E-01;7.232820824013961E-01;-7.097729958090179E-03;-3.157799143940630E-04;
5.175175175175175E+07;3.888305304633742E-01;7.478849764972668E-01;-6.267127023906722E-03;5.260830194771864E-04;3.888305304633742E-01;7.478849764972668E-01;-6.267127023906722E-03;5.260830194771864E-04;
5.200200200200200E+07;3.936399161596815E-01;7.664562285685066E-01;-5.494738335267736E-03;9.159675602992559E-04;3.936399161596815E-01;7.664562285685066E-01;-5.494738335267736E-03;9.159675602992559E-04;
5.225225225225225E+07;3.987029009725856E-01;7.800611829144234E-01;-4.802016422664594E-03;1.050733417714933E-03;3.987029009725856E-01;7.800611829144234E-01;-4.802016422664594E-03;1.050733417714933E-03;
5.250250250250250E+07;4.032113100582452E-01;7.906629805530931E-01;-4.332782379460047E-03;1.189393641205877E-03;4.032113100582452E-01;7.906629805530931E-01;-4.332782379460047E-03;1.189393641205877E-03;
5.275275275275275E+07;4.066251747422188E-01;7.987130834764093E-01;-3.873035052964637E-03;1.207036010376226E-03;4.066251747422188E-01;7.987130834764093E-01;-3.873035052964637E-03;1.207036010376226E-03;
5.300300300300300E+07;4.092564517194339E-01;8.049183327709056E-01;-3.469090017928065E-03;1.176537828386854E-03;4.092564517194339E-01;8.049183327709056E-01;-3.469090017928065E-03;1.176537828386854E-03;
5.325325325325325E+07;4.111462347577945E-01;8.101023365828199E-01;-3.123220248793684E-03;1.138681050104723E-03;4.111462347577945E-01;8.101023365828199E-01;-3.123220248793684E-03;1.138681050104723E-03;
5.350350350350350E+07;4.123487548975125E-01;8.145357663242033E-01;-2.860187086006564E-03;1.055239029875081E-03;4.123487548975125E-01;8.145357663242033E-01;-2.860187086006564E-03;1.055239029875081E-03;
5.375375375375375E+07;4.124988428513037E-01;8.182958829493630E-01;-2.691275940479485E-03;1.072295381751570E-03;4.124988428513037E-01;8.182958829493630E-01;-2.691275940479485E-03;1.072295381751570E-03;
5.400400400400400E+07;4.119803509527863E-01;8.215414690927405E-01;-2.506032399786505E-03;9.730091999606654E-04;4.119803509527863E-01;8.215414690927405E-01;-2.506032399786505E-03;9.730091999606654E-04;
5.425425425425425E+07;4.117043493487548E-01;8.247145965456992E-01;-2.352889890418788E-03;9.605247570910239E-04;4.117043493487548E-01;8.247145965456992E-01;-2.352889890418788E-03;9.605247570910239E-04;
5.450450450450450E+07;4.106759495997469E-01;8.274444450119762E-01;-2.205868098482021E-03;9.100626368837936E-04;4.106759495997469E-01;8.274444450119762E-01;-2.205868098482021E-03;9.100626368837936E-04;
5.475475475475475E+07;4.091529731395120E-01;8.299602327268267E-01;-2.024271398436586E-03;8.635997760250717E-04;4.091529731395120E-01;8.299602327268267E-01;-2.024271398436586E-03;8.635997760250717E-04;
5.500500500500500E+07;4.074105644331566E-01;8.321091371008285E-01;-1.914193944263009E-03;7.139778799970942E-04;4.074105644331566E-01;8.321091371008285E-01;-1.914193944263009E-03;7.139778799970942E-04;
5.525525525525525E+07;4.053771511922901E-01;8.342638205931288E-01;-1.889605329660157E-03;7.178226938956222E-04;4.053771511922901E-01;8.342638205931288E-01;-1.889605329660157E-03;7.178226938956222E-04;
5.550550550550550E+07;4.035741658951024E-01;8.363602746899428E-01;-1.791593545852282E-03;6.568827980848155E-04;4.035741658951024E-01;8.363602746899428E-01;-1.791593545852282E-03;6.568827980848155E-04;
5.575575575575575E+07;4.012793648491318E-01;8.381714321723785E-01;-1.703959150436369E-03;6.415015816083128E-04;4.012793648491318E-01;8.381714321723785E-01;-1.703959150436369E-03;6.415015816083128E-04;
5.600600600600600E+07;3.988111567110697E-01;8.400081354056038E-01;-1.651312150180829E-03;5.494265625158597E-04;3.988111567110697E-01;8.400081354056038E-01;-1.651312150180829E-03;5.494265625158597E-04;
5.625625625625625E+07;3.960709677792268E-01;8.416645966304245E-01;-1.604879075922106E-03;5.250664871672041E-04;3.960709677792268E-01;8.416645966304245E-01;-1.604879075922106E-03;5.250664871672041E-04;
5.650650650650650E+07;3.937528749790397E-01;8.431853738543933E-01;-1.543429980589679E-03;4.995872691458506E-04;3.937528749790397E-01;8.431853738543933E-01;-1.543429980589679E-03;4.995872691458506E-04;
5.675675675675675E+07;3.908520824587199E-01;8.446311350402006E-01;-1.515066456830417E-03;4.489249128740198E-04;3.908520824587199E-01;8.446311350402006E-01;-1.515066456830417E-03;4.489249128740198E-04;
5.700700700700700E+07;3.879336808405529E-01;8.461054463817707E-01;-1.448949442313125E-03;4.194911351314768E-04;3.879336808405529E-01;8.461054463817707E-01;-1.448949442313125E-03;4.194911351314768E-04;
5.725725725725726E+07;3.849887072840111E-01;8.472434880057175E-01;-1.390870011943976E-03;4.264004864425949E-04;3.849887072840111E-01;8.472434880057175E-01;-1.390870011943976E-03;4.264004864425949E-04;
5.750750750750751E+07;3.816397738983565E-01;8.483325547046663E-01;-1.433803598301096E-03;3.251045218835284E-04;3.816397738983565E-01;8.483325547046663E-01;-1.433803598301096E-03;3.251045218835284E-04;
5.775775775775776E+07;3.784144346707646E-01;8.492300729404386E-01;-1.381849765353605E-03;3.436523278093906E-04;3.784144346707646E-01;8.492300729404386E-01;-1.381849765353605E-03;3.436523278093906E-04;
5.800800800800801E+07;3.753156331763384E-01;8.501213992489564E-01;-1.295186683570830E-03;2.954254583370613E-04;3.753156331763384E-01;8.501213992489564E-01;-1.295186683570830E-03;2.954254583370613E-04;
5.825825825825826E+07;3.718716751745839E-01;8.510908931466478E-01;-1.321098505411578E-03;2.450479181267776E-04;3.718716751745839E-01;8.510908931466478E-01;-1.321098505411578E-03;2.450479181267776E-04;
5.850850850850851E+07;3.682346404414140E-01;8.519883731255811E-01;-1.239750563095395E-03;2.456258904289353E-04;3.682346404414140E-01;8.519883731255811E-01;-1.239750563095395E-03;2.456258904289353E-04;
5.875875875875876E+07;3.647457909389654E-01;8.526281659185279E-01;-1.283134678079182E-03;1.586424641931940E-04;3.647457909389654E-01;8.526281659185279E-01;-1.283134678079182E-03;1.586424641931940E-04;
5.900900900900901E+07;3.610790838591732E-01;8.533955273010567E-01;-1.250505994631523E-03;1.270353473689264E-04;3.610790838591732E-01;8.533955273010567E-01;-1.250505994631523E-03;1.270353473689264E-04;
5.925925925925926E+07;3.571191618389264E-01;8.540773153804131E-01;-1.243036734460536E-03;1.266621540386044E-04;3.571191618389264E-01;8.540773153804131E-01;-1.243036734460536E-03;1.266621540386044E-04;
5.950950950950951E+07;3.532950922710283E-01;8.548949497357918E-01;-1.248749866016581E-03;1.047786236032354E-04;3.532950922710283E-01;8.548949497357918E-01;-1.248749866016581E-03;1.047786236032354E-04;
5.975975975975976E+07;3.494397047800736E-01;8.560009683231464E-01;-1.210401414510936E-03;1.325052709840266E-04;3.494397047800736E-01;8.560009683231464E-01;-1.210401414510936E-03;1.325052709840266E-04;
6.001001001001001E+07;3.455364448335877E-01;8.570239612370116E-01;-1.253148052343234E-03;4.130035613319015E-05;3.455364448335877E-01;8.570239612370116E-01;-1.253148052343234E-03;4.130035613319015E-05;
6.026026026026026E+07;3.417516593990316E-01;8.581982189104415E-01;-1.212801989569116E-03;7.286283112125193E-05;3.417516593990316E-01;8.581982189104415E-01;-1.212801989569116E-03;7.286283112125193E-05;
6.051051051051051E+07;3.383191887094290E-01;8.597689470455547E-01;-1.218403669527928E-03;4.016026541903718E-05;3.383191887094290E-01;8.597689470455547E-01;-1.218403669527928E-03;4.016026541903718E-05;
6.076076076076076E+07;3.347694805719700E-01;8.611037427636062E-01;-1.190012140387292E-03;1.127648794697413E-07;3.347694805719700E-01;8.611037427636062E-01;-1.190012140387292E-03;1.127648794697413E-07;
6.101101101101101E+07;3.318470377926794E-01;8.626417364689478E-01;-1.173601515400844E-03;3.833568669174975E-06;3.318470377926794E-01;8.626417364689478E-01;-1.173601515400844E-03;3.833568669174975E-06;
6.126126126126126E+07;3.288546023305541E-01;8.639564042006832E-01;-1.237900255250899E-03;-3.024412441814511E-05;3.288546023305541E-01;8.639564042006832E-01;-1.237900255250899E-03;-3.024412441814511E-05;
6.151151151151151E+07;3.260666739180242E-01;8.653515656724829E-01;-1.135257436443384E-03;-5.823478454272501E-05;3.260666739180242E-01;8.653515656724829E-01;-1.135257436443384E-03;-5.823478454272501E-05;
6.176176176176176E+07;3.234436160544586E-01;8.665751115766099E-01;-1.159438101424299E-03;-2.152356840010186E-06;3.234436160544586E-01;8.665751115766099E-01;-1.159438101424299E-03;-2.152356840010186E-06;
6.201201201201201E+07;3.208688617911300E-01;8.676143184373712E-01;-1.159283480986489E-03;-4.404164687109124E-05;3.208688617911300E-01;8.676143184373712E-01;-1.159283480986489E-03;-4.404164687109124E-05;
6.226226226226226E+07;3.182843732834884E-01;8.687633723181668E-01;-1.163116894074736E-03;-7.855907174696458E-05;3.182843732834884E-01;8.687633723181668E-01;-1.163116894074736E-03;-7.855907174696458E-05;
6.251251251251251E+07;3.158929834289914E-01;8.697895142590307E-01;-1.134213637203745E-03;-8.674773760914874E-05;3.158929834289914E-01;8.697895142590307E-01;-1.134213637203745E-03;-8.674773760914874E-05;
6.276276276276276E+07;3.137684894682441E-01;8.704063869746190E-01;-1.130673269920559E-03;-6.885305129306502E-05;3.137684894682441E-01;8.704063869746190E-01;-1.130673269920559E-03;-6.885305129306502E-05;
6.301301301301301E+07;3.115027452426502E-01;8.713561576287475E-01;-1.186795100176418E-03;-1.356576009615393E-04;3.115027452426502E-01;8.713561576287475E-01;-1.186795100176418E-03;-1.356576009615393E-04;
6.326326326326326E+07;3.093442681551529E-01;8.720878608240923E-01;-1.141180279342206E-03;-1.319638387665893E-04;3.093442681551529E-01;8.720878608240923E-01;-1.141180279342206E-03;-1.319638387665893E-04;
6.351351351351351E+07;3.073140249872711E-01;8.728618113094554E-01;-1.113325320484877E-03;-8.709984777728052E-05;3.073140249872711E-01;8.728618113094554E-01;-1.113325320484877E-03;-8.709984777728052E-05;
6.376376376376376E+07;3.053573056434584E-01;8.733422515696788E-01;-1.163176146506216E-03;-2.159524479227062E-04;3.053573056434584E-01;8.733422515696788E-01;-1.163176146506216E-03;-2.159524479227062E-04;
6.401401401401401E+07;3.034430734958161E-01;8.738585057099926E-01;-1.045330844499189E-03;-1.751445450789426E-04;3.034430734958161E-01;8.738585057099926E-01;-1.045330844499189E-03;-1.751445450789426E-04;
6.426426426426426E+07;3.016744856419437E-01;8.742801241385831E-01;-1.095376082797116E-03;-1.565378354836181E-04;3.016744856419437E-01;8.742801241385831E-01;-1.095376082797116E-03;-1.565378354836181E-04;
6.451451451451451E+07;2.999583759908840E-01;8.746814528415058E-01;-1.097301756304905E-03;-2.051452321627732E-04;2.999583759908840E-01;8.746814528415058E-01;-1.097301756304905E-03;-2.051452321627732E-04;
6.476476476476476E+07;2.982764848970367E-01;8.749994857863648E-01;-1.126871152375631E-03;-2.335070830723372E-04;2.982764848970367E-01;8.749994857863648E-01;-1.126871152375631E-03;-2.335070830723372E-04;
6.501501501501501E+07;2.967830318131006E-01;8.752035704101772E-01;-1.109442904917779E-03;-2.271639718228012E-04;2.967830318131006E-01;8.752035704101772E-01;-1.109442904917779E-03;-2.271639718228012E-04;
6.526526526526526E+07;2.951162600220767E-01;8.754402761353873E-01;-1.064820464435480E-03;-2.490534007724551E-04;2.951162600220767E-01;8.754402761353873E-01;-1.064820464435480E-03;-2.490534007724551E-04;
6.551551551551551E+07;2.938086471707027E-01;8.755481653496758E-01;-1.083178141949474E-03;-2.477634844296103E-04;2.938086471707027E-01;8.755481653496758E-01;-1.083178141949474E-03;-2.477634844296103E-04;
6.576576576576576E+07;2.944499816394907E-01;8.762388972656395E-01;-1.092804064020611E-03;-2.935006249558196E-04;2.944499816394907E-01;8.762388972656395E-01;-1.092804064020611E-03;-2.935006249558196E-04;
6.601601601601601E+07;2.931381718124827E-01;8.763161483835057E-01;-1.076541510721195E-03;-2.745988908145349E-04;2.931381718124827E-01;8.763161483835057E-01;-1.076541510721195E-03;-2.745988908145349E-04;
6.626626626626626E+07;2.917384375544144E-01;8.763425233359685E-01;-1.117594413099186E-03;-2.918239159619697E-04;2.917384375544144E-01;8.763425233359685E-01;-1.117594413099186E-03;-2.918239159619697E-04;
6.651651651651651E+07;2.902232516295574E-01;8.764838462370592E-01;-1.069165874992307E-03;-3.038239000326250E-04;2.902232516295574E-01;8.764838462370592E-01;-1.069165874992307E-03;-3.038239000326250E-04;
6.676676676676676E+07;2.885745156462005E-01;8.765575241122925E-01;-1.088287652426857E-03;-3.337745531131781E-04;2.885745156462005E-01;8.765575241122925E-01;-1.088287652426857E-03;-3.337745531131781E-04;
6.701701701701702E+07;2.884283440779022E-01;8.759552123237778E-01;-1.037751166758574E-03;-3.778957648649926E-04;2.884283440779022E-01;8.759552123237778E-01;-1.037751166758574E-03;-3.778957648649926E-04;
6.726726726726727E+07;2.869697592790990E-01;8.760839720552458E-01;-1.016503076349777E-03;-3.396763834500021E-04;2.869697592790990E-01;8.760839720552458E-01;-1.016503076349777E-03;-3.396763834500021E-04;
6.751751751751752E+07;2.856544463550493E-01;8.763631292628192E-01;-1.075122245594947E-03;-3.857385217805465E-04;2.856544463550493E-01;8.763631292628192E-01;-1.075122245594947E-03;-3.857385217805465E-04;
6.776776776776777E+07;2.843342257666381E-01;8.766318097745011E-01;-1.079651574025086E-03;-4.262134668729673E-04;2.843342257666381E-01;8.766318097745011E-01;-1.079651574025086E-03;-4.262134668729673E-04;
6.801801801801802E+07;2.830165578493449E-01;8.768635316719550E-01;-1.079914892332630E-03;-4.148204858769740E-04;2.830165578493449E-01;8.768635316719550E-01;-1.079914892332630E-03;-4.148204858769740E-04;
6.826826826826827E+07;2.816784744835150E-01;8.772165198023498E-01;-1.061394461105148E-03;-4.192136013721729E-04;2.816784744835150E-01;8.772165198023498E-01;-1.061394461105148E-03;-4.192136013721729E-04;
6.851851851851852E+07;2.809290864188980E-01;8.772164487107085E-01;-1.074490149261502E-03;-4.586486679024483E-04;2.809290864188980E-01;8.772164487107085E-01;-1.074490149261502E-03;-4.586486679024483E-04;
6.876876876876877E+07;2.812304319897862E-01;8.761468981768360E-01;-1.052438308433409E-03;-4.547274997213219E-04;2.812304319897862E-01;8.761468981768360E-01;-1.052438308433409E-03;-4.547274997213219E-04;
6.901901901901902E+07;2.814861360255936E-01;8.752240346196520E-01;-1.069695508100153E-03;-4.818353847705619E-04;2.814861360255936E-01;8.752240346196520E-01;-1.069695508100153E-03;-4.818353847705619E-04;
6.926926926926927E+07;2.823210053846102E-01;8.741456913351047E-01;-1.066339203992810E-03;-5.113236520770438E-04;2.823210053846102E-01;8.741456913351047E-01;-1.066339203992810E-03;-5.113236520770438E-04;
6.951951951951952E+07;2.833465227928859E-01;8.729336353578980E-01;-1.046958972849768E-03;-5.452576605191387E-04;2.833465227928859E-01;8.729336353578980E-01;-1.046958972849768E-03;-5.452576605191387E-04;
6.976976976976977E+07;2.844462687982787E-01;8.716810249725889E-01;-1.050659653910791E-03;-5.752941885465863E-04;2.844462687982787E-01;8.716810249725889E-01;-1.050659653910791E-03;-5.752941885465863E-04;
7.002002002002002E+07;2.852780091606138E-01;8.703669984853204E-01;-1.038339919503300E-03;-5.611559640115116E-04;2.852780091606138E-01;8.703669984853204E-01;-1.038339919503300E-03;-5.611559640115116E-04;
7.027027027027027E+07;2.859050794430897E-01;8.693342417303326E-01;-1.060144687201804E-03;-6.195042160808460E-04;2.859050794430897E-01;8.693342417303326E-01;-1.060144687201804E-03;-6.195042160808460E-04;
7.052052052052052E+07;2.863582540261808E-01;8.683294072158166E-01;-1.070965176075053E-03;-6.311809076655547E-04;2.863582540261808E-01;8.683294072158166E-01;-1.070965176075053E-03;-6.311809076655547E-04;
7.077077077077077E+07;2.867307077071810E-01;8.674565622087488E-01;-1.061755763221465E-03;-6.451962775007105E-04;2.867307077071810E-01;8.674565622087488E-01;-1.061755763221465E-03;-6.451962775007105E-04;
7.102102102102102E+07;2.870336273755386E-01;8.665882402279963E-01;-1.044770094427899E-03;-6.784624578150523E-04;2.870336273755386E-01;8.665882402279963E-01;-1.044770094427899E-03;-6.784624578150523E-04;
7.127127127127127E+07;2.873995725654869E-01;8.657105577232134E-01;-1.011703450669521E-03;-6.867491108060580E-04;2.873995725654869E-01;8.657105577232134E-01;-1.011703450669521E-03;-6.867491108060580E-04;
7.152152152152152E+07;2.876601990351730E-01;8.646899948874976E-01;-1.055178989304947E-03;-7.333990174180080E-04;2.876601990351730E-01;8.646899948874976E-01;-1.055178989304947E-03;-7.333990174180080E-04;
7.177177177177177E+07;2.876988708892586E-01;8.637125345677906E-01;-1.021217745754088E-03;-7.156586054224637E-04;2.876988708892586E-01;8.637125345677906E-01;-1.021217745754088E-03;-7.156586054224637E-04;
7.202202202202202E+07;2.876318762802406E-01;8.630495568018298E-01;-1.081730616356387E-03;-7.579393720852753E-04;2.876318762802406E-01;8.630495568018298E-01;-1.081730616356387E-03;-7.579393720852753E-04;
7.227227227227227E+07;2.879475323929159E-01;8.621037162963001E-01;-1.059586104483807E-03;-8.048786021552989E-04;2.879475323929159E-01;8.621037162963001E-01;-1.059586104483807E-03;-8.048786021552989E-04;
7.252252252252252E+07;2.884280955040636E-01;8.611444951401154E-01;-1.050739444698073E-03;-7.783767397684755E-04;2.884280955040636E-01;8.611444951401154E-01;-1.050739444698073E-03;-7.783767397684755E-04;
7.277277277277277E+07;2.893063741246888E-01;8.598437549293215E-01;-1.095881730325719E-03;-8.426808325415401E-04;2.893063741246888E-01;8.598437549293215E-01;-1.095881730325719E-03;-8.426808325415401E-04;
7.302302302302302E+07;2.906741025201272E-01;8.583098735095335E-01;-1.076215248679772E-03;-8.692628516951657E-04;2.906741025201272E-01;8.583098735095335E-01;-1.076215248679772E-03;-8.692628516951657E-04;
7.327327327327327E+07;2.923360812376881E-01;8.569027868744938E-01;-1.040891131753178E-03;-8.819529973000031E-04;2.923360812376881E-01;8.569027868744938E-01;-1.040891131753178E-03;-8.819529973000031E-04;
7.352352352352352E+07;2.944759841519732E-01;8.551666303753787E-01;-1.099253119080620E-03;-9.493709528931466E-04;2.944759841519732E-01;8.551666303753787E-01;-1.099253119080620E-03;-9.493709528931466E-04;
7.377377377377377E+07;2.969629353877284E-01;8.536066549339901E-01;-1.073642140149461E-03;-1.007170524426022E-03;2.969629353877284E-01;8.536066549339901E-01;-1.073642140149461E-03;-1.007170524426022E-03;
7.402402402402402E+07;2.988706929530326E-01;8.519631520118401E-01;-1.117235234664673E-03;-1.028028165900285E-03;2.988706929530326E-01;8.519631520118401E-01;-1.117235234664673E-03;-1.028028165900285E-03;
