# Version 1.00
#
# Ref Impedances: Z01: 50, Z02: 50
# 
freq[Hz];re:ZMag1_S12;im:ZMag1_S12;re:SMag1_S11;im:SMag1_S11;re:ZPh1_S12;im:ZPh1_S12;re:SPh1_S11;im:SPh1_S11;
5.000000000000000E+07;-1.623962616522387E-03;-7.557844207205863E-03;5.749153475985020E-01;6.327073703157494E-01;-1.623962616522387E-03;-7.557844207205863E-03;5.749153475985020E-01;6.327073703157494E-01;
5.025025025025025E+07;-2.954153932227229E-03;-7.704166078994408E-03;5.528023959577839E-01;6.150277830333591E-01;-2.954153932227229E-03;-7.704166078994408E-03;5.528023959577839E-01;6.150277830333591E-01;
5.050050050050050E+07;-4.416923926139186E-03;-7.432809190995746E-03;5.210452238324218E-01;6.020173599571611E-01;-4.416923926139186E-03;-7.432809190995746E-03;5.210452238324218E-01;6.020173599571611E-01;
5.075075075075075E+07;-5.833101062021378E-03;-6.603802281975731E-03;4.822795217736091E-01;5.996425312623176E-01;-5.833101062021378E-03;-6.603802281975731E-03;4.822795217736091E-01;5.996425312623176E-01;
5.100100100100100E+07;-6.891932545545259E-03;-5.330257067711289E-03;4.424339546518223E-01;6.114121190357176E-01;-6.891932545545259E-03;-5.330257067711289E-03;4.424339546518223E-01;6.114121190357176E-01;
5.125125125125125E+07;-7.341587688691521E-03;-3.845754456772365E-03;4.091557473091544E-01;6.352617178769256E-01;-7.341587688691521E-03;-3.845754456772365E-03;4.091557473091544E-01;6.352617178769256E-01;
5.150150150150150E+07;-7.299398302297818E-03;-2.425568241757100E-03;3.865355732671856E-01;6.671251799080514E-01;-7.299398302297818E-03;-2.425568241757100E-03;3.865355732671856E-01;6.671251799080514E-01;
5.175175175175175E+07;-6.899962150857834E-03;-1.313226714863018E-03;3.736526861230055E-01;6.964050514633716E-01;-6.899962150857834E-03;-1.313226714863018E-03;3.736526861230055E-01;6.964050514633716E-01;
5.200200200200200E+07;-6.324752276305240E-03;-4.504861761979321E-04;3.692775078074584E-01;7.235741091002522E-01;-6.324752276305240E-03;-4.504861761979321E-04;3.692775078074584E-01;7.235741091002522E-01;
5.225225225225225E+07;-5.729730676681625E-03;1.168888058598971E-04;3.695225248257239E-01;7.462237445406233E-01;-5.729730676681625E-03;1.168888058598971E-04;3.695225248257239E-01;7.462237445406233E-01;
5.250250250250250E+07;-5.120773565191128E-03;4.765844810318230E-04;3.728938173421126E-01;7.637002116238034E-01;-5.120773565191128E-03;4.765844810318230E-04;3.728938173421126E-01;7.637002116238034E-01;
5.275275275275275E+07;-4.591806889384808E-03;6.934646173621603E-04;3.755763109049026E-01;7.780177716279782E-01;-4.591806889384808E-03;6.934646173621603E-04;3.755763109049026E-01;7.780177716279782E-01;
5.300300300300300E+07;-4.153917723398498E-03;8.128171303784287E-04;3.787511528497117E-01;7.888900759162978E-01;-4.153917723398498E-03;8.128171303784287E-04;3.787511528497117E-01;7.888900759162978E-01;
5.325325325325325E+07;-3.758146806342233E-03;8.571913545623907E-04;3.817572391081480E-01;7.972425934572609E-01;-3.758146806342233E-03;8.571913545623907E-04;3.817572391081480E-01;7.972425934572609E-01;
5.350350350350350E+07;-3.430684549668134E-03;8.497560605463999E-04;3.838784165700659E-01;8.039145769168428E-01;-3.430684549668134E-03;8.497560605463999E-04;3.838784165700659E-01;8.039145769168428E-01;
5.375375375375375E+07;-3.169030512533077E-03;8.532883389415620E-04;3.851747378631882E-01;8.095627107640725E-01;-3.169030512533077E-03;8.532883389415620E-04;3.851747378631882E-01;8.095627107640725E-01;
5.400400400400400E+07;-2.926177161196814E-03;8.296455583419887E-04;3.857674908195650E-01;8.142900121048169E-01;-2.926177161196814E-03;8.296455583419887E-04;3.857674908195650E-01;8.142900121048169E-01;
5.425425425425425E+07;-2.723875393424335E-03;8.024282818189272E-04;3.858479535964229E-01;8.183514795815801E-01;-2.723875393424335E-03;8.024282818189272E-04;3.858479535964229E-01;8.183514795815801E-01;
5.450450450450450E+07;-2.558620736860085E-03;7.678094708373518E-04;3.854271555905719E-01;8.220054494421988E-01;-2.558620736860085E-03;7.678094708373518E-04;3.854271555905719E-01;8.220054494421988E-01;
5.475475475475475E+07;-2.397866716170165E-03;7.262802317325035E-04;3.846281870475654E-01;8.254055034960520E-01;-2.397866716170165E-03;7.262802317325035E-04;3.846281870475654E-01;8.254055034960520E-01;
5.500500500500500E+07;-2.280771849012333E-03;6.757633112812964E-04;3.835264349387469E-01;8.284072843081906E-01;-2.280771849012333E-03;6.757633112812964E-04;3.835264349387469E-01;8.284072843081906E-01;
5.525525525525525E+07;-2.163441468088577E-03;6.587495477502392E-04;3.823964544179189E-01;8.311573837584320E-01;-2.163441468088577E-03;6.587495477502392E-04;3.823964544179189E-01;8.311573837584320E-01;
5.550550550550550E+07;-2.038491969175802E-03;6.111422489661482E-04;3.808544699157075E-01;8.336608922673874E-01;-2.038491969175802E-03;6.111422489661482E-04;3.808544699157075E-01;8.336608922673874E-01;
5.575575575575575E+07;-1.948327172885939E-03;5.610577671263209E-04;3.791915838319954E-01;8.358598036598776E-01;-1.948327172885939E-03;5.610577671263209E-04;3.791915838319954E-01;8.358598036598776E-01;
5.600600600600600E+07;-1.887897371785816E-03;5.337914596189614E-04;3.771223403209760E-01;8.379557483276472E-01;-1.887897371785816E-03;5.337914596189614E-04;3.771223403209760E-01;8.379557483276472E-01;
5.625625625625625E+07;-1.789309517017009E-03;4.882742513643092E-04;3.750058095064336E-01;8.396394798512424E-01;-1.789309517017009E-03;4.882742513643092E-04;3.750058095064336E-01;8.396394798512424E-01;
5.650650650650650E+07;-1.741685891454958E-03;4.567572502340174E-04;3.728318884311028E-01;8.413470666728174E-01;-1.741685891454958E-03;4.567572502340174E-04;3.728318884311028E-01;8.413470666728174E-01;
5.675675675675675E+07;-1.662496719038073E-03;4.139391377265030E-04;3.702001483755241E-01;8.426791201552126E-01;-1.662496719038073E-03;4.139391377265030E-04;3.702001483755241E-01;8.426791201552126E-01;
5.700700700700700E+07;-1.612035711679893E-03;3.786398455517550E-04;3.677292756120674E-01;8.440781265165012E-01;-1.612035711679893E-03;3.786398455517550E-04;3.677292756120674E-01;8.440781265165012E-01;
5.725725725725726E+07;-1.583035545184057E-03;3.317344642536550E-04;3.648644777206892E-01;8.450623329933784E-01;-1.583035545184057E-03;3.317344642536550E-04;3.648644777206892E-01;8.450623329933784E-01;
5.750750750750751E+07;-1.536905065998571E-03;2.934272083136921E-04;3.618362046220483E-01;8.461301213857230E-01;-1.536905065998571E-03;2.934272083136921E-04;3.618362046220483E-01;8.461301213857230E-01;
5.775775775775776E+07;-1.491479513043849E-03;2.559466617591839E-04;3.588273797862804E-01;8.473126265191574E-01;-1.491479513043849E-03;2.559466617591839E-04;3.588273797862804E-01;8.473126265191574E-01;
5.800800800800801E+07;-1.450739878108383E-03;2.125499734643869E-04;3.614094084944543E-01;8.454590360390016E-01;-1.450739878108383E-03;2.125499734643869E-04;3.614094084944543E-01;8.454590360390016E-01;
5.825825825825826E+07;-1.431251667244660E-03;1.866545585082008E-04;3.582105987863424E-01;8.462321876663575E-01;-1.431251667244660E-03;1.866545585082008E-04;3.582105987863424E-01;8.462321876663575E-01;
5.850850850850851E+07;-1.406153455254653E-03;1.573827987423849E-04;3.548462402967206E-01;8.468041122887080E-01;-1.406153455254653E-03;1.573827987423849E-04;3.548462402967206E-01;8.468041122887080E-01;
5.875875875875876E+07;-1.379329604802662E-03;1.098165249627914E-04;3.513708517025279E-01;8.473399975662843E-01;-1.379329604802662E-03;1.098165249627914E-04;3.513708517025279E-01;8.473399975662843E-01;
5.900900900900901E+07;-1.356742283547548E-03;9.309931879738039E-05;3.476690486250273E-01;8.478994499125190E-01;-1.356742283547548E-03;9.309931879738039E-05;3.476690486250273E-01;8.478994499125190E-01;
5.925925925925926E+07;-1.329194886815240E-03;5.465455356797059E-05;3.437152313624513E-01;8.483401127953570E-01;-1.329194886815240E-03;5.465455356797059E-05;3.437152313624513E-01;8.483401127953570E-01;
5.950950950950951E+07;-1.329583578838215E-03;4.773070604046833E-05;3.396158055179203E-01;8.490576606117716E-01;-1.329583578838215E-03;4.773070604046833E-05;3.396158055179203E-01;8.490576606117716E-01;
5.975975975975976E+07;-1.319581379689818E-03;-4.826006392353559E-06;3.354105625559123E-01;8.497829219710342E-01;-1.319581379689818E-03;-4.826006392353559E-06;3.354105625559123E-01;8.497829219710342E-01;
6.001001001001001E+07;-1.297994375773301E-03;-2.150809823450578E-05;3.311212076236646E-01;8.508072505386690E-01;-1.297994375773301E-03;-2.150809823450578E-05;3.311212076236646E-01;8.508072505386690E-01;
6.026026026026026E+07;-1.296148120405302E-03;-4.337129704338035E-05;3.269587087491368E-01;8.523125687475112E-01;-1.296148120405302E-03;-4.337129704338035E-05;3.269587087491368E-01;8.523125687475112E-01;
6.051051051051051E+07;-1.294421754748945E-03;-4.989193222016241E-05;3.229927239603428E-01;8.539058915772016E-01;-1.294421754748945E-03;-4.989193222016241E-05;3.229927239603428E-01;8.539058915772016E-01;
6.076076076076076E+07;-1.298442061564133E-03;-6.877914606318255E-05;3.191712753806660E-01;8.555758483537672E-01;-1.298442061564133E-03;-6.877914606318255E-05;3.191712753806660E-01;8.555758483537672E-01;
6.101101101101101E+07;-1.310178847665862E-03;-6.350762103651064E-05;3.158880576758487E-01;8.574192324927300E-01;-1.310178847665862E-03;-6.350762103651064E-05;3.158880576758487E-01;8.574192324927300E-01;
6.126126126126126E+07;-1.269029952783278E-03;-8.047357142412358E-05;3.127164791550584E-01;8.591156235093952E-01;-1.269029952783278E-03;-8.047357142412358E-05;3.127164791550584E-01;8.591156235093952E-01;
6.151151151151151E+07;-1.272991262073636E-03;-9.374189733241533E-05;3.096215084561756E-01;8.610016918898133E-01;-1.272991262073636E-03;-9.374189733241533E-05;3.096215084561756E-01;8.610016918898133E-01;
6.176176176176176E+07;-1.279879022056335E-03;-1.057506316226911E-04;3.069412260774830E-01;8.624661257001930E-01;-1.279879022056335E-03;-1.057506316226911E-04;3.069412260774830E-01;8.624661257001930E-01;
6.201201201201201E+07;-1.247033248561050E-03;-1.296854049287373E-04;3.043269465228998E-01;8.638905909683583E-01;-1.247033248561050E-03;-1.296854049287373E-04;3.043269465228998E-01;8.638905909683583E-01;
6.226226226226226E+07;-1.244653323883935E-03;-1.234468818905996E-04;3.019049756938617E-01;8.650965685543249E-01;-1.244653323883935E-03;-1.234468818905996E-04;3.019049756938617E-01;8.650965685543249E-01;
6.251251251251251E+07;-1.230823041222348E-03;-1.170832521499056E-04;2.996128526745827E-01;8.662734403528221E-01;-1.230823041222348E-03;-1.170832521499056E-04;2.996128526745827E-01;8.662734403528221E-01;
6.276276276276276E+07;-1.249041882578554E-03;-1.554899664148615E-04;2.972806426670504E-01;8.673272334955278E-01;-1.249041882578554E-03;-1.554899664148615E-04;2.972806426670504E-01;8.673272334955278E-01;
6.301301301301301E+07;-1.208942025418872E-03;-1.838960121820304E-04;2.950447432338628E-01;8.682287418512260E-01;-1.208942025418872E-03;-1.838960121820304E-04;2.950447432338628E-01;8.682287418512260E-01;
6.326326326326326E+07;-1.205607225617031E-03;-1.770336755032590E-04;2.929031006705885E-01;8.691054651991864E-01;-1.205607225617031E-03;-1.770336755032590E-04;2.929031006705885E-01;8.691054651991864E-01;
6.351351351351351E+07;-1.201212096119419E-03;-1.807763485815868E-04;2.905683552136099E-01;8.699640365473441E-01;-1.201212096119419E-03;-1.807763485815868E-04;2.905683552136099E-01;8.699640365473441E-01;
6.376376376376376E+07;-1.182044505753648E-03;-2.101682279228192E-04;2.885347998027366E-01;8.707344686426386E-01;-1.182044505753648E-03;-2.101682279228192E-04;2.885347998027366E-01;8.707344686426386E-01;
6.401401401401401E+07;-1.168445281697060E-03;-2.432328215581636E-04;2.865642106153116E-01;8.714990742570069E-01;-1.168445281697060E-03;-2.432328215581636E-04;2.865642106153116E-01;8.714990742570069E-01;
6.426426426426426E+07;-1.161627951279357E-03;-2.311540351091690E-04;2.846538064153630E-01;8.720903904640790E-01;-1.161627951279357E-03;-2.311540351091690E-04;2.846538064153630E-01;8.720903904640790E-01;
6.451451451451451E+07;-1.158564483967427E-03;-2.491141533084322E-04;2.828526777895130E-01;8.727307539796373E-01;-1.158564483967427E-03;-2.491141533084322E-04;2.828526777895130E-01;8.727307539796373E-01;
6.476476476476476E+07;-1.140072047910894E-03;-2.660656379611816E-04;2.812243946301263E-01;8.731393495208433E-01;-1.140072047910894E-03;-2.660656379611816E-04;2.812243946301263E-01;8.731393495208433E-01;
6.501501501501501E+07;-1.155763350614903E-03;-2.716441422783670E-04;2.794710267822773E-01;8.735788007318966E-01;-1.155763350614903E-03;-2.716441422783670E-04;2.794710267822773E-01;8.735788007318966E-01;
6.526526526526526E+07;-1.144125401170321E-03;-2.869607979432834E-04;2.779477835232341E-01;8.739459609583446E-01;-1.144125401170321E-03;-2.869607979432834E-04;2.779477835232341E-01;8.739459609583446E-01;
6.551551551551551E+07;-1.139481575945842E-03;-3.016481451999806E-04;2.764363547169398E-01;8.742621582141052E-01;-1.139481575945842E-03;-3.016481451999806E-04;2.764363547169398E-01;8.742621582141052E-01;
6.576576576576576E+07;-1.127742698469531E-03;-3.107914788728499E-04;2.668919000319303E-01;8.775269135626119E-01;-1.127742698469531E-03;-3.107914788728499E-04;2.668919000319303E-01;8.775269135626119E-01;
6.601601601601601E+07;-1.116605008338823E-03;-3.230323781094463E-04;2.654348814885779E-01;8.776032567407859E-01;-1.116605008338823E-03;-3.230323781094463E-04;2.654348814885779E-01;8.776032567407859E-01;
6.626626626626626E+07;-1.105193014771191E-03;-3.363780317191174E-04;2.639002683909922E-01;8.777981856129778E-01;-1.105193014771191E-03;-3.363780317191174E-04;2.639002683909922E-01;8.777981856129778E-01;
6.651651651651651E+07;-1.103426642203896E-03;-3.701146566623011E-04;2.621124988429125E-01;8.780475882718601E-01;-1.103426642203896E-03;-3.701146566623011E-04;2.621124988429125E-01;8.780475882718601E-01;
6.676676676676676E+07;-1.086949170290817E-03;-3.705623549417248E-04;2.603218805892100E-01;8.783722189133246E-01;-1.086949170290817E-03;-3.705623549417248E-04;2.603218805892100E-01;8.783722189133246E-01;
6.701701701701702E+07;-1.108930493419998E-03;-4.075887766349699E-04;2.597881203815774E-01;8.780353474492718E-01;-1.108930493419998E-03;-4.075887766349699E-04;2.597881203815774E-01;8.780353474492718E-01;
6.726726726726727E+07;-1.099781803128695E-03;-4.120439643954395E-04;2.581920757944771E-01;8.782929904556551E-01;-1.099781803128695E-03;-4.120439643954395E-04;2.581920757944771E-01;8.782929904556551E-01;
6.751751751751752E+07;-1.091782265416706E-03;-4.258168624735182E-04;2.566220310247628E-01;8.786563598017335E-01;-1.091782265416706E-03;-4.258168624735182E-04;2.566220310247628E-01;8.786563598017335E-01;
6.776776776776777E+07;-1.077917368806505E-03;-4.411728760134256E-04;2.549614157876891E-01;8.790978615731848E-01;-1.077917368806505E-03;-4.411728760134256E-04;2.549614157876891E-01;8.790978615731848E-01;
6.801801801801802E+07;-1.081848258951424E-03;-4.539374564148605E-04;2.532831385985814E-01;8.796037703219219E-01;-1.081848258951424E-03;-4.539374564148605E-04;2.532831385985814E-01;8.796037703219219E-01;
6.826826826826827E+07;-1.065250469350122E-03;-4.703424960955059E-04;2.516951393904540E-01;8.799938369366915E-01;-1.065250469350122E-03;-4.703424960955059E-04;2.516951393904540E-01;8.799938369366915E-01;
6.851851851851852E+07;-1.075357879379356E-03;-4.821324796096843E-04;2.504431661109047E-01;8.802449806032184E-01;-1.075357879379356E-03;-4.821324796096843E-04;2.504431661109047E-01;8.802449806032184E-01;
6.876876876876877E+07;-1.051925555753790E-03;-5.001334159727664E-04;2.541666278379229E-01;8.795603649701844E-01;-1.051925555753790E-03;-5.001334159727664E-04;2.541666278379229E-01;8.795603649701844E-01;
6.901901901901902E+07;-1.069465804452359E-03;-5.414309754662271E-04;2.540616240533277E-01;8.790466611020061E-01;-1.069465804452359E-03;-5.414309754662271E-04;2.540616240533277E-01;8.790466611020061E-01;
6.926926926926927E+07;-1.036429467625541E-03;-5.573298923920710E-04;2.546254292471421E-01;8.782349903180730E-01;-1.036429467625541E-03;-5.573298923920710E-04;2.546254292471421E-01;8.782349903180730E-01;
6.951951951951952E+07;-1.039793061100634E-03;-5.818780484093953E-04;2.552914525183353E-01;8.773720866418148E-01;-1.039793061100634E-03;-5.818780484093953E-04;2.552914525183353E-01;8.773720866418148E-01;
6.976976976976977E+07;-1.043896263638416E-03;-6.055610969655979E-04;2.560531091236276E-01;8.763748539403055E-01;-1.043896263638416E-03;-6.055610969655979E-04;2.560531091236276E-01;8.763748539403055E-01;
7.002002002002002E+07;-1.039415721209852E-03;-6.124020664881656E-04;2.565435577196601E-01;8.753715899222313E-01;-1.039415721209852E-03;-6.124020664881656E-04;2.565435577196601E-01;8.753715899222313E-01;
7.027027027027027E+07;-1.030487973371009E-03;-6.422599398852460E-04;2.566447394590342E-01;8.746293454377936E-01;-1.030487973371009E-03;-6.422599398852460E-04;2.566447394590342E-01;8.746293454377936E-01;
7.052052052052052E+07;-1.011020032724853E-03;-6.538447550148713E-04;2.565998358512863E-01;8.739946142207906E-01;-1.011020032724853E-03;-6.538447550148713E-04;2.565998358512863E-01;8.739946142207906E-01;
7.077077077077077E+07;-1.021855448884528E-03;-6.806501794321064E-04;2.566081204742979E-01;8.733158899045702E-01;-1.021855448884528E-03;-6.806501794321064E-04;2.566081204742979E-01;8.733158899045702E-01;
7.102102102102102E+07;-1.009060072871004E-03;-7.002867812950564E-04;2.564155952449471E-01;8.726765218726011E-01;-1.009060072871004E-03;-7.002867812950564E-04;2.564155952449471E-01;8.726765218726011E-01;
7.127127127127127E+07;-1.005349195635908E-03;-7.154263378804263E-04;2.563036220174305E-01;8.720243363277713E-01;-1.005349195635908E-03;-7.154263378804263E-04;2.563036220174305E-01;8.720243363277713E-01;
7.152152152152152E+07;-1.010893062215837E-03;-7.359978074663681E-04;2.560503654798681E-01;8.713474466148319E-01;-1.010893062215837E-03;-7.359978074663681E-04;2.560503654798681E-01;8.713474466148319E-01;
7.177177177177177E+07;-1.011872564633163E-03;-7.639386173898509E-04;2.555585215137854E-01;8.708160600206353E-01;-1.011872564633163E-03;-7.639386173898509E-04;2.555585215137854E-01;8.708160600206353E-01;
7.202202202202202E+07;-1.011017812023541E-03;-7.901243060946233E-04;2.547896845436419E-01;8.703380386473704E-01;-1.011017812023541E-03;-7.901243060946233E-04;2.547896845436419E-01;8.703380386473704E-01;
7.227227227227227E+07;-9.957917606654312E-04;-8.200771675409227E-04;2.543442142527840E-01;8.696079240312399E-01;-9.957917606654312E-04;-8.200771675409227E-04;2.543442142527840E-01;8.696079240312399E-01;
7.252252252252252E+07;-9.935918082106334E-04;-8.380842991981218E-04;2.540269220225196E-01;8.689509716508433E-01;-9.935918082106334E-04;-8.380842991981218E-04;2.540269220225196E-01;8.689509716508433E-01;
7.277277277277277E+07;-9.924372508404410E-04;-8.597062022201615E-04;2.543207916726525E-01;8.681619347641986E-01;-9.924372508404410E-04;-8.597062022201615E-04;2.543207916726525E-01;8.681619347641986E-01;
7.302302302302302E+07;-9.927628244933220E-04;-8.932206434881416E-04;2.547772027896651E-01;8.670540909226832E-01;-9.927628244933220E-04;-8.932206434881416E-04;2.547772027896651E-01;8.670540909226832E-01;
7.327327327327327E+07;-9.884862979011883E-04;-9.309299422482510E-04;2.557543600145327E-01;8.659158513546389E-01;-9.884862979011883E-04;-9.309299422482510E-04;2.557543600145327E-01;8.659158513546389E-01;
7.352352352352352E+07;-9.892734788776174E-04;-9.548291154388131E-04;2.569474095116471E-01;8.648065674107701E-01;-9.892734788776174E-04;-9.548291154388131E-04;2.569474095116471E-01;8.648065674107701E-01;
7.377377377377377E+07;-9.778137171478208E-04;-9.932918920675556E-04;2.582345750868440E-01;8.637624431034864E-01;-9.778137171478208E-04;-9.932918920675556E-04;2.582345750868440E-01;8.637624431034864E-01;
7.402402402402402E+07;-9.752392691040790E-04;-1.005790074175937E-03;2.594856668246826E-01;8.627951689762445E-01;-9.752392691040790E-04;-1.005790074175937E-03;2.594856668246826E-01;8.627951689762445E-01;
