# Version 1.00
#
# Ref Impedances: Z01: 50, Z02: 50
# 
freq[Hz];re:ZMag1_S12;im:ZMag1_S12;re:SMag1_S11;im:SMag1_S11;re:ZPh1_S12;im:ZPh1_S12;re:SPh1_S11;im:SPh1_S11;
5.000000000000000E+07;-2.789982532708621E-03;-8.287713451627737E-03;5.533489666976642E-01;6.264580184436317E-01;-2.789982532708621E-03;-8.287713451627737E-03;5.533489666976642E-01;6.264580184436317E-01;
5.025025025025025E+07;-4.687694204437715E-03;-8.194262907290632E-03;5.194101534090502E-01;6.133355511422939E-01;-4.687694204437715E-03;-8.194262907290632E-03;5.194101534090502E-01;6.133355511422939E-01;
5.050050050050050E+07;-6.603413220659163E-03;-7.251857158587096E-03;4.772266167187020E-01;6.139819554288197E-01;-6.603413220659163E-03;-7.251857158587096E-03;4.772266167187020E-01;6.139819554288197E-01;
5.075075075075075E+07;-7.969516760111163E-03;-5.376878969431957E-03;4.364102215414827E-01;6.328454051651258E-01;-7.969516760111163E-03;-5.376878969431957E-03;4.364102215414827E-01;6.328454051651258E-01;
5.100100100100100E+07;-8.429436911523558E-03;-3.380595277436296E-03;4.075732976136605E-01;6.638953248150521E-01;-8.429436911523558E-03;-3.380595277436296E-03;4.075732976136605E-01;6.638953248150521E-01;
5.125125125125125E+07;-8.074537517983049E-03;-1.611531023786838E-03;3.928661878842369E-01;6.974846963235526E-01;-8.074537517983049E-03;-1.611531023786838E-03;3.928661878842369E-01;6.974846963235526E-01;
5.150150150150150E+07;-7.288876956843026E-03;-3.597435957267491E-04;3.884611285155245E-01;7.264772167880684E-01;-7.288876956843026E-03;-3.597435957267491E-04;3.884611285155245E-01;7.264772167880684E-01;
5.175175175175175E+07;-6.425980292436937E-03;4.098286289475749E-04;3.894911229374971E-01;7.496601646317151E-01;-6.425980292436937E-03;4.098286289475749E-04;3.894911229374971E-01;7.496601646317151E-01;
5.200200200200200E+07;-5.611762261541465E-03;8.649461693825711E-04;3.925540114828608E-01;7.671749773335280E-01;-5.611762261541465E-03;8.649461693825711E-04;3.925540114828608E-01;7.671749773335280E-01;
5.225225225225225E+07;-4.927766698667730E-03;1.078739123528676E-03;3.963348524750903E-01;7.804909299793216E-01;-4.927766698667730E-03;1.078739123528676E-03;3.963348524750903E-01;7.804909299793216E-01;
5.250250250250250E+07;-4.352582838859249E-03;1.194020395840083E-03;3.996613823282789E-01;7.906842376546257E-01;-4.352582838859249E-03;1.194020395840083E-03;3.996613823282789E-01;7.906842376546257E-01;
5.275275275275275E+07;-3.879236358974573E-03;1.211723114216502E-03;4.022793421678328E-01;7.986380278702720E-01;-3.879236358974573E-03;1.211723114216502E-03;4.022793421678328E-01;7.986380278702720E-01;
5.300300300300300E+07;-3.508549813634106E-03;1.210644107085616E-03;4.041477874478721E-01;8.051700740387109E-01;-3.508549813634106E-03;1.210644107085616E-03;4.041477874478721E-01;8.051700740387109E-01;
5.325325325325325E+07;-3.187548338056009E-03;1.190144372105730E-03;4.054405145203916E-01;8.105745306778802E-01;-3.187548338056009E-03;1.190144372105730E-03;4.054405145203916E-01;8.105745306778802E-01;
5.350350350350350E+07;-2.900527305632627E-03;1.127631774203970E-03;4.060194402706035E-01;8.148569740507677E-01;-2.900527305632627E-03;1.127631774203970E-03;4.060194402706035E-01;8.148569740507677E-01;
5.375375375375375E+07;-2.715961684176431E-03;1.059744183804302E-03;4.056892570239576E-01;8.186390356570195E-01;-2.715961684176431E-03;1.059744183804302E-03;4.056892570239576E-01;8.186390356570195E-01;
5.400400400400400E+07;-2.508916918328131E-03;1.018735592579542E-03;4.051963602170768E-01;8.222094668080037E-01;-2.508916918328131E-03;1.018735592579542E-03;4.051963602170768E-01;8.222094668080037E-01;
5.425425425425425E+07;-2.344362287160141E-03;9.604369505967237E-04;4.041573349438815E-01;8.253823650479678E-01;-2.344362287160141E-03;9.604369505967237E-04;4.041573349438815E-01;8.253823650479678E-01;
5.450450450450450E+07;-2.207128208353071E-03;8.912778672956837E-04;4.027787686067437E-01;8.281721000072823E-01;-2.207128208353071E-03;8.912778672956837E-04;4.027787686067437E-01;8.281721000072823E-01;
5.475475475475475E+07;-2.079804502724825E-03;8.383852424024321E-04;4.012536899442191E-01;8.306787817332265E-01;-2.079804502724825E-03;8.383852424024321E-04;4.012536899442191E-01;8.306787817332265E-01;
5.500500500500500E+07;-1.991327979906279E-03;7.823081422765899E-04;3.992746766615103E-01;8.331003112798364E-01;-1.991327979906279E-03;7.823081422765899E-04;3.992746766615103E-01;8.331003112798364E-01;
5.525525525525525E+07;-1.878568762565455E-03;7.254818515185647E-04;3.972876279585837E-01;8.352965838190857E-01;-1.878568762565455E-03;7.254818515185647E-04;3.972876279585837E-01;8.352965838190857E-01;
5.550550550550550E+07;-1.807227632225669E-03;6.781436393034296E-04;3.950173895833092E-01;8.374502994607558E-01;-1.807227632225669E-03;6.781436393034296E-04;3.950173895833092E-01;8.374502994607558E-01;
5.575575575575575E+07;-1.741417610564599E-03;6.368224364633213E-04;3.925798483352916E-01;8.393449229366530E-01;-1.741417610564599E-03;6.368224364633213E-04;3.925798483352916E-01;8.393449229366530E-01;
5.600600600600600E+07;-1.659765006457907E-03;5.795200574969980E-04;3.900704271454424E-01;8.411116140125156E-01;-1.659765006457907E-03;5.795200574969980E-04;3.900704271454424E-01;8.411116140125156E-01;
5.625625625625625E+07;-1.609661947136619E-03;5.517537431675636E-04;3.876183294782334E-01;8.427569880671595E-01;-1.609661947136619E-03;5.517537431675636E-04;3.876183294782334E-01;8.427569880671595E-01;
5.650650650650650E+07;-1.552003695310964E-03;5.117445744572043E-04;3.847954754727452E-01;8.442211110526160E-01;-1.552003695310964E-03;5.117445744572043E-04;3.847954754727452E-01;8.442211110526160E-01;
5.675675675675675E+07;-1.503094031426731E-03;4.616645458699783E-04;3.818907694149570E-01;8.456366519979629E-01;-1.503094031426731E-03;4.616645458699783E-04;3.818907694149570E-01;8.456366519979629E-01;
5.700700700700700E+07;-1.474586254425254E-03;4.246886845311077E-04;3.788951526731524E-01;8.469328372366943E-01;-1.474586254425254E-03;4.246886845311077E-04;3.788951526731524E-01;8.469328372366943E-01;
5.725725725725726E+07;-1.423444710403434E-03;3.937207385823386E-04;3.759211512801564E-01;8.480838967312920E-01;-1.423444710403434E-03;3.937207385823386E-04;3.759211512801564E-01;8.480838967312920E-01;
5.750750750750751E+07;-1.393642877121913E-03;3.374840983046555E-04;3.730057447326176E-01;8.492162823404689E-01;-1.393642877121913E-03;3.374840983046555E-04;3.730057447326176E-01;8.492162823404689E-01;
5.775775775775776E+07;-1.364791878642852E-03;3.117992739152396E-04;3.695691371915562E-01;8.503658277305289E-01;-1.364791878642852E-03;3.117992739152396E-04;3.695691371915562E-01;8.503658277305289E-01;
5.800800800800801E+07;-1.343715128811108E-03;2.910560328108629E-04;3.724429636615992E-01;8.482612990310421E-01;-1.343715128811108E-03;2.910560328108629E-04;3.724429636615992E-01;8.482612990310421E-01;
5.825825825825826E+07;-1.323393960895864E-03;2.429554563829303E-04;3.691016415078282E-01;8.491079190287913E-01;-1.323393960895864E-03;2.429554563829303E-04;3.691016415078282E-01;8.491079190287913E-01;
5.850850850850851E+07;-1.293562619418080E-03;2.171204417249490E-04;3.656088183868855E-01;8.497735988143073E-01;-1.293562619418080E-03;2.171204417249490E-04;3.656088183868855E-01;8.497735988143073E-01;
5.875875875875876E+07;-1.298804674002724E-03;1.771190512060610E-04;3.621405089643227E-01;8.505028467816885E-01;-1.298804674002724E-03;1.771190512060610E-04;3.621405089643227E-01;8.505028467816885E-01;
5.900900900900901E+07;-1.255900283319178E-03;1.526812711576280E-04;3.583826212140390E-01;8.511088178957720E-01;-1.255900283319178E-03;1.526812711576280E-04;3.583826212140390E-01;8.511088178957720E-01;
5.925925925925926E+07;-1.253921136066719E-03;1.264210894192510E-04;3.545957394764801E-01;8.516948404076641E-01;-1.253921136066719E-03;1.264210894192510E-04;3.545957394764801E-01;8.516948404076641E-01;
5.950950950950951E+07;-1.243873472433671E-03;1.065797272436825E-04;3.509474167388380E-01;8.524456993951588E-01;-1.243873472433671E-03;1.065797272436825E-04;3.509474167388380E-01;8.524456993951588E-01;
5.975975975975976E+07;-1.232211396699002E-03;6.414924636085682E-05;3.469143323107948E-01;8.533209548803524E-01;-1.232211396699002E-03;6.414924636085682E-05;3.469143323107948E-01;8.533209548803524E-01;
6.001001001001001E+07;-1.239822961377014E-03;6.653862008853917E-05;3.429431348575788E-01;8.541886910790034E-01;-1.239822961377014E-03;6.653862008853917E-05;3.429431348575788E-01;8.541886910790034E-01;
6.026026026026026E+07;-1.233702375819628E-03;4.670603853084703E-05;3.392803493977757E-01;8.554765334795259E-01;-1.233702375819628E-03;4.670603853084703E-05;3.392803493977757E-01;8.554765334795259E-01;
6.051051051051051E+07;-1.217802500676046E-03;2.356005280571071E-05;3.356678557189840E-01;8.568449202078506E-01;-1.217802500676046E-03;2.356005280571071E-05;3.356678557189840E-01;8.568449202078506E-01;
6.076076076076076E+07;-1.226793938280473E-03;2.724441397545708E-06;3.324812831903392E-01;8.581400167644255E-01;-1.226793938280473E-03;2.724441397545708E-06;3.324812831903392E-01;8.581400167644255E-01;
6.101101101101101E+07;-1.202017918723166E-03;1.110638734415065E-05;3.291989596433042E-01;8.595367521645505E-01;-1.202017918723166E-03;1.110638734415065E-05;3.291989596433042E-01;8.595367521645505E-01;
6.126126126126126E+07;-1.210958048704879E-03;-1.148285557696450E-05;3.262040434197336E-01;8.607926301597492E-01;-1.210958048704879E-03;-1.148285557696450E-05;3.262040434197336E-01;8.607926301597492E-01;
6.151151151151151E+07;-1.179813349743827E-03;-1.781289552305881E-05;3.235053765113479E-01;8.621974197275656E-01;-1.179813349743827E-03;-1.781289552305881E-05;3.235053765113479E-01;8.621974197275656E-01;
6.176176176176176E+07;-1.182262824542474E-03;-4.026497911655651E-05;3.209132753501653E-01;8.633102537470773E-01;-1.182262824542474E-03;-4.026497911655651E-05;3.209132753501653E-01;8.633102537470773E-01;
6.201201201201201E+07;-1.179505301907156E-03;-7.045473488743836E-05;3.183466488431574E-01;8.643638385815153E-01;-1.179505301907156E-03;-7.045473488743836E-05;3.183466488431574E-01;8.643638385815153E-01;
6.226226226226226E+07;-1.177779693101306E-03;-6.647859937816819E-05;3.158770658504237E-01;8.653379037655773E-01;-1.177779693101306E-03;-6.647859937816819E-05;3.158770658504237E-01;8.653379037655773E-01;
6.251251251251251E+07;-1.166940743792416E-03;-7.185811231675940E-05;3.135073776375938E-01;8.662783230243594E-01;-1.166940743792416E-03;-7.185811231675940E-05;3.135073776375938E-01;8.662783230243594E-01;
6.276276276276276E+07;-1.139505046504468E-03;-7.020828124940827E-05;3.112777083462404E-01;8.670384565860135E-01;-1.139505046504468E-03;-7.020828124940827E-05;3.112777083462404E-01;8.670384565860135E-01;
6.301301301301301E+07;-1.145791265617301E-03;-1.018616654856083E-04;3.090668088832340E-01;8.678034129261376E-01;-1.145791265617301E-03;-1.018616654856083E-04;3.090668088832340E-01;8.678034129261376E-01;
6.326326326326326E+07;-1.143036161083773E-03;-1.267753676109062E-04;3.069529934382998E-01;8.685811936849950E-01;-1.143036161083773E-03;-1.267753676109062E-04;3.069529934382998E-01;8.685811936849950E-01;
6.351351351351351E+07;-1.122891713690599E-03;-1.458928863005838E-04;3.049361911487275E-01;8.691118932837929E-01;-1.122891713690599E-03;-1.458928863005838E-04;3.049361911487275E-01;8.691118932837929E-01;
6.376376376376376E+07;-1.129017469270925E-03;-1.515984388021730E-04;3.028620229104861E-01;8.697369126180587E-01;-1.129017469270925E-03;-1.515984388021730E-04;3.028620229104861E-01;8.697369126180587E-01;
6.401401401401401E+07;-1.114364962632422E-03;-1.819951590072813E-04;3.010752608107464E-01;8.701742577719255E-01;-1.114364962632422E-03;-1.819951590072813E-04;3.010752608107464E-01;8.701742577719255E-01;
6.426426426426426E+07;-1.119468052635712E-03;-1.794910607006307E-04;2.992900267987267E-01;8.705950830718930E-01;-1.119468052635712E-03;-1.794910607006307E-04;2.992900267987267E-01;8.705950830718930E-01;
6.451451451451451E+07;-1.117477070280898E-03;-1.955099695646065E-04;2.975847256347500E-01;8.709518701807063E-01;-1.117477070280898E-03;-1.955099695646065E-04;2.975847256347500E-01;8.709518701807063E-01;
6.476476476476476E+07;-1.114634758318591E-03;-2.130695808542979E-04;2.959739096240781E-01;8.712446808683830E-01;-1.114634758318591E-03;-2.130695808542979E-04;2.959739096240781E-01;8.712446808683830E-01;
6.501501501501501E+07;-1.104442835810059E-03;-2.366357731385622E-04;2.943818437192241E-01;8.715680584359309E-01;-1.104442835810059E-03;-2.366357731385622E-04;2.943818437192241E-01;8.715680584359309E-01;
6.526526526526526E+07;-1.096063486225375E-03;-2.379389065519538E-04;2.929550611604109E-01;8.717853309714649E-01;-1.096063486225375E-03;-2.379389065519538E-04;2.929550611604109E-01;8.717853309714649E-01;
6.551551551551551E+07;-1.096648255757918E-03;-2.565560139379974E-04;2.915738377880703E-01;8.719071982067015E-01;-1.096648255757918E-03;-2.565560139379974E-04;2.915738377880703E-01;8.719071982067015E-01;
6.576576576576576E+07;-1.072006907064135E-03;-2.653166887719459E-04;2.821414226097236E-01;8.753674947334837E-01;-1.072006907064135E-03;-2.653166887719459E-04;2.821414226097236E-01;8.753674947334837E-01;
6.601601601601601E+07;-1.090016808582348E-03;-2.833817854909705E-04;2.808951044462752E-01;8.753386476556423E-01;-1.090016808582348E-03;-2.833817854909705E-04;2.808951044462752E-01;8.753386476556423E-01;
6.626626626626626E+07;-1.075007913230365E-03;-3.139047142791488E-04;2.794687137496420E-01;8.754289378126212E-01;-1.075007913230365E-03;-3.139047142791488E-04;2.794687137496420E-01;8.754289378126212E-01;
6.651651651651651E+07;-1.074355143475190E-03;-3.201620729641052E-04;2.780460832036932E-01;8.755621039334319E-01;-1.074355143475190E-03;-3.201620729641052E-04;2.780460832036932E-01;8.755621039334319E-01;
6.676676676676676E+07;-1.086983158741583E-03;-3.424929715067460E-04;2.765082139639360E-01;8.757710903161066E-01;-1.086983158741583E-03;-3.424929715067460E-04;2.765082139639360E-01;8.757710903161066E-01;
6.701701701701702E+07;-1.062703608376387E-03;-3.617405125255853E-04;2.762259081479137E-01;8.753058911630779E-01;-1.062703608376387E-03;-3.617405125255853E-04;2.762259081479137E-01;8.753058911630779E-01;
6.726726726726727E+07;-1.078751245473895E-03;-3.682306977656878E-04;2.749658675641349E-01;8.753963982183103E-01;-1.078751245473895E-03;-3.682306977656878E-04;2.749658675641349E-01;8.753963982183103E-01;
6.751751751751752E+07;-1.070608410186921E-03;-3.863666897451850E-04;2.737136972345369E-01;8.756530440780669E-01;-1.070608410186921E-03;-3.863666897451850E-04;2.737136972345369E-01;8.756530440780669E-01;
6.776776776776777E+07;-1.068014548777412E-03;-3.978639400424804E-04;2.723533113490850E-01;8.759890510678352E-01;-1.068014548777412E-03;-3.978639400424804E-04;2.723533113490850E-01;8.759890510678352E-01;
6.801801801801802E+07;-1.075083563987026E-03;-4.178583338366588E-04;2.709186340955214E-01;8.763740401325441E-01;-1.075083563987026E-03;-4.178583338366588E-04;2.709186340955214E-01;8.763740401325441E-01;
6.826826826826827E+07;-1.072106182755508E-03;-4.328394469367323E-04;2.697039499605901E-01;8.765834427890498E-01;-1.072106182755508E-03;-4.328394469367323E-04;2.697039499605901E-01;8.765834427890498E-01;
6.851851851851852E+07;-1.067402452991641E-03;-4.533508590817755E-04;2.689184281473438E-01;8.767695974560981E-01;-1.067402452991641E-03;-4.533508590817755E-04;2.689184281473438E-01;8.767695974560981E-01;
6.876876876876877E+07;-1.061882542054657E-03;-4.668782112091620E-04;2.730788782401283E-01;8.758267305664136E-01;-1.061882542054657E-03;-4.668782112091620E-04;2.730788782401283E-01;8.758267305664136E-01;
6.901901901901902E+07;-1.053605574719421E-03;-4.962012788681172E-04;2.734441594534666E-01;8.750630848232362E-01;-1.053605574719421E-03;-4.962012788681172E-04;2.734441594534666E-01;8.750630848232362E-01;
6.926926926926927E+07;-1.055300472052173E-03;-5.125282220865273E-04;2.744401686143910E-01;8.741437072604000E-01;-1.055300472052173E-03;-5.125282220865273E-04;2.744401686143910E-01;8.741437072604000E-01;
6.951951951951952E+07;-1.054885536012553E-03;-5.458684098629231E-04;2.755258467038078E-01;8.729216277357535E-01;-1.054885536012553E-03;-5.458684098629231E-04;2.755258467038078E-01;8.729216277357535E-01;
6.976976976976977E+07;-1.043719817732575E-03;-5.696689179303572E-04;2.766447388545346E-01;8.716871532613691E-01;-1.043719817732575E-03;-5.696689179303572E-04;2.766447388545346E-01;8.716871532613691E-01;
7.002002002002002E+07;-1.050601798974007E-03;-5.938129675082249E-04;2.776209157105745E-01;8.705290405075813E-01;-1.050601798974007E-03;-5.938129675082249E-04;2.776209157105745E-01;8.705290405075813E-01;
7.027027027027027E+07;-1.042656961952342E-03;-6.073735744498004E-04;2.781889613466185E-01;8.694631908096848E-01;-1.042656961952342E-03;-6.073735744498004E-04;2.781889613466185E-01;8.694631908096848E-01;
7.052052052052052E+07;-1.043769644788140E-03;-6.294529802034823E-04;2.786167619704816E-01;8.686498859376630E-01;-1.043769644788140E-03;-6.294529802034823E-04;2.786167619704816E-01;8.686498859376630E-01;
7.077077077077077E+07;-1.052314128851991E-03;-6.457915755179507E-04;2.791088451992231E-01;8.678011861133288E-01;-1.052314128851991E-03;-6.457915755179507E-04;2.791088451992231E-01;8.678011861133288E-01;
7.102102102102102E+07;-1.054808610800165E-03;-6.819655415665519E-04;2.794417318637828E-01;8.668656256936599E-01;-1.054808610800165E-03;-6.819655415665519E-04;2.794417318637828E-01;8.668656256936599E-01;
7.127127127127127E+07;-1.032889808620665E-03;-6.996769899522272E-04;2.798726753690066E-01;8.661162521417346E-01;-1.032889808620665E-03;-6.996769899522272E-04;2.798726753690066E-01;8.661162521417346E-01;
7.152152152152152E+07;-1.055417254253873E-03;-7.196956711172975E-04;2.801756110525567E-01;8.652254123850425E-01;-1.055417254253873E-03;-7.196956711172975E-04;2.801756110525567E-01;8.652254123850425E-01;
7.177177177177177E+07;-1.055679200475589E-03;-7.324154657754307E-04;2.803196943122270E-01;8.644537240788107E-01;-1.055679200475589E-03;-7.324154657754307E-04;2.803196943122270E-01;8.644537240788107E-01;
7.202202202202202E+07;-1.060483421581865E-03;-7.653747856244492E-04;2.803520222819962E-01;8.638117481477814E-01;-1.060483421581865E-03;-7.653747856244492E-04;2.803520222819962E-01;8.638117481477814E-01;
7.227227227227227E+07;-1.049065793262284E-03;-7.888208934149120E-04;2.806431582847241E-01;8.629015599347226E-01;-1.049065793262284E-03;-7.888208934149120E-04;2.806431582847241E-01;8.629015599347226E-01;
7.252252252252252E+07;-1.048535996393334E-03;-8.158241918887370E-04;2.810191303315676E-01;8.619755215928211E-01;-1.048535996393334E-03;-8.158241918887370E-04;2.810191303315676E-01;8.619755215928211E-01;
7.277277277277277E+07;-1.058205041146929E-03;-8.530611526749648E-04;2.820746901439132E-01;8.608670902475201E-01;-1.058205041146929E-03;-8.530611526749648E-04;2.820746901439132E-01;8.608670902475201E-01;
7.302302302302302E+07;-1.070348243969858E-03;-8.707214901332431E-04;2.836083191915410E-01;8.595123707900917E-01;-1.070348243969858E-03;-8.707214901332431E-04;2.836083191915410E-01;8.595123707900917E-01;
7.327327327327327E+07;-1.078281367318489E-03;-9.121670894838222E-04;2.855195847970067E-01;8.579838941055125E-01;-1.078281367318489E-03;-9.121670894838222E-04;2.855195847970067E-01;8.579838941055125E-01;
7.352352352352352E+07;-1.080613175115131E-03;-9.380887209304136E-04;2.875448473546942E-01;8.563369176718849E-01;-1.080613175115131E-03;-9.380887209304136E-04;2.875448473546942E-01;8.563369176718849E-01;
7.377377377377377E+07;-1.075872322912322E-03;-9.808367966960944E-04;2.897864707875495E-01;8.548051996317306E-01;-1.075872322912322E-03;-9.808367966960944E-04;2.897864707875495E-01;8.548051996317306E-01;
7.402402402402402E+07;-1.074869648048665E-03;-1.002739614900549E-03;2.919992383843331E-01;8.533261994252161E-01;-1.074869648048665E-03;-1.002739614900549E-03;2.919992383843331E-01;8.533261994252161E-01;
