# Version 1.00
#
# Ref Impedances: Z01: 50, Z02: 50
# 
freq[Hz];re:SMag2_S11;im:SMag2_S11;re:ZPh2_S12;im:ZPh2_S12;re:SPh2_S11;im:SPh2_S11;re:ZMag2_S12;im:ZMag2_S12;
5.000000000000000E+07;5.782630700828270E-01;6.419430161339056E-01;-1.210666968509024E-03;-7.305942250511239E-03;5.782630700828270E-01;6.419430161339056E-01;-1.210666968509024E-03;-7.305942250511239E-03;
5.025025025025025E+07;5.583477755912217E-01;6.252553790255991E-01;-2.342551431426628E-03;-7.593775231852883E-03;5.583477755912217E-01;6.252553790255991E-01;-2.342551431426628E-03;-7.593775231852883E-03;
5.050050050050050E+07;5.284458185946092E-01;6.120933582452348E-01;-3.814275254125775E-03;-7.550025700588194E-03;5.284458185946092E-01;6.120933582452348E-01;-3.814275254125775E-03;-7.550025700588194E-03;
5.075075075075075E+07;4.926154224857132E-01;6.076032916344450E-01;-5.290433086792464E-03;-6.957220971260187E-03;4.926154224857132E-01;6.076032916344450E-01;-5.290433086792464E-03;-6.957220971260187E-03;
5.100100100100100E+07;4.541375345515513E-01;6.165305169867363E-01;-6.383612921967063E-03;-5.931868166389744E-03;4.541375345515513E-01;6.165305169867363E-01;-6.383612921967063E-03;-5.931868166389744E-03;
5.125125125125125E+07;4.204862157420591E-01;6.377829517919336E-01;-7.376397022310016E-03;-4.411904892873638E-03;4.204862157420591E-01;6.377829517919336E-01;-7.376397022310016E-03;-4.411904892873638E-03;
5.150150150150150E+07;3.979815199019094E-01;6.666953700745993E-01;-7.349626605779451E-03;-2.932262807823750E-03;3.979815199019094E-01;6.666953700745993E-01;-7.349626605779451E-03;-2.932262807823750E-03;
5.175175175175175E+07;3.833528787700675E-01;6.956477922177031E-01;-7.088206050542330E-03;-1.640392763898571E-03;3.833528787700675E-01;6.956477922177031E-01;-7.088206050542330E-03;-1.640392763898571E-03;
5.200200200200200E+07;3.782829612802484E-01;7.222202090117961E-01;-6.519559063121967E-03;-6.372816408299183E-04;3.782829612802484E-01;7.222202090117961E-01;-6.519559063121967E-03;-6.372816408299183E-04;
5.225225225225225E+07;3.780827985280568E-01;7.447046896649034E-01;-5.879597835404746E-03;-4.602005067927732E-05;3.780827985280568E-01;7.447046896649034E-01;-5.879597835404746E-03;-4.602005067927732E-05;
5.250250250250250E+07;3.804782500239923E-01;7.626576164556045E-01;-5.281336863086196E-03;4.148821606508943E-04;3.804782500239923E-01;7.626576164556045E-01;-5.281336863086196E-03;4.148821606508943E-04;
5.275275275275275E+07;3.838679959450760E-01;7.767418584496784E-01;-4.696363833122699E-03;6.381056239391978E-04;3.838679959450760E-01;7.767418584496784E-01;-4.696363833122699E-03;6.381056239391978E-04;
5.300300300300300E+07;3.870116210210847E-01;7.876916857200988E-01;-4.236200426056000E-03;7.721640633769540E-04;3.870116210210847E-01;7.876916857200988E-01;-4.236200426056000E-03;7.721640633769540E-04;
5.325325325325325E+07;3.902191092857970E-01;7.968134150986534E-01;-3.795241215190307E-03;8.424987901712988E-04;3.902191092857970E-01;7.968134150986534E-01;-3.795241215190307E-03;8.424987901712988E-04;
5.350350350350350E+07;3.922203827787483E-01;8.039453660587863E-01;-3.458042129973647E-03;9.258562658551553E-04;3.922203827787483E-01;8.039453660587863E-01;-3.458042129973647E-03;9.258562658551553E-04;
5.375375375375375E+07;3.938653318450669E-01;8.098318139501424E-01;-3.159961883390314E-03;9.106222361603521E-04;3.938653318450669E-01;8.098318139501424E-01;-3.159961883390314E-03;9.106222361603521E-04;
5.400400400400400E+07;3.947942148983761E-01;8.146116592468415E-01;-2.961039009431925E-03;9.049102770085588E-04;3.947942148983761E-01;8.146116592468415E-01;-2.961039009431925E-03;9.049102770085588E-04;
5.425425425425425E+07;3.951600192452607E-01;8.186957624959580E-01;-2.693504932267617E-03;8.126211489848301E-04;3.951600192452607E-01;8.186957624959580E-01;-2.693504932267617E-03;8.126211489848301E-04;
5.450450450450450E+07;3.952309772276623E-01;8.225264123830934E-01;-2.527605285931662E-03;7.886299100097860E-04;3.952309772276623E-01;8.225264123830934E-01;-2.527605285931662E-03;7.886299100097860E-04;
5.475475475475475E+07;3.946173797655280E-01;8.258285029956187E-01;-2.418225666129343E-03;7.191522303774316E-04;3.946173797655280E-01;8.258285029956187E-01;-2.418225666129343E-03;7.191522303774316E-04;
5.500500500500500E+07;3.938355843133320E-01;8.288125371488942E-01;-2.214507988553113E-03;7.334000518909863E-04;3.938355843133320E-01;8.288125371488942E-01;-2.214507988553113E-03;7.334000518909863E-04;
5.525525525525525E+07;3.926147735685163E-01;8.315422834978964E-01;-2.099395635828272E-03;6.918148091419592E-04;3.926147735685163E-01;8.315422834978964E-01;-2.099395635828272E-03;6.918148091419592E-04;
5.550550550550550E+07;3.911062447807182E-01;8.338056989854793E-01;-2.002393682887768E-03;6.359670574279457E-04;3.911062447807182E-01;8.338056989854793E-01;-2.002393682887768E-03;6.359670574279457E-04;
5.575575575575575E+07;3.893885114127135E-01;8.361946062485613E-01;-1.906139301852096E-03;5.873302696753669E-04;3.893885114127135E-01;8.361946062485613E-01;-1.906139301852096E-03;5.873302696753669E-04;
5.600600600600600E+07;3.875759677019796E-01;8.383795741209922E-01;-1.751669153419077E-03;5.163798344532661E-04;3.875759677019796E-01;8.383795741209922E-01;-1.751669153419077E-03;5.163798344532661E-04;
5.625625625625625E+07;3.856937755589527E-01;8.400072189661782E-01;-1.755517622008341E-03;4.930437431820531E-04;3.856937755589527E-01;8.400072189661782E-01;-1.755517622008341E-03;4.930437431820531E-04;
5.650650650650650E+07;3.833083168998679E-01;8.418343901923548E-01;-1.709423275034580E-03;4.502549466681784E-04;3.833083168998679E-01;8.418343901923548E-01;-1.709423275034580E-03;4.502549466681784E-04;
5.675675675675675E+07;3.810116125961227E-01;8.432871520162827E-01;-1.649075472175663E-03;3.738122148567391E-04;3.810116125961227E-01;8.432871520162827E-01;-1.649075472175663E-03;3.738122148567391E-04;
5.700700700700700E+07;3.785579475190137E-01;8.443684621902757E-01;-1.583228547556444E-03;3.748443559088597E-04;3.785579475190137E-01;8.443684621902757E-01;-1.583228547556444E-03;3.748443559088597E-04;
5.725725725725726E+07;3.757691489546068E-01;8.457183475339183E-01;-1.517140658087509E-03;3.054463417685319E-04;3.757691489546068E-01;8.457183475339183E-01;-1.517140658087509E-03;3.054463417685319E-04;
5.750750750750751E+07;3.728435640906543E-01;8.469433650465671E-01;-1.457360549512981E-03;3.266266119351596E-04;3.728435640906543E-01;8.469433650465671E-01;-1.457360549512981E-03;3.266266119351596E-04;
5.775775775775776E+07;3.698279650154638E-01;8.478784073485996E-01;-1.445217729018612E-03;2.887139502277776E-04;3.698279650154638E-01;8.478784073485996E-01;-1.445217729018612E-03;2.887139502277776E-04;
5.800800800800801E+07;3.664769490886333E-01;8.484700708822853E-01;-1.443119114539390E-03;2.289747163298560E-04;3.664769490886333E-01;8.484700708822853E-01;-1.443119114539390E-03;2.289747163298560E-04;
5.825825825825826E+07;3.633410111887838E-01;8.493557321840540E-01;-1.368188796768794E-03;1.842504778553990E-04;3.633410111887838E-01;8.493557321840540E-01;-1.368188796768794E-03;1.842504778553990E-04;
5.850850850850851E+07;3.597181552925347E-01;8.499910274678398E-01;-1.367694110346631E-03;1.798089699306869E-04;3.597181552925347E-01;8.499910274678398E-01;-1.367694110346631E-03;1.798089699306869E-04;
5.875875875875876E+07;3.558768159799058E-01;8.506902095808988E-01;-1.351118027034366E-03;1.456227931147792E-04;3.558768159799058E-01;8.506902095808988E-01;-1.351118027034366E-03;1.456227931147792E-04;
5.900900900900901E+07;3.523163448493025E-01;8.511539071361856E-01;-1.285195298492600E-03;9.792718236374731E-05;3.523163448493025E-01;8.511539071361856E-01;-1.285195298492600E-03;9.792718236374731E-05;
5.925925925925926E+07;3.482821899156248E-01;8.518601717810713E-01;-1.281910436118005E-03;7.868638762379428E-05;3.482821899156248E-01;8.518601717810713E-01;-1.281910436118005E-03;7.868638762379428E-05;
5.950950950950951E+07;3.440979283516817E-01;8.528400068191865E-01;-1.272427225357010E-03;2.478713424861869E-05;3.440979283516817E-01;8.528400068191865E-01;-1.272427225357010E-03;2.478713424861869E-05;
5.975975975975976E+07;3.398216741117050E-01;8.536363052445357E-01;-1.187625792787446E-03;-1.590264458170605E-05;3.398216741117050E-01;8.536363052445357E-01;-1.187625792787446E-03;-1.590264458170605E-05;
6.001001001001001E+07;3.356530683927429E-01;8.547720801172892E-01;-1.283484123306010E-03;5.109111024547466E-06;3.356530683927429E-01;8.547720801172892E-01;-1.283484123306010E-03;5.109111024547466E-06;
6.026026026026026E+07;3.317796984070687E-01;8.562052715742557E-01;-1.279575919035177E-03;-6.327599290697320E-05;3.317796984070687E-01;8.562052715742557E-01;-1.279575919035177E-03;-6.327599290697320E-05;
6.051051051051051E+07;3.279763562259800E-01;8.579959374353286E-01;-1.262203522985136E-03;-6.662048358718826E-05;3.279763562259800E-01;8.579959374353286E-01;-1.262203522985136E-03;-6.662048358718826E-05;
6.076076076076076E+07;3.243339372399874E-01;8.595186027454406E-01;-1.281431494160464E-03;-8.501792988867436E-05;3.243339372399874E-01;8.595186027454406E-01;-1.281431494160464E-03;-8.501792988867436E-05;
6.101101101101101E+07;3.209014307132469E-01;8.613076989804466E-01;-1.218041189787444E-03;-9.072907467057082E-05;3.209014307132469E-01;8.613076989804466E-01;-1.218041189787444E-03;-9.072907467057082E-05;
6.126126126126126E+07;3.177066186671438E-01;8.629494163299832E-01;-1.227777977915329E-03;-8.005208388204093E-05;3.177066186671438E-01;8.629494163299832E-01;-1.227777977915329E-03;-8.005208388204093E-05;
6.151151151151151E+07;3.148291126295978E-01;8.646387492781316E-01;-1.217884199039503E-03;-8.916844004695260E-05;3.148291126295978E-01;8.646387492781316E-01;-1.217884199039503E-03;-8.916844004695260E-05;
6.176176176176176E+07;3.120721533964800E-01;8.662132772019674E-01;-1.213262693129222E-03;-9.104769254914897E-05;3.120721533964800E-01;8.662132772019674E-01;-1.213262693129222E-03;-9.104769254914897E-05;
6.201201201201201E+07;3.094759944021065E-01;8.676526580487939E-01;-1.171624489336698E-03;-1.280493666206136E-04;3.094759944021065E-01;8.676526580487939E-01;-1.171624489336698E-03;-1.280493666206136E-04;
6.226226226226226E+07;3.067964577947729E-01;8.688157189397283E-01;-1.153037004576892E-03;-1.153356445552857E-04;3.067964577947729E-01;8.688157189397283E-01;-1.153037004576892E-03;-1.153356445552857E-04;
6.251251251251251E+07;3.043858972053599E-01;8.700288341942601E-01;-1.239041513625035E-03;-5.395414542616618E-05;3.043858972053599E-01;8.700288341942601E-01;-1.239041513625035E-03;-5.395414542616618E-05;
6.276276276276276E+07;3.021360549975718E-01;8.712525412433167E-01;-1.257339101042716E-03;-1.592244859886829E-04;3.021360549975718E-01;8.712525412433167E-01;-1.257339101042716E-03;-1.592244859886829E-04;
6.301301301301301E+07;2.997040956244986E-01;8.720718423669614E-01;-1.169699518047350E-03;-1.373916248708106E-04;2.997040956244986E-01;8.720718423669614E-01;-1.169699518047350E-03;-1.373916248708106E-04;
6.326326326326326E+07;2.975738336930719E-01;8.730283740222962E-01;-1.127386669810027E-03;-1.889353165969509E-04;2.975738336930719E-01;8.730283740222962E-01;-1.127386669810027E-03;-1.889353165969509E-04;
6.351351351351351E+07;2.954894490155032E-01;8.737545096340416E-01;-1.122402883879803E-03;-2.546064538262955E-04;2.954894490155032E-01;8.737545096340416E-01;-1.122402883879803E-03;-2.546064538262955E-04;
6.376376376376376E+07;2.933491320585143E-01;8.745476976670521E-01;-1.122663087488152E-03;-2.396018720568750E-04;2.933491320585143E-01;8.745476976670521E-01;-1.122663087488152E-03;-2.396018720568750E-04;
6.401401401401401E+07;2.913083088347599E-01;8.751772819298361E-01;-1.096338040565270E-03;-2.412495883244345E-04;2.913083088347599E-01;8.751772819298361E-01;-1.096338040565270E-03;-2.412495883244345E-04;
6.426426426426426E+07;2.893364184501067E-01;8.757932459313179E-01;-1.095737648106922E-03;-2.105037962121540E-04;2.893364184501067E-01;8.757932459313179E-01;-1.095737648106922E-03;-2.105037962121540E-04;
6.451451451451451E+07;2.875513823897841E-01;8.764336466716008E-01;-1.107141712463708E-03;-2.370240601794034E-04;2.875513823897841E-01;8.764336466716008E-01;-1.107141712463708E-03;-2.370240601794034E-04;
6.476476476476476E+07;2.857918735823697E-01;8.768168924322541E-01;-1.072102617385690E-03;-2.536751318909432E-04;2.857918735823697E-01;8.768168924322541E-01;-1.072102617385690E-03;-2.536751318909432E-04;
6.501501501501501E+07;2.841192237806549E-01;8.772100256243857E-01;-1.086834316338284E-03;-2.640641993425831E-04;2.841192237806549E-01;8.772100256243857E-01;-1.086834316338284E-03;-2.640641993425831E-04;
6.526526526526526E+07;2.822344865790941E-01;8.776377018732937E-01;-1.048631686136168E-03;-2.359191800515725E-04;2.822344865790941E-01;8.776377018732937E-01;-1.048631686136168E-03;-2.359191800515725E-04;
6.551551551551551E+07;2.807447688281989E-01;8.779485514386981E-01;-1.064971838624319E-03;-3.087097899430522E-04;2.807447688281989E-01;8.779485514386981E-01;-1.064971838624319E-03;-3.087097899430522E-04;
6.576576576576576E+07;2.811849323107413E-01;8.787321102034088E-01;-1.083732019684333E-03;-3.152658519835115E-04;2.811849323107413E-01;8.787321102034088E-01;-1.083732019684333E-03;-3.152658519835115E-04;
6.601601601601601E+07;2.796649797213454E-01;8.788947127290594E-01;-1.045993989257231E-03;-3.320203406529580E-04;2.796649797213454E-01;8.788947127290594E-01;-1.045993989257231E-03;-3.320203406529580E-04;
6.626626626626626E+07;2.780950065894056E-01;8.790249852184481E-01;-1.031773037075227E-03;-3.616032297503432E-04;2.780950065894056E-01;8.790249852184481E-01;-1.031773037075227E-03;-3.616032297503432E-04;
6.651651651651651E+07;2.763506479180725E-01;8.792648395556574E-01;-1.061484023123401E-03;-3.291332716992508E-04;2.763506479180725E-01;8.792648395556574E-01;-1.061484023123401E-03;-3.291332716992508E-04;
6.676676676676676E+07;2.745469323113520E-01;8.795698909782613E-01;-1.035020475651966E-03;-3.352007798954793E-04;2.745469323113520E-01;8.795698909782613E-01;-1.035020475651966E-03;-3.352007798954793E-04;
6.701701701701702E+07;2.739611613714510E-01;8.792339880840588E-01;-1.039790959686356E-03;-3.456413132816473E-04;2.739611613714510E-01;8.792339880840588E-01;-1.039790959686356E-03;-3.456413132816473E-04;
6.726726726726727E+07;2.723568585430186E-01;8.794553592953240E-01;-1.044232171482647E-03;-3.810065148642236E-04;2.723568585430186E-01;8.794553592953240E-01;-1.044232171482647E-03;-3.810065148642236E-04;
6.751751751751752E+07;2.707754686414485E-01;8.797800792251014E-01;-1.036460502165298E-03;-4.456493335883937E-04;2.707754686414485E-01;8.797800792251014E-01;-1.036460502165298E-03;-4.456493335883937E-04;
6.776776776776777E+07;2.690135965578041E-01;8.802605616635731E-01;-1.048665503511496E-03;-4.200357735914768E-04;2.690135965578041E-01;8.802605616635731E-01;-1.048665503511496E-03;-4.200357735914768E-04;
6.801801801801802E+07;2.672688882746494E-01;8.806560583213496E-01;-1.019629692881328E-03;-4.552449470838237E-04;2.672688882746494E-01;8.806560583213496E-01;-1.019629692881328E-03;-4.552449470838237E-04;
6.826826826826827E+07;2.657825423451767E-01;8.811601250690489E-01;-1.012450299047381E-03;-4.328433434052971E-04;2.657825423451767E-01;8.811601250690489E-01;-1.012450299047381E-03;-4.328433434052971E-04;
6.851851851851852E+07;2.645280960181436E-01;8.813031217256931E-01;-1.000120223978436E-03;-4.929352175712621E-04;2.645280960181436E-01;8.813031217256931E-01;-1.000120223978436E-03;-4.929352175712621E-04;
6.876876876876877E+07;2.644404221611890E-01;8.804200295147782E-01;-9.529115716505581E-04;-4.829209982924597E-04;2.644404221611890E-01;8.804200295147782E-01;-9.529115716505581E-04;-4.829209982924597E-04;
6.901901901901902E+07;2.644550742556743E-01;8.797674323777770E-01;-1.002842621768316E-03;-5.413868103798349E-04;2.644550742556743E-01;8.797674323777770E-01;-1.002842621768316E-03;-5.413868103798349E-04;
6.926926926926927E+07;2.649228721796649E-01;8.790230509618780E-01;-1.004606000306895E-03;-5.174902624166002E-04;2.649228721796649E-01;8.790230509618780E-01;-1.004606000306895E-03;-5.174902624166002E-04;
6.951951951951952E+07;2.658214646690457E-01;8.778764059699062E-01;-9.974645530539000E-04;-5.508439476239113E-04;2.658214646690457E-01;8.778764059699062E-01;-9.974645530539000E-04;-5.508439476239113E-04;
6.976976976976977E+07;2.664469244531235E-01;8.769026026032093E-01;-9.947218493250975E-04;-5.576116154977342E-04;2.664469244531235E-01;8.769026026032093E-01;-9.947218493250975E-04;-5.576116154977342E-04;
7.002002002002002E+07;2.669785213370038E-01;8.757662041829036E-01;-9.678841260478892E-04;-5.996074031292012E-04;2.669785213370038E-01;8.757662041829036E-01;-9.678841260478892E-04;-5.996074031292012E-04;
7.027027027027027E+07;2.669950405216610E-01;8.748772401879925E-01;-9.679853828448089E-04;-5.966264747458936E-04;2.669950405216610E-01;8.748772401879925E-01;-9.679853828448089E-04;-5.966264747458936E-04;
7.052052052052052E+07;2.668731547934518E-01;8.740938945313720E-01;-9.374126494446012E-04;-5.980991505673012E-04;2.668731547934518E-01;8.740938945313720E-01;-9.374126494446012E-04;-5.980991505673012E-04;
7.077077077077077E+07;2.670393447511688E-01;8.734252998901395E-01;-9.836995190654785E-04;-6.440935970254590E-04;2.670393447511688E-01;8.734252998901395E-01;-9.836995190654785E-04;-6.440935970254590E-04;
7.102102102102102E+07;2.666849828219702E-01;8.725603751457931E-01;-9.635507815979307E-04;-6.636611827983954E-04;2.666849828219702E-01;8.725603751457931E-01;-9.635507815979307E-04;-6.636611827983954E-04;
7.127127127127127E+07;2.666805541966037E-01;8.719091372055963E-01;-9.609337689829136E-04;-6.748454863568599E-04;2.666805541966037E-01;8.719091372055963E-01;-9.609337689829136E-04;-6.748454863568599E-04;
7.152152152152152E+07;2.662677392218470E-01;8.709372966721278E-01;-9.439252752449759E-04;-6.776372638183639E-04;2.662677392218470E-01;8.709372966721278E-01;-9.439252752449759E-04;-6.776372638183639E-04;
7.177177177177177E+07;2.658068408582611E-01;8.705378341243271E-01;-9.456278539164930E-04;-6.976309015760054E-04;2.658068408582611E-01;8.705378341243271E-01;-9.456278539164930E-04;-6.976309015760054E-04;
7.202202202202202E+07;2.650124063859650E-01;8.700445295627641E-01;-9.285450664709073E-04;-7.528520842755994E-04;2.650124063859650E-01;8.700445295627641E-01;-9.285450664709073E-04;-7.528520842755994E-04;
7.227227227227227E+07;2.644677715615210E-01;8.693914106793460E-01;-9.307849343646338E-04;-7.597360351509403E-04;2.644677715615210E-01;8.693914106793460E-01;-9.307849343646338E-04;-7.597360351509403E-04;
7.252252252252252E+07;2.642839537005233E-01;8.686687413943007E-01;-9.145524093914673E-04;-7.806307864126518E-04;2.642839537005233E-01;8.686687413943007E-01;-9.145524093914673E-04;-7.806307864126518E-04;
7.277277277277277E+07;2.645310517239043E-01;8.676055937070462E-01;-9.243396781751583E-04;-8.110804183315220E-04;2.645310517239043E-01;8.676055937070462E-01;-9.243396781751583E-04;-8.110804183315220E-04;
7.302302302302302E+07;2.651373754575164E-01;8.667092331336401E-01;-9.214380645956506E-04;-8.253913312549973E-04;2.651373754575164E-01;8.667092331336401E-01;-9.214380645956506E-04;-8.253913312549973E-04;
7.327327327327327E+07;2.660864362466080E-01;8.654804493988377E-01;-9.042950973837026E-04;-9.028482841132684E-04;2.660864362466080E-01;8.654804493988377E-01;-9.042950973837026E-04;-9.028482841132684E-04;
7.352352352352352E+07;2.674742193679389E-01;8.643139504286353E-01;-9.024313576539099E-04;-9.049798692741191E-04;2.674742193679389E-01;8.643139504286353E-01;-9.024313576539099E-04;-9.049798692741191E-04;
7.377377377377377E+07;2.688384259666832E-01;8.630511515044754E-01;-9.515591265247376E-04;-9.099146136379015E-04;2.688384259666832E-01;8.630511515044754E-01;-9.515591265247376E-04;-9.099146136379015E-04;
7.402402402402402E+07;2.700993728029994E-01;8.621291369452012E-01;-9.262188291460000E-04;-9.332871446836836E-04;2.700993728029994E-01;8.621291369452012E-01;-9.262188291460000E-04;-9.332871446836836E-04;
