# Version 1.00
#
# Ref Impedances: Z01: 50, Z02: 50
# 
freq[Hz];re:ZMag1_S12;im:ZMag1_S12;re:SMag1_S11;im:SMag1_S11;re:ZPh1_S12;im:ZPh1_S12;re:SPh1_S11;im:SPh1_S11;
5.000000000000000E+07;-8.360423876895321E-03;-6.068938416956972E-04;4.474050072061175E-01;6.618259878102012E-01;-8.360423876895321E-03;-6.068938416956972E-04;4.474050072061175E-01;6.618259878102012E-01;
5.025025025025025E+07;-7.222678877409820E-03;2.102644246481739E-04;4.509294967335060E-01;6.830290622852816E-01;-7.222678877409820E-03;2.102644246481739E-04;4.509294967335060E-01;6.830290622852816E-01;
5.050050050050050E+07;-6.332846304128597E-03;5.630155913513795E-04;4.544448882259129E-01;6.953174714281876E-01;-6.332846304128597E-03;5.630155913513795E-04;4.544448882259129E-01;6.953174714281876E-01;
5.075075075075075E+07;-5.637142958909321E-03;6.488974610246217E-04;4.555142923248131E-01;7.020793184264235E-01;-5.637142958909321E-03;6.488974610246217E-04;4.555142923248131E-01;7.020793184264235E-01;
5.100100100100100E+07;-5.192931614990720E-03;6.506651759724462E-04;4.528269559580111E-01;7.064611831373583E-01;-5.192931614990720E-03;6.506651759724462E-04;4.528269559580111E-01;7.064611831373583E-01;
5.125125125125125E+07;-4.931592697199763E-03;6.723517489886031E-04;4.465894045816899E-01;7.112287195962099E-01;-4.931592697199763E-03;6.723517489886031E-04;4.465894045816899E-01;7.112287195962099E-01;
5.150150150150150E+07;-4.717453376944729E-03;7.226542178220909E-04;4.385906042220175E-01;7.179191227463690E-01;-4.717453376944729E-03;7.226542178220909E-04;4.385906042220175E-01;7.179191227463690E-01;
5.175175175175175E+07;-4.545549337107853E-03;8.318654348386732E-04;4.304225806215314E-01;7.270467854438216E-01;-4.545549337107853E-03;8.318654348386732E-04;4.304225806215314E-01;7.270467854438216E-01;
5.200200200200200E+07;-4.357601596011115E-03;9.557800023095023E-04;4.237260043769552E-01;7.383155336565210E-01;-4.357601596011115E-03;9.557800023095023E-04;4.237260043769552E-01;7.383155336565210E-01;
5.225225225225225E+07;-4.139165802119717E-03;1.079607251810833E-03;4.193845352206125E-01;7.497751137797214E-01;-4.139165802119717E-03;1.079607251810833E-03;4.193845352206125E-01;7.497751137797214E-01;
5.250250250250250E+07;-3.898782029337877E-03;1.195342470331992E-03;4.171692661605871E-01;7.608318577241199E-01;-3.898782029337877E-03;1.195342470331992E-03;4.171692661605871E-01;7.608318577241199E-01;
5.275275275275275E+07;-3.690634544548077E-03;1.237381182501910E-03;4.160835084333969E-01;7.704823570924331E-01;-3.690634544548077E-03;1.237381182501910E-03;4.160835084333969E-01;7.704823570924331E-01;
5.300300300300300E+07;-3.499328653783636E-03;1.263923192044016E-03;4.157503588747858E-01;7.788922071402107E-01;-3.499328653783636E-03;1.263923192044016E-03;4.157503588747858E-01;7.788922071402107E-01;
5.325325325325325E+07;-3.287506539672324E-03;1.281440262066462E-03;4.157301025464797E-01;7.860369142373080E-01;-3.287506539672324E-03;1.281440262066462E-03;4.157301025464797E-01;7.860369142373080E-01;
5.350350350350350E+07;-3.123458194603491E-03;1.266681916876757E-03;4.158860968527848E-01;7.923885993192693E-01;-3.123458194603491E-03;1.266681916876757E-03;4.158860968527848E-01;7.923885993192693E-01;
5.375375375375375E+07;-2.980720754011684E-03;1.243436009085672E-03;4.157973133968634E-01;7.977784439769058E-01;-2.980720754011684E-03;1.243436009085672E-03;4.157973133968634E-01;7.977784439769058E-01;
5.400400400400400E+07;-2.828962520370807E-03;1.222504907339970E-03;4.156794386140217E-01;8.027329540268346E-01;-2.828962520370807E-03;1.222504907339970E-03;4.156794386140217E-01;8.027329540268346E-01;
5.425425425425425E+07;-2.705398586000644E-03;1.186595157765612E-03;4.158967512726780E-01;8.069791412447738E-01;-2.705398586000644E-03;1.186595157765612E-03;4.158967512726780E-01;8.069791412447738E-01;
5.450450450450450E+07;-2.593826281528621E-03;1.152736410635696E-03;4.155036631932171E-01;8.105483935725877E-01;-2.593826281528621E-03;1.152736410635696E-03;4.155036631932171E-01;8.105483935725877E-01;
5.475475475475475E+07;-2.478589618095140E-03;1.101908904051312E-03;4.152902326017979E-01;8.139508265045651E-01;-2.478589618095140E-03;1.101908904051312E-03;4.152902326017979E-01;8.139508265045651E-01;
5.500500500500500E+07;-2.402858440805324E-03;1.041371116938793E-03;4.147625978812857E-01;8.167740747043066E-01;-2.402858440805324E-03;1.041371116938793E-03;4.147625978812857E-01;8.167740747043066E-01;
5.525525525525525E+07;-2.324260331478897E-03;1.022662941788377E-03;4.143198645882977E-01;8.192387707744534E-01;-2.324260331478897E-03;1.022662941788377E-03;4.143198645882977E-01;8.192387707744534E-01;
5.550550550550550E+07;-2.258409775853446E-03;9.785845493320213E-04;4.136201794387845E-01;8.214517798399623E-01;-2.258409775853446E-03;9.785845493320213E-04;4.136201794387845E-01;8.214517798399623E-01;
5.575575575575575E+07;-2.187753447296845E-03;9.328280145362294E-04;4.128587635928036E-01;8.232387908069558E-01;-2.187753447296845E-03;9.328280145362294E-04;4.128587635928036E-01;8.232387908069558E-01;
5.600600600600600E+07;-2.140004104075658E-03;8.844096486212215E-04;4.117669320338336E-01;8.248893752772197E-01;-2.140004104075658E-03;8.844096486212215E-04;4.117669320338336E-01;8.248893752772197E-01;
5.625625625625625E+07;-2.094394964171133E-03;8.455365139900509E-04;4.106798098727933E-01;8.263087691822242E-01;-2.094394964171133E-03;8.455365139900509E-04;4.106798098727933E-01;8.263087691822242E-01;
5.650650650650650E+07;-2.041915449589109E-03;8.059758472107792E-04;4.095164306422515E-01;8.275510654350032E-01;-2.041915449589109E-03;8.059758472107792E-04;4.095164306422515E-01;8.275510654350032E-01;
5.675675675675675E+07;-2.003165877164246E-03;7.491877294354825E-04;4.081935587866306E-01;8.286113009014340E-01;-2.003165877164246E-03;7.491877294354825E-04;4.081935587866306E-01;8.286113009014340E-01;
5.700700700700700E+07;-1.964553592387800E-03;7.164454729318232E-04;4.065352764459730E-01;8.293623100521017E-01;-1.964553592387800E-03;7.164454729318232E-04;4.065352764459730E-01;8.293623100521017E-01;
5.725725725725726E+07;-1.932685009556977E-03;6.732747777530920E-04;4.050704814394507E-01;8.300766940867135E-01;-1.932685009556977E-03;6.732747777530920E-04;4.050704814394507E-01;8.300766940867135E-01;
5.750750750750751E+07;-1.915440859057116E-03;6.383205023126026E-04;4.034811770874763E-01;8.307348236833295E-01;-1.915440859057116E-03;6.383205023126026E-04;4.034811770874763E-01;8.307348236833295E-01;
5.775775775775776E+07;-1.880888968462865E-03;5.965605860508413E-04;4.018305986676529E-01;8.312471910510250E-01;-1.880888968462865E-03;5.965605860508413E-04;4.018305986676529E-01;8.312471910510250E-01;
5.800800800800801E+07;-1.855897337640746E-03;5.644778741051941E-04;4.060055565602247E-01;8.283888735298099E-01;-1.855897337640746E-03;5.644778741051941E-04;4.060055565602247E-01;8.283888735298099E-01;
5.825825825825826E+07;-1.845865785394157E-03;5.227085004162835E-04;4.044113443411029E-01;8.285213687442115E-01;-1.845865785394157E-03;5.227085004162835E-04;4.044113443411029E-01;8.285213687442115E-01;
5.850850850850851E+07;-1.830284239254545E-03;4.746471597171269E-04;4.027217980318940E-01;8.284300173692269E-01;-1.830284239254545E-03;4.746471597171269E-04;4.027217980318940E-01;8.284300173692269E-01;
5.875875875875876E+07;-1.795823343738710E-03;4.372621572616438E-04;4.008231168405862E-01;8.280077249323181E-01;-1.795823343738710E-03;4.372621572616438E-04;4.008231168405862E-01;8.280077249323181E-01;
5.900900900900901E+07;-1.803107679832663E-03;3.813870917042937E-04;3.988688631768832E-01;8.274568886289980E-01;-1.803107679832663E-03;3.813870917042937E-04;3.988688631768832E-01;8.274568886289980E-01;
5.925925925925926E+07;-1.799216611684901E-03;3.622520099062781E-04;3.964621542538950E-01;8.266804964445083E-01;-1.799216611684901E-03;3.622520099062781E-04;3.964621542538950E-01;8.266804964445083E-01;
5.950950950950951E+07;-1.802515319401249E-03;2.994864072478408E-04;3.937823807258842E-01;8.259102341494192E-01;-1.802515319401249E-03;2.994864072478408E-04;3.937823807258842E-01;8.259102341494192E-01;
5.975975975975976E+07;-1.812326065946768E-03;2.561545993552893E-04;3.908056556896949E-01;8.253990568057654E-01;-1.812326065946768E-03;2.561545993552893E-04;3.908056556896949E-01;8.253990568057654E-01;
6.001001001001001E+07;-1.799866449089582E-03;2.188992528929289E-04;3.872836325623116E-01;8.250689999061249E-01;-1.799866449089582E-03;2.188992528929289E-04;3.872836325623116E-01;8.250689999061249E-01;
6.026026026026026E+07;-1.834261930594581E-03;1.887661620982265E-04;3.839332846351504E-01;8.254302018035629E-01;-1.834261930594581E-03;1.887661620982265E-04;3.839332846351504E-01;8.254302018035629E-01;
6.051051051051051E+07;-1.853002574631199E-03;1.562833990851746E-04;3.807372670596677E-01;8.263281752707629E-01;-1.853002574631199E-03;1.562833990851746E-04;3.807372670596677E-01;8.263281752707629E-01;
6.076076076076076E+07;-1.869508931533438E-03;1.365565941001987E-04;3.780014981859656E-01;8.277972797301465E-01;-1.869508931533438E-03;1.365565941001987E-04;3.780014981859656E-01;8.277972797301465E-01;
6.101101101101101E+07;-1.876850070441746E-03;1.281775321811204E-04;3.757961408301088E-01;8.294695878588987E-01;-1.876850070441746E-03;1.281775321811204E-04;3.757961408301088E-01;8.294695878588987E-01;
6.126126126126126E+07;-1.880710314348754E-03;1.118648128750957E-04;3.742978199114566E-01;8.310960542878358E-01;-1.880710314348754E-03;1.118648128750957E-04;3.742978199114566E-01;8.310960542878358E-01;
6.151151151151151E+07;-1.902890366379531E-03;9.644234752160657E-05;3.731594470589794E-01;8.327060313440939E-01;-1.902890366379531E-03;9.644234752160657E-05;3.731594470589794E-01;8.327060313440939E-01;
6.176176176176176E+07;-1.899209509462798E-03;8.305533102636425E-05;3.728671688779430E-01;8.337495737733170E-01;-1.899209509462798E-03;8.305533102636425E-05;3.728671688779430E-01;8.337495737733170E-01;
6.201201201201201E+07;-1.906293813374800E-03;6.888747645793561E-05;3.724494634887802E-01;8.346568083157808E-01;-1.906293813374800E-03;6.888747645793561E-05;3.724494634887802E-01;8.346568083157808E-01;
6.226226226226226E+07;-1.900172687096204E-03;5.249747301523188E-05;3.724309414556624E-01;8.352009185097377E-01;-1.900172687096204E-03;5.249747301523188E-05;3.724309414556624E-01;8.352009185097377E-01;
6.251251251251251E+07;-1.907068886107221E-03;3.865803287304098E-05;3.725459761213941E-01;8.355334275718697E-01;-1.907068886107221E-03;3.865803287304098E-05;3.725459761213941E-01;8.355334275718697E-01;
6.276276276276276E+07;-1.916393860627824E-03;1.342011486491641E-05;3.728567998379947E-01;8.357183502907606E-01;-1.916393860627824E-03;1.342011486491641E-05;3.728567998379947E-01;8.357183502907606E-01;
6.301301301301301E+07;-1.921918244085055E-03;-1.186510226869515E-05;3.733072510746894E-01;8.355845678922922E-01;-1.921918244085055E-03;-1.186510226869515E-05;3.733072510746894E-01;8.355845678922922E-01;
6.326326326326326E+07;-1.932175854326811E-03;-3.602003204622286E-05;3.739117183020081E-01;8.352744252860864E-01;-1.932175854326811E-03;-3.602003204622286E-05;3.739117183020081E-01;8.352744252860864E-01;
6.351351351351351E+07;-1.938139777615515E-03;-5.323089938800157E-05;3.745636398968175E-01;8.348041692518321E-01;-1.938139777615515E-03;-5.323089938800157E-05;3.745636398968175E-01;8.348041692518321E-01;
6.376376376376376E+07;-1.948167034328823E-03;-8.505201436464086E-05;3.752969331494116E-01;8.342361797593951E-01;-1.948167034328823E-03;-8.505201436464086E-05;3.752969331494116E-01;8.342361797593951E-01;
6.401401401401401E+07;-1.969945557522626E-03;-1.169298312881156E-04;3.762836531409492E-01;8.334315016241708E-01;-1.969945557522626E-03;-1.169298312881156E-04;3.762836531409492E-01;8.334315016241708E-01;
6.426426426426426E+07;-1.966046574758114E-03;-1.214922067800726E-04;3.773000988124022E-01;8.325560984633853E-01;-1.966046574758114E-03;-1.214922067800726E-04;3.773000988124022E-01;8.325560984633853E-01;
6.451451451451451E+07;-1.982623374505322E-03;-1.500938809699790E-04;3.784866774798364E-01;8.314891429135167E-01;-1.982623374505322E-03;-1.500938809699790E-04;3.784866774798364E-01;8.314891429135167E-01;
6.476476476476476E+07;-1.990761786083229E-03;-1.763075081320599E-04;3.799130170241730E-01;8.302860244216136E-01;-1.990761786083229E-03;-1.763075081320599E-04;3.799130170241730E-01;8.302860244216136E-01;
6.501501501501501E+07;-2.004696235573220E-03;-2.026631334968496E-04;3.814625686496115E-01;8.290026627869560E-01;-2.004696235573220E-03;-2.026631334968496E-04;3.814625686496115E-01;8.290026627869560E-01;
6.526526526526526E+07;-2.021435072870004E-03;-2.414682281070404E-04;3.832220150856817E-01;8.275179288485199E-01;-2.021435072870004E-03;-2.414682281070404E-04;3.832220150856817E-01;8.275179288485199E-01;
6.551551551551551E+07;-2.043624447640461E-03;-2.565837629307450E-04;3.850205885175710E-01;8.258048452367159E-01;-2.043624447640461E-03;-2.565837629307450E-04;3.850205885175710E-01;8.258048452367159E-01;
6.576576576576576E+07;-2.054051727672128E-03;-2.768674693070643E-04;3.797071745815752E-01;8.281205949540515E-01;-2.054051727672128E-03;-2.768674693070643E-04;3.797071745815752E-01;8.281205949540515E-01;
6.601601601601601E+07;-2.068255598062625E-03;-2.985238828525898E-04;3.819469186022098E-01;8.261474106223587E-01;-2.068255598062625E-03;-2.985238828525898E-04;3.819469186022098E-01;8.261474106223587E-01;
6.626626626626626E+07;-2.099667645149045E-03;-3.333128651576192E-04;3.842009426232640E-01;8.239981936057200E-01;-2.099667645149045E-03;-3.333128651576192E-04;3.842009426232640E-01;8.239981936057200E-01;
6.651651651651651E+07;-2.113515536786337E-03;-3.552281100208750E-04;3.864149758877324E-01;8.217797874201194E-01;-2.113515536786337E-03;-3.552281100208750E-04;3.864149758877324E-01;8.217797874201194E-01;
6.676676676676676E+07;-2.147455200426498E-03;-3.710618007292930E-04;3.887184317178908E-01;8.194507965842029E-01;-2.147455200426498E-03;-3.710618007292930E-04;3.887184317178908E-01;8.194507965842029E-01;
6.701701701701702E+07;-2.159911700619162E-03;-4.181183477313627E-04;3.922606622780867E-01;8.160216785359503E-01;-2.159911700619162E-03;-4.181183477313627E-04;3.922606622780867E-01;8.160216785359503E-01;
6.726726726726727E+07;-2.186769664003164E-03;-4.396842245707815E-04;3.949561914458438E-01;8.133562239339788E-01;-2.186769664003164E-03;-4.396842245707815E-04;3.949561914458438E-01;8.133562239339788E-01;
6.751751751751752E+07;-2.219984336104380E-03;-4.656981731704731E-04;3.976429360372101E-01;8.105897955979218E-01;-2.219984336104380E-03;-4.656981731704731E-04;3.976429360372101E-01;8.105897955979218E-01;
6.776776776776777E+07;-2.229807210886605E-03;-4.791516748563156E-04;4.003606561135482E-01;8.077539599491339E-01;-2.229807210886605E-03;-4.791516748563156E-04;4.003606561135482E-01;8.077539599491339E-01;
6.801801801801802E+07;-2.262198614078001E-03;-5.185041600446167E-04;4.030686775634446E-01;8.046749169437399E-01;-2.262198614078001E-03;-5.185041600446167E-04;4.030686775634446E-01;8.046749169437399E-01;
6.826826826826827E+07;-2.289960686011921E-03;-5.442410596674983E-04;4.060891631715262E-01;8.014061682094588E-01;-2.289960686011921E-03;-5.442410596674983E-04;4.060891631715262E-01;8.014061682094588E-01;
6.851851851851852E+07;-2.313774946504951E-03;-5.814493728809817E-04;4.094418267271189E-01;7.976701118504859E-01;-2.313774946504951E-03;-5.814493728809817E-04;4.094418267271189E-01;7.976701118504859E-01;
6.876876876876877E+07;-2.341754545137432E-03;-6.129687464710281E-04;4.171098459574165E-01;7.923469760579631E-01;-2.341754545137432E-03;-6.129687464710281E-04;4.171098459574165E-01;7.923469760579631E-01;
6.901901901901902E+07;-2.362518051870014E-03;-6.649323091791349E-04;4.214688665280840E-01;7.879180802959153E-01;-2.362518051870014E-03;-6.649323091791349E-04;4.214688665280840E-01;7.879180802959153E-01;
6.926926926926927E+07;-2.395548143479300E-03;-7.184157695549741E-04;4.267858251271669E-01;7.830365174934449E-01;-2.395548143479300E-03;-7.184157695549741E-04;4.267858251271669E-01;7.830365174934449E-01;
6.951951951951952E+07;-2.433727622920243E-03;-7.636530484114592E-04;4.323828607825120E-01;7.779810427559262E-01;-2.433727622920243E-03;-7.636530484114592E-04;4.323828607825120E-01;7.779810427559262E-01;
6.976976976976977E+07;-2.462108107241294E-03;-8.178200776720243E-04;4.383152042429180E-01;7.727317533699426E-01;-2.462108107241294E-03;-8.178200776720243E-04;4.383152042429180E-01;7.727317533699426E-01;
7.002002002002002E+07;-2.497090520588602E-03;-8.623061538826061E-04;4.444104980066463E-01;7.672620625537331E-01;-2.497090520588602E-03;-8.623061538826061E-04;4.444104980066463E-01;7.672620625537331E-01;
7.027027027027027E+07;-2.541286830469244E-03;-9.155064550199246E-04;4.507317655860871E-01;7.617320141704137E-01;-2.541286830469244E-03;-9.155064550199246E-04;4.507317655860871E-01;7.617320141704137E-01;
7.052052052052052E+07;-2.583583059556426E-03;-9.615630384530824E-04;4.571935464756771E-01;7.558508016345499E-01;-2.583583059556426E-03;-9.615630384530824E-04;4.571935464756771E-01;7.558508016345499E-01;
7.077077077077077E+07;-2.639674833398310E-03;-1.007059216647057E-03;4.639561782484946E-01;7.496646440773125E-01;-2.639674833398310E-03;-1.007059216647057E-03;4.639561782484946E-01;7.496646440773125E-01;
7.102102102102102E+07;-2.690184741404148E-03;-1.057767587062715E-03;4.710153440243168E-01;7.430516716077332E-01;-2.690184741404148E-03;-1.057767587062715E-03;4.710153440243168E-01;7.430516716077332E-01;
7.127127127127127E+07;-2.759829126464758E-03;-1.108193810567336E-03;4.783855474616864E-01;7.359261597150477E-01;-2.759829126464758E-03;-1.108193810567336E-03;4.783855474616864E-01;7.359261597150477E-01;
7.152152152152152E+07;-2.808405072618819E-03;-1.154673659064815E-03;4.859392371540935E-01;7.283517053887095E-01;-2.808405072618819E-03;-1.154673659064815E-03;4.859392371540935E-01;7.283517053887095E-01;
7.177177177177177E+07;-2.873137539570416E-03;-1.206367052289747E-03;4.937558932742918E-01;7.203881840557735E-01;-2.873137539570416E-03;-1.206367052289747E-03;4.937558932742918E-01;7.203881840557735E-01;
7.202202202202202E+07;-2.952018242329033E-03;-1.253390899295348E-03;5.017720516127966E-01;7.117357381262895E-01;-2.952018242329033E-03;-1.253390899295348E-03;5.017720516127966E-01;7.117357381262895E-01;
7.227227227227227E+07;-3.038836991708278E-03;-1.322091654476056E-03;5.104591014994755E-01;7.022362315499113E-01;-3.038836991708278E-03;-1.322091654476056E-03;5.104591014994755E-01;7.022362315499113E-01;
7.252252252252252E+07;-3.125554276152291E-03;-1.379019508355756E-03;5.197169162634100E-01;6.917731745572303E-01;-3.125554276152291E-03;-1.379019508355756E-03;5.197169162634100E-01;6.917731745572303E-01;
7.277277277277277E+07;-3.205695593533224E-03;-1.451109292642774E-03;5.296705648998837E-01;6.802863464382072E-01;-3.205695593533224E-03;-1.451109292642774E-03;5.296705648998837E-01;6.802863464382072E-01;
7.302302302302302E+07;-3.288689573991181E-03;-1.519071878166594E-03;5.403192527455826E-01;6.673756503605355E-01;-3.288689573991181E-03;-1.519071878166594E-03;5.403192527455826E-01;6.673756503605355E-01;
7.327327327327327E+07;-3.398858628675633E-03;-1.596430469551654E-03;5.513409276900975E-01;6.531610202835033E-01;-3.398858628675633E-03;-1.596430469551654E-03;5.513409276900975E-01;6.531610202835033E-01;
7.352352352352352E+07;-3.518278020328233E-03;-1.653292951392662E-03;5.627811080320293E-01;6.378935263503070E-01;-3.518278020328233E-03;-1.653292951392662E-03;5.627811080320293E-01;6.378935263503070E-01;
7.377377377377377E+07;-3.629205542118503E-03;-1.717722170536037E-03;5.743471900900442E-01;6.213889867538219E-01;-3.629205542118503E-03;-1.717722170536037E-03;5.743471900900442E-01;6.213889867538219E-01;
7.402402402402402E+07;-3.753182348129453E-03;-1.780829502790015E-03;5.860003595593500E-01;6.036608093047937E-01;-3.753182348129453E-03;-1.780829502790015E-03;5.860003595593500E-01;6.036608093047937E-01;
