# Version 1.00
#
freq[Hz];re:Smith_S11;im:Smith_S11;re:Magnitude_Z<-S11[Ohm];im:Magnitude_Z<-S11[Ohm];re:Phase_S11;im:Phase_S11;
8.000000000000000E+07;-7.721562301697042E-01;-5.111297969001853E-01;2.094794643271773E+00;-1.502531286591053E+01;-7.721562301697042E-01;-5.111297969001853E-01;
8.050000000000000E+07;-7.978394514156201E-01;-4.688619429835484E-01;2.080218224264436E+00;-1.358209838392897E+01;-7.978394514156201E-01;-4.688619429835484E-01;
8.100000000000000E+07;-8.214781483437362E-01;-4.245518665636236E-01;2.071587314737260E+00;-1.213689530643247E+01;-8.214781483437362E-01;-4.245518665636236E-01;
8.150000000000000E+07;-8.429311326453723E-01;-3.782193019908435E-01;2.068364746673145E+00;-1.068583639477800E+01;-8.429311326453723E-01;-3.782193019908435E-01;
8.200000000000000E+07;-8.618879883860606E-01;-3.308025527192445E-01;2.065385953133970E+00;-9.250482676210360E+00;-8.618879883860606E-01;-3.308025527192445E-01;
8.250000000000000E+07;-8.781882791220311E-01;-2.831431296629845E-01;2.059661165169620E+00;-7.848167063629591E+00;-8.781882791220311E-01;-2.831431296629845E-01;
8.300000000000000E+07;-8.917407687084509E-01;-2.350770402730084E-01;2.057505180623795E+00;-6.468922404316937E+00;-8.917407687084509E-01;-2.350770402730084E-01;
8.350000000000000E+07;-9.023763525803893E-01;-1.881224418973974E-01;2.056778160781754E+00;-5.147797496344007E+00;-9.023763525803893E-01;-1.881224418973974E-01;
8.400000000000000E+07;-9.106849355883416E-01;-1.376731821917222E-01;2.066929843308857E+00;-3.751649361423486E+00;-9.106849355883416E-01;-1.376731821917222E-01;
8.450000000000000E+07;-9.160923741003995E-01;-8.618205809764973E-02;2.084183141128090E+00;-2.342643892387899E+00;-9.160923741003995E-01;-8.618205809764973E-02;
8.500000000000000E+07;-9.185280609612912E-01;-3.491925489092513E-02;2.106031246853747E+00;-9.483852873914811E-01;-9.185280609612912E-01;-3.491925489092513E-02;
8.550000000000000E+07;-9.181274769997688E-01;1.552576517807909E-02;2.130762930059131E+00;4.219583909366553E-01;-9.181274769997688E-01;1.552576517807909E-02;
8.600000000000000E+07;-9.150664039987257E-01;6.560344304581922E-02;2.156304693745921E+00;1.786691655867423E+00;-9.150664039987257E-01;6.560344304581922E-02;
8.650000000000000E+07;-9.089628083379677E-01;1.152589354532981E-01;2.194194702022911E+00;3.151369577197270E+00;-9.089628083379677E-01;1.152589354532981E-01;
8.700000000000000E+07;-9.003252615253851E-01;1.645040792649151E-01;2.231164752343291E+00;4.521457373892592E+00;-9.003252615253851E-01;1.645040792649151E-01;
8.750000000000000E+07;-8.887546654185545E-01;2.129415327206857E-01;2.280417725490458E+00;5.894186516424357E+00;-8.887546654185545E-01;2.129415327206857E-01;
8.800000000000000E+07;-8.748249292850577E-01;2.603363570705580E-01;2.329308847976154E+00;7.266396675607084E+00;-8.748249292850577E-01;2.603363570705580E-01;
8.850000000000000E+07;-8.584749558900828E-01;3.071277049769209E-01;2.377129707529342E+00;8.655735493969928E+00;-8.584749558900828E-01;3.071277049769209E-01;
8.900000000000000E+07;-8.394126241271535E-01;3.528323049056887E-01;2.435850180728287E+00;1.005813575283846E+01;-8.394126241271535E-01;3.528323049056887E-01;
8.950000000000000E+07;-8.178206369558682E-01;3.977678544391255E-01;2.497337086138369E+00;1.148724616279496E+01;-8.178206369558682E-01;3.977678544391255E-01;
9.000000000000000E+07;-7.938690161076769E-01;4.411835300667496E-01;2.565911893434659E+00;1.292804232755151E+01;-7.938690161076769E-01;4.411835300667496E-01;
9.050000000000000E+07;-7.671822896853728E-01;4.832802899130155E-01;2.649662778153774E+00;1.439836990205395E+01;-7.671822896853728E-01;4.832802899130155E-01;
9.100000000000000E+07;-7.380436413789014E-01;5.240438789890983E-01;2.741224535169775E+00;1.590219901849980E+01;-7.380436413789014E-01;5.240438789890983E-01;
9.150000000000000E+07;-7.067553223363315E-01;5.626842447339272E-01;2.846820059854751E+00;1.742257524720310E+01;-7.067553223363315E-01;5.626842447339272E-01;
9.200000000000000E+07;-6.734656756406476E-01;5.993742255416953E-01;2.962185327038043E+00;1.896911856362793E+01;-6.734656756406476E-01;5.993742255416953E-01;
9.250000000000000E+07;-6.382944739091801E-01;6.337838731320818E-01;3.093280893616612E+00;2.053944863877462E+01;-6.382944739091801E-01;6.337838731320818E-01;
9.300000000000000E+07;-6.015464066906480E-01;6.660796385472963E-01;3.232051399658922E+00;2.213909344574159E+01;-6.015464066906480E-01;6.660796385472963E-01;
9.350000000000000E+07;-5.631614672404024E-01;6.965535328928241E-01;3.374620088150884E+00;2.378403061255607E+01;-5.631614672404024E-01;6.965535328928241E-01;
9.400000000000000E+07;-5.234402941813268E-01;7.244706272151461E-01;3.534290124391702E+00;2.545818230754990E+01;-5.234402941813268E-01;7.244706272151461E-01;
9.450000000000000E+07;-4.821845673745471E-01;7.505903070394376E-01;3.697341249400155E+00;2.719276987681909E+01;-4.821845673745471E-01;7.505903070394376E-01;
9.500000000000000E+07;-4.391078948138626E-01;7.741576211320982E-01;3.892076193952987E+00;2.899085027226308E+01;-4.391078948138626E-01;7.741576211320982E-01;
9.550000000000000E+07;-3.951590191860955E-01;7.954068741925281E-01;4.093945846738500E+00;3.083999442858848E+01;-3.951590191860955E-01;7.954068741925281E-01;
9.600000000000000E+07;-3.494892071426378E-01;8.138724298334316E-01;4.337993597200051E+00;3.277106230057626E+01;-3.494892071426378E-01;8.138724298334316E-01;
9.650000000000000E+07;-3.026752312535635E-01;8.292068365546791E-01;4.629888843681427E+00;3.477419100523709E+01;-3.026752312535635E-01;8.292068365546791E-01;
9.700000000000000E+07;-2.550599290066007E-01;8.415397692375102E-01;4.965375405928348E+00;3.685525150322506E+01;-2.550599290066007E-01;8.415397692375102E-01;
9.750000000000000E+07;-2.067502708205677E-01;8.501574252144578E-01;5.380568746413352E+00;3.901569601500734E+01;-2.067502708205677E-01;8.501574252144578E-01;
9.800000000000000E+07;-1.583318035424136E-01;8.544652560223669E-01;5.908268969819673E+00;4.124178686363342E+01;-1.583318035424136E-01;8.544652560223669E-01;
9.850000000000000E+07;-1.115576812547155E-01;8.540818749753696E-01;6.567350889779092E+00;4.346436530023053E+01;-1.115576812547155E-01;8.540818749753696E-01;
9.900000000000000E+07;-6.730986721824393E-02;8.512940804157727E-01;7.263660839277108E+00;4.567391063521860E+01;-6.730986721824393E-02;8.512940804157727E-01;
9.950000000000000E+07;-2.631065538487256E-02;8.462508230097908E-01;8.001544297838409E+00;4.782553346820497E+01;-2.631065538487256E-02;8.462508230097908E-01;
1.000000000000000E+08;1.140514286309610E-02;8.412873879369379E-01;8.667384190634772E+00;4.992553829965649E+01;1.140514286309610E-02;8.412873879369379E-01;
1.005000000000000E+08;4.725692728394895E-02;8.378882921564981E-01;9.184817161913148E+00;5.204998786505955E+01;4.725692728394895E-02;8.378882921564981E-01;
1.010000000000000E+08;8.386380203403258E-02;8.369679734464349E-01;9.496282002447717E+00;5.435489033808060E+01;8.386380203403258E-02;8.369679734464349E-01;
1.015000000000000E+08;1.216961075897696E-01;8.366735488183384E-01;9.690077793211493E+00;5.686085379792772E+01;1.216961075897696E-01;8.366735488183384E-01;
1.020000000000000E+08;1.631365598378265E-01;8.350286659765144E-01;9.878039645230556E+00;5.974676054262374E+01;1.631365598378265E-01;8.350286659765144E-01;
1.025000000000000E+08;2.060717866525648E-01;8.305800266852624E-01;1.013763979148488E+01;6.291390282277537E+01;2.060717866525648E-01;8.305800266852624E-01;
1.030000000000000E+08;2.496360632962341E-01;8.235188688627306E-01;1.045328590636444E+01;6.634703401037615E+01;2.496360632962341E-01;8.235188688627306E-01;
1.035000000000000E+08;2.939075234372412E-01;8.144277556858027E-01;1.077263958480305E+01;7.009694354072916E+01;2.939075234372412E-01;8.144277556858027E-01;
1.040000000000000E+08;3.390960248079828E-01;8.030341528717693E-01;1.110101594634269E+01;7.424104623643731E+01;3.390960248079828E-01;8.030341528717693E-01;
1.045000000000000E+08;3.854587601849054E-01;7.881402214095733E-01;1.152635937060991E+01;7.890666297914805E+01;3.854587601849054E-01;7.881402214095733E-01;
1.050000000000000E+08;4.316520335031608E-01;7.692085171939104E-01;1.213482557070994E+01;8.409397035049278E+01;4.316520335031608E-01;7.692085171939104E-01;
1.055000000000000E+08;4.777367483237628E-01;7.460167402357402E-01;1.297640501231924E+01;8.995741559121031E+01;4.777367483237628E-01;7.460167402357402E-01;
1.060000000000000E+08;5.215661900227332E-01;7.187997434589839E-01;1.417003612040927E+01;9.640916787067286E+01;5.215661900227332E-01;7.187997434589839E-01;
1.065000000000000E+08;5.635511142814911E-01;6.875952885939064E-01;1.580210990200263E+01;1.036667115638753E+02;5.635511142814911E-01;6.875952885939064E-01;
1.070000000000000E+08;6.013382885121971E-01;6.525927106941279E-01;1.816962738943089E+01;1.115908567167190E+02;6.013382885121971E-01;6.525927106941279E-01;
1.075000000000000E+08;6.338896482754809E-01;6.181504747697817E-01;2.093143895580691E+01;1.197625318707954E+02;6.338896482754809E-01;6.181504747697817E-01;
1.080000000000000E+08;6.668591539030218E-01;5.847740330770552E-01;2.355020022858746E+01;1.291052950282045E+02;6.668591539030218E-01;5.847740330770552E-01;
1.085000000000000E+08;6.998375338501640E-01;5.489867227541353E-01;2.667299850641971E+01;1.402322505997810E+02;6.998375338501640E-01;5.489867227541353E-01;
1.090000000000000E+08;7.313835734702984E-01;5.103460292753057E-01;3.076069856404060E+01;1.534377564549302E+02;7.313835734702984E-01;5.103460292753057E-01;
1.095000000000000E+08;7.607801926551011E-01;4.692475137395850E-01;3.623039861185086E+01;1.691473653728248E+02;7.607801926551011E-01;4.692475137395850E-01;
1.100000000000000E+08;7.875218911120697E-01;4.260526829025515E-01;4.373985883163789E+01;1.879634497838587E+02;7.875218911120697E-01;4.260526829025515E-01;
1.105000000000000E+08;8.114544908013824E-01;3.806457750200266E-01;5.449172383694280E+01;2.109534900732778E+02;8.114544908013824E-01;3.806457750200266E-01;
1.110000000000000E+08;8.326714542469071E-01;3.341756495359492E-01;6.980088908674888E+01;2.392570839922484E+02;8.326714542469071E-01;3.341756495359492E-01;
1.115000000000000E+08;8.507768061458317E-01;2.866195293601357E-01;9.290902141725338E+01;2.744916215904097E+02;8.507768061458317E-01;2.866195293601357E-01;
1.120000000000000E+08;8.665453108707197E-01;2.378190317697825E-01;1.294516549061111E+02;3.197865814809578E+02;8.665453108707197E-01;2.378190317697825E-01;
1.125000000000000E+08;8.794230461059033E-01;1.883442394390908E-01;1.910943365587794E+02;3.765954271171768E+02;8.794230461059033E-01;1.883442394390908E-01;
1.130000000000000E+08;8.894447086494385E-01;1.378664331851961E-01;3.040077357952542E+02;4.414604064431429E+02;8.894447086494385E-01;1.378664331851961E-01;
1.135000000000000E+08;8.963197545650861E-01;8.684940081440488E-02;5.167937451265218E+02;4.747837637063923E+02;8.963197545650861E-01;8.684940081440488E-02;
1.140000000000000E+08;9.002972967142704E-01;3.528729302276711E-02;8.413310302223432E+02;3.154644579054510E+02;9.002972967142704E-01;3.528729302276711E-02;
1.145000000000000E+08;9.011247499911451E-01;-1.613569746966963E-02;9.351394227256816E+02;-1.607673476337406E+02;9.011247499911451E-01;-1.613569746966963E-02;
1.150000000000000E+08;8.991145888561471E-01;-6.766589436283701E-02;6.336657845371104E+02;-4.585485277946748E+02;8.991145888561471E-01;-6.766589436283701E-02;
1.155000000000000E+08;8.944046821929450E-01;-1.190886483908080E-01;3.668377078963381E+02;-4.701026547635502E+02;8.944046821929450E-01;-1.190886483908080E-01;
1.160000000000000E+08;8.868150469733541E-01;-1.703418940297237E-01;2.206013504039271E+02;-4.072515411474733E+02;8.868150469733541E-01;-1.703418940297237E-01;
1.165000000000000E+08;8.760014334050876E-01;-2.215211411988861E-01;1.424031612868972E+02;-3.437246818972143E+02;8.760014334050876E-01;-2.215211411988861E-01;
1.170000000000000E+08;8.621148077770991E-01;-2.721970667378558E-01;9.809871753409671E+01;-2.923594321517296E+02;8.621148077770991E-01;-2.721970667378558E-01;
1.175000000000000E+08;8.448785250830100E-01;-3.219501688941849E-01;7.145948488585103E+01;-2.520856747508755E+02;8.448785250830100E-01;-3.219501688941849E-01;
1.180000000000000E+08;8.248858742310800E-01;-3.705778371439263E-01;5.423900995141807E+01;-2.205913811019162E+02;8.248858742310800E-01;-3.705778371439263E-01;
1.185000000000000E+08;8.018289233953421E-01;-4.178629800416988E-01;4.265472340200157E+01;-1.953714916376938E+02;8.018289233953421E-01;-4.178629800416988E-01;
1.190000000000000E+08;7.760412422201504E-01;-4.635263689244917E-01;3.450820408271234E+01;-1.749062254635973E+02;7.760412422201504E-01;-4.635263689244917E-01;
1.195000000000000E+08;7.475451776789477E-01;-5.074970358978356E-01;2.857618725332078E+01;-1.579576961794015E+02;7.475451776789477E-01;-5.074970358978356E-01;
1.200000000000000E+08;7.167832689338425E-01;-5.496139962688587E-01;2.408479420513346E+01;-1.437698954174000E+02;7.167832689338425E-01;-5.496139962688587E-01;
1.205000000000000E+08;6.836188265919995E-01;-5.899439974135056E-01;2.060015859789898E+01;-1.316454431615645E+02;6.836188265919995E-01;-5.899439974135056E-01;
1.210000000000000E+08;6.483598162593459E-01;-6.281808464695980E-01;1.784988815345136E+01;-1.212091283757767E+02;6.483820336815637E-01;-6.281332716806032E-01;
1.215000000000000E+08;6.108892942555091E-01;-6.643617586149911E-01;1.564126406664803E+01;-1.120749056482282E+02;6.108892942555091E-01;-6.643617586149911E-01;
1.220000000000000E+08;5.714837609969057E-01;-6.983718492821022E-01;1.382909325027910E+01;-1.040250936461600E+02;5.714837609969057E-01;-6.983718492821022E-01;
1.225000000000000E+08;5.302061520549921E-01;-7.300543901758706E-01;1.233286173331122E+01;-9.686457061897534E+01;5.302061520549921E-01;-7.300543901758706E-01;
1.230000000000000E+08;4.871690182445435E-01;-7.592810324152184E-01;1.108742878236087E+01;-9.044407932354524E+01;4.871690182445435E-01;-7.592810324152184E-01;
1.235000000000000E+08;4.422629828631222E-01;-7.857552869218041E-01;1.006977479851365E+01;-8.462795489966655E+01;4.422629828631222E-01;-7.857552869218041E-01;
1.240000000000000E+08;3.960841549399028E-01;-8.095183944525517E-01;9.205440284093070E+00;-7.936187360155458E+01;3.960841549399028E-01;-8.095183944525517E-01;
1.245000000000000E+08;3.486949308682504E-01;-8.304032557879588E-01;8.477631860946577E+00;-7.455801925944586E+01;3.486949308682504E-01;-8.304032557879588E-01;
1.250000000000000E+08;3.004402365319208E-01;-8.483333745433982E-01;7.860122370101897E+00;-7.016508871005446E+01;3.004402365319208E-01;-8.483333745433982E-01;
1.255000000000000E+08;2.515984283442769E-01;-8.634991485549212E-01;7.316467355090300E+00;-6.613123573458216E+01;2.515984283442769E-01;-8.634991485549212E-01;
1.260000000000000E+08;2.019560572022542E-01;-8.760421946291400E-01;6.827620114853556E+00;-6.238176918734456E+01;2.019560572022542E-01;-8.760421946291400E-01;
1.265000000000000E+08;1.514687041151614E-01;-8.858703157391056E-01;6.389375583021464E+00;-5.887075019427672E+01;1.514687041151614E-01;-8.858703157391056E-01;
1.270000000000000E+08;1.003552545210092E-01;-8.927599625008533E-01;6.004443217341886E+00;-5.557585355536645E+01;1.003552545210092E-01;-8.927599625008533E-01;
1.275000000000000E+08;4.884939044741456E-02;-8.966619675546617E-01;5.665481572781317E+00;-5.247656862187853E+01;4.884939044741456E-02;-8.966619675546617E-01;
1.280000000000000E+08;-2.673306475429441E-03;-8.976187108870021E-01;5.363491464330993E+00;-4.956280925948248E+01;-2.673306475429441E-03;-8.976187108870021E-01;
1.285000000000000E+08;-5.408475844844710E-02;-8.956263486487129E-01;5.094189875438969E+00;-4.681199278749612E+01;-5.408475844844710E-02;-8.956263486487129E-01;
1.290000000000000E+08;-1.055440463241887E-01;-8.908053261702977E-01;4.844975440593885E+00;-4.419199433853552E+01;-1.055440463241887E-01;-8.908053261702977E-01;
1.295000000000000E+08;-1.563222451250958E-01;-8.829452100736154E-01;4.629224179597914E+00;-4.171381465916145E+01;-1.563222451250958E-01;-8.829452100736154E-01;
1.300000000000000E+08;-2.065917643681192E-01;-8.720517264212688E-01;4.440785617451654E+00;-3.934651510761073E+01;-2.065917643681192E-01;-8.720517264212688E-01;
1.305000000000000E+08;-2.561371503639479E-01;-8.585766129959355E-01;4.259979135827849E+00;-3.708699252639050E+01;-2.561371503639479E-01;-8.585766129959355E-01;
1.310000000000000E+08;-3.045436576872485E-01;-8.423191358199719E-01;4.100458420636646E+00;-3.493164150989258E+01;-3.045436576872485E-01;-8.423191358199719E-01;
1.315000000000000E+08;-3.520478369187916E-01;-8.235729606538837E-01;3.945845335121987E+00;-3.286003523282988E+01;-3.520478369187916E-01;-8.235729606538837E-01;
1.320000000000000E+08;-3.987036131140903E-01;-8.021605607084460E-01;3.799740910011869E+00;-3.085430675213682E+01;-3.987036131140903E-01;-8.021605607084460E-01;
1.325000000000000E+08;-4.439385390589644E-01;-7.778429713348267E-01;3.678048669790873E+00;-2.891611501690139E+01;-4.439385390589644E-01;-7.778429713348267E-01;
1.330000000000000E+08;-4.872941624321375E-01;-7.512781002652353E-01;3.567950231070132E+00;-2.705882192053405E+01;-4.872941624321375E-01;-7.512781002652353E-01;
1.335000000000000E+08;-5.292721599992710E-01;-7.223611415083749E-01;3.462101361152519E+00;-2.525315347838216E+01;-5.292721599992710E-01;-7.223611415083749E-01;
1.340000000000000E+08;-5.695115948352757E-01;-6.912916692340246E-01;3.362045327229608E+00;-2.350332263195151E+01;-5.695115948352757E-01;-6.912916692340246E-01;
1.345000000000000E+08;-6.084478924743442E-01;-6.580726657611294E-01;3.256967370498794E+00;-2.178930051252291E+01;-6.084478924743442E-01;-6.580726657611294E-01;
1.350000000000000E+08;-6.452643875780720E-01;-6.223969868942948E-01;3.171275874207054E+00;-2.011448259823311E+01;-6.452643875780720E-01;-6.223969868942948E-01;
1.355000000000000E+08;-6.802192639387372E-01;-5.846694341618168E-01;3.087913777826481E+00;-1.847311310819779E+01;-6.802192639387372E-01;-5.846694341618168E-01;
1.360000000000000E+08;-7.127266201556883E-01;-5.447747121976566E-01;3.022112482735227E+00;-1.686498342932754E+01;-7.127266201556883E-01;-5.447747121976566E-01;
1.365000000000000E+08;-7.424188579216081E-01;-5.027959687629157E-01;2.979944483926657E+00;-1.528800172857165E+01;-7.424188579216081E-01;-5.027959687629157E-01;
1.370000000000000E+08;-7.692083018036547E-01;-4.597177956853034E-01;2.947505074855122E+00;-1.375808054666824E+01;-7.692083018036547E-01;-4.597177956853034E-01;
1.375000000000000E+08;-7.935441000451893E-01;-4.153927188388599E-01;2.917027748837534E+00;-1.225581686500331E+01;-7.935441000451893E-01;-4.153927188388599E-01;
1.380000000000000E+08;-8.154400559184207E-01;-3.703955140187938E-01;2.881791274097851E+00;-1.078921785235977E+01;-8.154400559184207E-01;-3.703955140187938E-01;
1.385000000000000E+08;-8.349554479592769E-01;-3.240280059615074E-01;2.849252309377755E+00;-9.332454290053320E+00;-8.349554479592769E-01;-3.240280059615074E-01;
1.390000000000000E+08;-8.514297667416758E-01;-2.775482786080288E-01;2.825166626829075E+00;-7.919033348081832E+00;-8.514297667416758E-01;-2.775482786080288E-01;
1.395000000000000E+08;-8.657861950218221E-01;-2.292527729695856E-01;2.799566926958423E+00;-6.487585320276672E+00;-8.657861950218221E-01;-2.292527729695856E-01;
1.400000000000000E+08;-8.772141816890681E-01;-1.807207119969109E-01;2.781247395741574E+00;-5.081287315260359E+00;-8.772141816890681E-01;-1.807207119969109E-01;
1.405000000000000E+08;-8.857928456482879E-01;-1.315902001949203E-01;2.771139720104988E+00;-3.682358248578200E+00;-8.857928456482879E-01;-1.315902001949203E-01;
1.410000000000000E+08;-8.914855606361135E-01;-8.189494594926036E-02;2.769575954055043E+00;-2.284744679240041E+00;-8.914855606361135E-01;-8.189494594926036E-02;
1.415000000000000E+08;-8.944704877411525E-01;-3.229008619337090E-02;2.769867873277503E+00;-8.994299953822980E-01;-8.944704877411525E-01;-3.229008619337090E-02;
1.420000000000000E+08;-8.943812919178091E-01;1.752659527905375E-02;2.783165365993754E+00;4.883437040177849E-01;-8.943812919178091E-01;1.752659527905375E-02;
