# Version 1.00
#
freq[Hz];re:Smith_S11;im:Smith_S11;re:Magnitude_Z<-S11[Ohm];im:Magnitude_Z<-S11[Ohm];re:Phase_S11;im:Phase_S11;
8.000000000000000E+07;-3.665034097869510E-01;6.388566564906688E-01;1.005369318030597E+01;2.807581844312287E+01;-3.665034097869510E-01;6.388566564906688E-01;
8.050000000000000E+07;-3.150683552429965E-01;6.530700873838798E-01;1.099842809723800E+01;3.029215067712708E+01;-3.150683552429965E-01;6.530700873838798E-01;
8.100000000000000E+07;-2.643301713863690E-01;6.632179172927160E-01;1.202595789232926E+01;3.253637977042728E+01;-2.643301713863690E-01;6.632179172927160E-01;
8.150000000000000E+07;-2.135304076432847E-01;6.703433531223365E-01;1.313840481197627E+01;3.487709061584292E+01;-2.135304076432847E-01;6.703433531223365E-01;
8.200000000000000E+07;-1.620746031940676E-01;6.732238418132326E-01;1.442913365847349E+01;3.732568353790283E+01;-1.620746031940676E-01;6.732238418132326E-01;
8.250000000000000E+07;-1.096347907693275E-01;6.704267345681798E-01;1.601976979421215E+01;3.988827589786496E+01;-1.096347907693275E-01;6.704267345681798E-01;
8.300000000000000E+07;-5.623277198034209E-02;6.596800753800578E-01;1.810865657237570E+01;4.253789968802016E+01;-5.623277198034209E-02;6.596800753800578E-01;
8.350000000000000E+07;-7.146014690133711E-03;6.369416447192432E-01;2.092389002175380E+01;4.485385286883281E+01;-7.146014690133711E-03;6.369416447192432E-01;
8.400000000000000E+07;3.223044516125329E-02;6.040355000655707E-01;2.436162534807166E+01;4.641297231167323E+01;3.223044516125329E-02;6.040355000655707E-01;
8.450000000000000E+07;5.430551165504834E-02;5.683267648740160E-01;2.768574379419452E+01;4.668620573717646E+01;5.430551165504834E-02;5.683267648740160E-01;
8.500000000000000E+07;6.313418464108253E-02;5.385585487316852E-01;3.022740252453968E+01;4.611882807953236E+01;6.313418464108253E-02;5.385585487316852E-01;
8.550000000000000E+07;6.132346070280198E-02;5.177518407312119E-01;3.168224627665478E+01;4.505400060010260E+01;6.132346070280198E-02;5.177518407312119E-01;
8.600000000000000E+07;5.078467519238340E-02;5.136607463995144E-01;3.148770597572383E+01;4.409646028666667E+01;5.078467519238340E-02;5.136607463995144E-01;
8.650000000000000E+07;4.500764552273954E-02;5.272908624985234E-01;3.024835289758289E+01;4.430844185827450E+01;4.500764552273954E-02;5.272908624985234E-01;
8.700000000000000E+07;5.438762319997345E-02;5.538903005761026E-01;2.873691119393203E+01;4.611996678303173E+01;5.438762319997345E-02;5.538903005761026E-01;
8.750000000000000E+07;8.178448698838778E-02;5.804519887515233E-01;2.781195672272575E+01;4.918900235110974E+01;8.178448698838778E-02;5.804519887515233E-01;
8.800000000000000E+07;1.183963604356704E-01;5.986833311511873E-01;2.763009685386687E+01;5.271739237037376E+01;1.183963604356704E-01;5.986833311511873E-01;
8.850000000000000E+07;1.586044721625616E-01;6.110028558398855E-01;2.781542156333403E+01;5.650784111698736E+01;1.586044721625616E-01;6.110028558398855E-01;
8.900000000000000E+07;2.035039029060895E-01;6.195592669826689E-01;2.822131063636793E+01;6.084491569652698E+01;2.035039029060895E-01;6.195592669826689E-01;
8.950000000000000E+07;2.528599488221740E-01;6.216030908241600E-01;2.909519401274611E+01;6.580535602415146E+01;2.528599488221740E-01;6.216030908241600E-01;
9.000000000000000E+07;3.038908959751803E-01;6.165672665366763E-01;3.050081246054845E+01;7.130227949297479E+01;3.038908959751803E-01;6.165672665366763E-01;
9.050000000000000E+07;3.551967094272443E-01;6.056700720761358E-01;3.239165537090548E+01;7.739129216081103E+01;3.551967094272443E-01;6.056700720761358E-01;
9.100000000000000E+07;4.070845804842106E-01;5.901721648219299E-01;3.472012970899728E+01;8.432815323842684E+01;4.070845804842106E-01;5.901721648219299E-01;
9.150000000000000E+07;4.591197461824693E-01;5.680108532784865E-01;3.792116371587100E+01;9.233129675378576E+01;4.591197461824693E-01;5.680108532784865E-01;
9.200000000000000E+07;5.098814055457450E-01;5.390784495354249E-01;4.233203759600537E+01;1.015554444024400E+02;5.098814055457450E-01;5.390784495354249E-01;
9.250000000000000E+07;5.577015563252641E-01;5.039114767460925E-01;4.838590361407307E+01;1.120912512584501E+02;5.577015563252641E-01;5.039114767460925E-01;
9.300000000000000E+07;6.033094097037204E-01;4.655403616756695E-01;5.604112963072228E+01;1.244456688622543E+02;6.033094097037204E-01;4.655403616756695E-01;
9.350000000000000E+07;6.412494365758280E-01;4.190935624756607E-01;6.787768143908110E+01;1.377050867297592E+02;6.412494365758280E-01;4.190935624756607E-01;
9.400000000000000E+07;6.766060249431618E-01;3.708390001858388E-01;8.357579216601759E+01;1.531726532851186E+02;6.766060249431618E-01;3.708390001858388E-01;
9.450000000000000E+07;7.072469948374361E-01;3.200766116749726E-01;1.055927601495200E+02;1.701147472155258E+02;7.072469948374361E-01;3.200766116749726E-01;
9.500000000000000E+07;7.338124282242204E-01;2.668257771967584E-01;1.373876548208651E+02;1.878369313078678E+02;7.338124282242204E-01;2.668257771967584E-01;
9.550000000000000E+07;7.557528935986142E-01;2.122980922534704E-01;1.832223835668004E+02;2.027154705393797E+02;7.557528935986142E-01;2.122980922534704E-01;
9.600000000000000E+07;7.741953573320495E-01;1.553537029004515E-01;2.505818678104720E+02;2.068004698103521E+02;7.741953573320495E-01;1.553537029004515E-01;
9.650000000000000E+07;7.880422884968503E-01;9.645811247227648E-02;3.408478289889800E+02;1.778677623041042E+02;7.880422884968503E-01;9.645811247227648E-02;
9.700000000000000E+07;7.965508902192785E-01;3.633533346436927E-02;4.263300197221645E+02;8.507095521011946E+01;7.965508902192785E-01;3.633533346436927E-02;
9.750000000000000E+07;8.001900374449287E-01;-2.451264115744428E-02;4.430549078374077E+02;-6.048786493017828E+01;8.001900374449287E-01;-2.451264115744428E-02;
9.800000000000000E+07;7.989600840387936E-01;-8.570671448458404E-02;3.709141515264762E+02;-1.794428177853092E+02;7.989600840387936E-01;-8.570671448458404E-02;
9.850000000000000E+07;7.921149263926002E-01;-1.476694930206260E-01;2.697126040460196E+02;-2.271052814544129E+02;7.921149263926002E-01;-1.476694930206260E-01;
9.900000000000000E+07;7.808284769321342E-01;-2.076585704222444E-01;1.904297482376722E+02;-2.278001133867894E+02;7.808284769321342E-01;-2.076585704222444E-01;
9.950000000000000E+07;7.638547339926995E-01;-2.671005355951275E-01;1.357842138198216E+02;-2.101378691828611E+02;7.638547339926995E-01;-2.671005355951275E-01;
1.000000000000000E+08;7.421461445881221E-01;-3.244909373148993E-01;1.001044263450069E+02;-1.888958608821439E+02;7.421461445881221E-01;-3.244909373148993E-01;
1.005000000000000E+08;7.160408168238058E-01;-3.793947799411127E-01;7.644392206568733E+01;-1.689403506884873E+02;7.160408168238058E-01;-3.793947799411127E-01;
1.010000000000000E+08;6.859838873185056E-01;-4.319438928244920E-01;6.011091266118809E+01;-1.514627254352803E+02;6.859838873185056E-01;-4.319438928244920E-01;
1.015000000000000E+08;6.524069323358097E-01;-4.819169901363272E-01;4.845018352092555E+01;-1.364952886995144E+02;6.524069323358097E-01;-4.819169901363272E-01;
1.020000000000000E+08;6.149608926974635E-01;-5.289418919274549E-01;3.995512793844340E+01;-1.235745529685915E+02;6.149608926974635E-01;-5.289418919274549E-01;
1.025000000000000E+08;5.743187007862814E-01;-5.726342517318709E-01;3.361208597091944E+01;-1.124765038401652E+02;5.743187007862814E-01;-5.726342517318709E-01;
1.030000000000000E+08;5.310799600025504E-01;-6.135178832489183E-01;2.863956884992833E+01;-1.028891446411162E+02;5.310799600025504E-01;-6.135178832489183E-01;
1.035000000000000E+08;4.848180315432987E-01;-6.513782105749019E-01;2.469587667550934E+01;-9.444287546004449E+01;4.848180315432987E-01;-6.513782105749019E-01;
1.040000000000000E+08;4.354349962968910E-01;-6.859346136426212E-01;2.153274648269379E+01;-8.691078352282204E+01;4.354349962968910E-01;-6.859346136426212E-01;
1.045000000000000E+08;3.827767619210740E-01;-7.157861608192629E-01;1.909362147383546E+01;-8.012701888183277E+01;3.827767619210740E-01;-7.157861608192629E-01;
1.050000000000000E+08;3.281214016882789E-01;-7.428765263496960E-01;1.696777797897736E+01;-7.404431456424987E+01;3.281214016882789E-01;-7.428765263496960E-01;
1.055000000000000E+08;2.706596102135038E-01;-7.639982627260088E-01;1.537471202128760E+01;-6.848128406147623E+01;2.706596102135038E-01;-7.639982627260088E-01;
1.060000000000000E+08;2.122537470960955E-01;-7.789181496996969E-01;1.418752064523303E+01;-6.346818487614565E+01;2.122537470960955E-01;-7.789181496996969E-01;
1.065000000000000E+08;1.547012497201959E-01;-7.876121512986075E-01;1.332476272651731E+01;-5.900322529164610E+01;1.547012497201959E-01;-7.876121512986075E-01;
1.070000000000000E+08;1.009253968068348E-01;-7.922213336701645E-01;1.261184154510825E+01;-5.517054584373977E+01;1.009253968068348E-01;-7.922213336701645E-01;
1.075000000000000E+08;4.831248481959674E-02;-7.983972956726255E-01;1.167184902349699E+01;-5.173824043510406E+01;4.831248481959674E-02;-7.983972956726255E-01;
1.080000000000000E+08;-8.257516372843769E-03;-8.018750898111661E-01;1.075352421388834E+01;-4.831775304845988E+01;-8.257516372843769E-03;-8.018750898111661E-01;
1.085000000000000E+08;-6.574340960936380E-02;-8.000738444488585E-01;1.001053571307228E+01;-4.505105035835205E+01;-6.574340960936380E-02;-8.000738444488585E-01;
1.090000000000000E+08;-1.230605751967731E-01;-7.938156723932650E-01;9.376948345806431E+00;-4.196955464092222E+01;-1.230605751967731E-01;-7.938156723932650E-01;
1.095000000000000E+08;-1.798706284699381E-01;-7.828830872900761E-01;8.846396944807402E+00;-3.904652578375624E+01;-1.798706284699381E-01;-7.828830872900761E-01;
1.100000000000000E+08;-2.352003055432558E-01;-7.676304543943425E-01;8.402559881903727E+00;-3.629499068187251E+01;-2.352003055432558E-01;-7.676304543943425E-01;
1.105000000000000E+08;-2.888854523252231E-01;-7.487438181340575E-01;8.009744341354146E+00;-3.369922236981404E+01;-2.888854523252231E-01;-7.487438181340575E-01;
1.110000000000000E+08;-3.408701102877409E-01;-7.267267972827158E-01;7.645440001090567E+00;-3.124276219488231E+01;-3.408701102877409E-01;-7.267267972827158E-01;
1.115000000000000E+08;-3.916890333533683E-01;-7.011624834500152E-01;7.308246132844394E+00;-2.887311117473401E+01;-3.916890333533683E-01;-7.011624834500152E-01;
1.120000000000000E+08;-4.405840484242037E-01;-6.719537302685651E-01;7.012096116923627E+00;-2.659302711153994E+01;-4.405840484242037E-01;-6.719537302685651E-01;
1.125000000000000E+08;-4.874550205879088E-01;-6.388993491896200E-01;6.757607166108417E+00;-2.437882005040681E+01;-4.874550205879088E-01;-6.388993491896200E-01;
1.130000000000000E+08;-5.316608803965496E-01;-6.029108612040743E-01;6.529561855739855E+00;-2.225184912544685E+01;-5.316608803965496E-01;-6.029108612040743E-01;
1.135000000000000E+08;-5.731422192981341E-01;-5.635026199882525E-01;6.338346838442270E+00;-2.018050603424343E+01;-5.731422192981341E-01;-5.635026199882525E-01;
1.140000000000000E+08;-6.115874408449151E-01;-5.216878897965991E-01;6.165155767109608E+00;-1.818125461245782E+01;-6.115874408449151E-01;-5.216878897965991E-01;
1.145000000000000E+08;-6.472508668085951E-01;-4.772365848814673E-01;6.006268488366835E+00;-1.622596827472087E+01;-6.472508668085951E-01;-4.772365848814673E-01;
1.150000000000000E+08;-6.798796669558201E-01;-4.301513863291779E-01;5.865154371537822E+00;-1.430487794638121E+01;-6.798796669558201E-01;-4.301513863291779E-01;
1.155000000000000E+08;-7.095625118903545E-01;-3.802045726026292E-01;5.737646261899075E+00;-1.239598308192256E+01;-7.095625118903545E-01;-3.802045726026292E-01;
1.160000000000000E+08;-7.348780123364542E-01;-3.275543940570070E-01;5.656911073496131E+00;-1.050832718619307E+01;-7.348780123364542E-01;-3.275543940570070E-01;
1.165000000000000E+08;-7.557437883138995E-01;-2.724232155034403E-01;5.616941636428713E+00;-8.629588313459696E+00;-7.557437883138995E-01;-2.724232155034403E-01;
1.170000000000000E+08;-7.709894834083278E-01;-2.158436983299049E-01;5.639138990811673E+00;-6.781156886689129E+00;-7.709894834083278E-01;-2.158436983299049E-01;
1.175000000000000E+08;-7.809657907567125E-01;-1.587970718904148E-01;5.706436838637444E+00;-4.966978647953360E+00;-7.809657907567125E-01;-1.587970718904148E-01;
1.180000000000000E+08;-7.858259463824606E-01;-1.023940421654822E-01;5.813011003443001E+00;-3.200154983550189E+00;-7.858259463824606E-01;-1.023940421654822E-01;
1.185000000000000E+08;-7.857552629770653E-01;-4.691568860177072E-02;5.960089784840137E+00;-1.470193705096984E+00;-7.857552629770653E-01;-4.691568860177072E-02;
1.190000000000000E+08;-7.819688796691343E-01;5.661430264669612E-03;6.117136374907703E+00;1.782877680212259E-01;-7.819688796691343E-01;5.661430264669612E-03;
1.195000000000000E+08;-7.756011667585196E-01;5.680181741573000E-02;6.261377425953569E+00;1.799812113178853E+00;-7.756011667585196E-01;5.680181741573000E-02;
1.200000000000000E+08;-7.668148262559674E-01;1.068638877575675E-01;6.392725199481339E+00;3.410853116300291E+00;-7.668148262559674E-01;1.068638877575675E-01;
1.205000000000000E+08;-7.550285838402923E-01;1.560691695447760E-01;6.532074147362083E+00;5.027219468708887E+00;-7.550285838402923E-01;1.560691695447760E-01;
1.210000000000000E+08;-7.401323247814363E-01;2.039394846816832E-01;6.688263886651985E+00;6.643733444808659E+00;-7.401323247814363E-01;2.039394846816832E-01;
1.215000000000000E+08;-7.226734446312059E-01;2.493664993118033E-01;6.857897601782573E+00;8.230494831956300E+00;-7.226734446312059E-01;2.493664993118033E-01;
1.220000000000000E+08;-7.038462573907853E-01;2.928566764633904E-01;7.006614882311352E+00;9.798282972096306E+00;-7.038462573907853E-01;2.928566764633904E-01;
1.225000000000000E+08;-6.836227034885104E-01;3.355207416515221E-01;7.126961068700235E+00;1.138454613753594E+01;-6.836227034885104E-01;3.355207416515221E-01;
1.230000000000000E+08;-6.616183888340512E-01;3.774875891820068E-01;7.228658448243899E+00;1.300124532499117E+01;-6.616183888340512E-01;3.774875891820068E-01;
1.235000000000000E+08;-6.379353195044861E-01;4.188978120259013E-01;7.304377730367339E+00;1.465544955585831E+01;-6.379353195044861E-01;4.188978120259013E-01;
1.240000000000000E+08;-6.123701043217047E-01;4.603495990685353E-01;7.345860331896079E+00;1.637288097892031E+01;-6.123701043217047E-01;4.603495990685353E-01;
1.245000000000000E+08;-5.833474050428682E-01;5.025175976964038E-01;7.377785097107980E+00;1.821037293288050E+01;-5.833474050428682E-01;5.025175976964038E-01;
1.250000000000000E+08;-5.492092223090115E-01;5.438520540084000E-01;7.466995860821784E+00;2.017386889165200E+01;-5.492092223090115E-01;5.438520540084000E-01;
1.255000000000000E+08;-5.099525342398684E-01;5.839215673451634E-01;7.611522972730588E+00;2.227925052512587E+01;-5.099525342398684E-01;5.839215673451634E-01;
1.260000000000000E+08;-4.668047525536941E-01;6.195071564478630E-01;7.855152715919602E+00;2.443520930955273E+01;-4.668047525536941E-01;6.195071564478630E-01;
1.265000000000000E+08;-4.218705944724527E-01;6.500830296436241E-01;8.170301217443910E+00;2.659561692725531E+01;-4.218705944724527E-01;6.500830296436241E-01;
1.270000000000000E+08;-3.759115355189274E-01;6.768933445135525E-01;8.516629010135579E+00;2.878783678878791E+01;-3.759115355189274E-01;6.768933445135525E-01;
1.275000000000000E+08;-3.298835930136287E-01;7.003363245716201E-01;8.868857182410803E+00;3.100120889335516E+01;-3.298835930136287E-01;7.003363245716201E-01;
1.280000000000000E+08;-2.830837039922314E-01;7.215993323080186E-01;9.209882116499093E+00;3.329931731528011E+01;-2.830837039922314E-01;7.215993323080186E-01;
1.285000000000000E+08;-2.349038472606921E-01;7.412744547810992E-01;9.528490400663426E+00;3.573310534547095E+01;-2.349038472606921E-01;7.412744547810992E-01;
1.290000000000000E+08;-1.842262907507582E-01;7.576336133152756E-01;9.918332898313336E+00;3.833401049456274E+01;-1.842262907507582E-01;7.576336133152756E-01;
1.295000000000000E+08;-1.323116175133579E-01;7.704957482008479E-01;1.036473887328286E+01;4.106592219802259E+01;-1.324804751517858E-01;7.704225339396999E-01;
1.300000000000000E+08;-7.955838622653270E-02;7.803622364540291E-01;1.084036134608563E+01;4.397865002249173E+01;-7.955838622653270E-02;7.803622364540291E-01;
1.305000000000000E+08;-2.501519959560155E-02;7.866404085304798E-01;1.139803496078894E+01;4.711947230009734E+01;-2.501519959560155E-02;7.866404085304798E-01;
1.310000000000000E+08;3.075101002335615E-02;7.885545326404895E-01;1.208112921933188E+01;5.050751287192339E+01;3.075101002335615E-02;7.885545326404895E-01;
1.315000000000000E+08;8.719831453791156E-02;7.861302762522924E-01;1.289945041705729E+01;5.417076142606696E+01;8.719831453791156E-02;7.861302762522924E-01;
1.320000000000000E+08;1.435010040765548E-01;7.786081536328545E-01;1.392636601690569E+01;5.811284082034092E+01;1.435010040765548E-01;7.786081536328545E-01;
1.325000000000000E+08;1.992447855638767E-01;7.667169505919764E-01;1.515163958054329E+01;6.238219311557969E+01;1.992447855638767E-01;7.667169505919764E-01;
1.330000000000000E+08;2.537909612016527E-01;7.498755360630719E-01;1.667693102650006E+01;6.700454805137900E+01;2.537909612016527E-01;7.498755360630719E-01;
1.335000000000000E+08;3.061264345922319E-01;7.285916858502914E-01;1.854383083420005E+01;7.197343687935212E+01;3.061264345922319E-01;7.285916858502914E-01;
1.340000000000000E+08;3.562448235122050E-01;7.034859088254100E-01;2.079576223647014E+01;7.736453694963812E+01;3.562448235122050E-01;7.034859088254100E-01;
1.345000000000000E+08;4.036003586523795E-01;6.755049093363140E-01;2.344828463217130E+01;8.319031973133599E+01;4.036003586523795E-01;6.755049093363140E-01;
1.350000000000000E+08;4.489303288851567E-01;6.442121551411036E-01;2.667727498588631E+01;8.963736376395609E+01;4.489303288851567E-01;6.442121551411036E-01;
1.355000000000000E+08;4.918293456279605E-01;6.100159614476867E-01;3.061634047352165E+01;9.677310962223717E+01;4.918293456279605E-01;6.100159614476867E-01;
1.360000000000000E+08;5.317465099717917E-01;5.727487706481814E-01;3.555661680484972E+01;1.046494006757819E+02;5.317465099717917E-01;5.727487706481814E-01;
1.365000000000000E+08;5.689218091569337E-01;5.328952848756047E-01;4.175667879359502E+01;1.134288454475605E+02;5.689218091569337E-01;5.328952848756047E-01;
1.370000000000000E+08;6.023844145599062E-01;4.908170149976548E-01;4.965315481100344E+01;1.230119385921432E+02;6.023844145599062E-01;4.908170149976548E-01;
1.375000000000000E+08;6.326925016154314E-01;4.468416137191022E-01;5.978093565919113E+01;1.335521073250347E+02;6.326925016154314E-01;4.468416137191022E-01;
1.380000000000000E+08;6.593529399062007E-01;4.013347484441410E-01;7.292846171801666E+01;1.448286776543458E+02;6.593529399062007E-01;4.013347484441410E-01;
1.385000000000000E+08;6.827401484423350E-01;3.551685235560051E-01;8.988622526199599E+01;1.566009182951896E+02;6.827401484423350E-01;3.551685235560051E-01;
1.390000000000000E+08;7.028435459539069E-01;3.087721097382628E-01;1.118127512222515E+02;1.681379081529128E+02;7.028435459539069E-01;3.087721097382628E-01;
1.395000000000000E+08;7.207727547777752E-01;2.611508993620483E-01;1.410321822259334E+02;1.786653238500897E+02;7.207727547777752E-01;2.611508993620483E-01;
1.400000000000000E+08;7.366241569930198E-01;2.133173362435409E-01;1.792794233934534E+02;1.857014496673114E+02;7.366241569930198E-01;2.133173362435409E-01;
1.405000000000000E+08;7.498474588569874E-01;1.638388528885497E-01;2.297517801993446E+02;1.832250456140153E+02;7.498474588569874E-01;1.638388528885497E-01;
1.410000000000000E+08;7.603278750257095E-01;1.134527251092936E-01;2.908585467179965E+02;1.613509748206990E+02;7.603278750257095E-01;1.134527251092936E-01;
1.415000000000000E+08;7.677855870220142E-01;6.201914878081755E-02;3.519643087004693E+02;1.073554563051012E+02;7.677855870220142E-01;6.201914878081755E-02;
1.420000000000000E+08;7.726061613132499E-01;9.744141826453879E-03;3.889596173021164E+02;1.881002929446114E+01;7.726061613132499E-01;9.744141826453879E-03;
