# Version 1.00
#
freq[Hz];re:Smith_S11;im:Smith_S11;re:Magnitude_Z<-S11[Ohm];im:Magnitude_Z<-S11[Ohm];re:Phase_S11;im:Phase_S11;
8.000000000000000E+07;-7.663152407153956E-01;-5.260217183703431E-01;2.002934852424731E+00;-1.548685790668614E+01;-7.663152407153956E-01;-5.260217183703431E-01;
8.050000000000000E+07;-7.926676084013500E-01;-4.847400707382751E-01;1.982020727489014E+00;-1.405601812989311E+01;-7.926676084013500E-01;-4.847400707382751E-01;
8.100000000000000E+07;-8.169373037119944E-01;-4.414579941688330E-01;1.969715628814886E+00;-1.262698848889830E+01;-8.169373037119944E-01;-4.414579941688330E-01;
8.150000000000000E+07;-8.393109886680701E-01;-3.960853866562298E-01;1.958692745877037E+00;-1.118901536129349E+01;-8.393109886680701E-01;-3.960853866562298E-01;
8.200000000000000E+07;-8.592664070945897E-01;-3.490842808123654E-01;1.953225746827585E+00;-9.754414093919088E+00;-8.592664070945897E-01;-3.490842808123654E-01;
8.250000000000000E+07;-8.764408915673720E-01;-3.014058535094729E-01;1.951975630496273E+00;-8.344856279130418E+00;-8.764408915673720E-01;-3.014058535094729E-01;
8.300000000000000E+07;-8.908337026914933E-01;-2.535373388993954E-01;1.952642293032765E+00;-6.966204725999025E+00;-8.908337026914933E-01;-2.535373388993954E-01;
8.350000000000000E+07;-9.023860668354435E-01;-2.073278129305234E-01;1.948557083904897E+00;-5.661511568479171E+00;-9.023860668354435E-01;-2.073278129305234E-01;
8.400000000000000E+07;-9.119080056183902E-01;-1.577074461129108E-01;1.950296991882690E+00;-4.285221171374881E+00;-9.119080056183902E-01;-1.577074461129108E-01;
8.450000000000000E+07;-9.188260705443118E-01;-1.067379823835947E-01;1.954433480269681E+00;-2.890054231957342E+00;-9.188260705443118E-01;-1.067379823835947E-01;
8.500000000000000E+07;-9.224265541913171E-01;-5.567321078613536E-02;1.974002694988288E+00;-1.505160028677635E+00;-9.224265541913171E-01;-5.567321078613536E-02;
8.550000000000000E+07;-9.234120754879902E-01;-4.917134639417581E-03;1.990599272826022E+00;-1.329121200113249E-01;-9.234120754879902E-01;-4.917134639417581E-03;
8.600000000000000E+07;-9.214997479269464E-01;4.520511375146721E-02;2.013893665588683E+00;1.223676444582625E+00;-9.214997479269464E-01;4.520511375146721E-02;
8.650000000000000E+07;-9.170470233482884E-01;9.483609997190753E-02;2.036214689590399E+00;2.574225670188511E+00;-9.170470233482884E-01;9.483609997190753E-02;
8.700000000000000E+07;-9.098531604288335E-01;1.442859334080054E-01;2.062895926141946E+00;3.933257116447906E+00;-9.098531604288335E-01;1.442859334080054E-01;
8.750000000000000E+07;-8.998646805139556E-01;1.931434182177527E-01;2.096901234167021E+00;5.296258036755353E+00;-8.998646805139556E-01;1.931434182177527E-01;
8.800000000000000E+07;-8.873552722467281E-01;2.410739156874579E-01;2.133623208105276E+00;6.659083676806286E+00;-8.873552722467281E-01;2.410739156874579E-01;
8.850000000000000E+07;-8.721538416358978E-01;2.883380689163542E-01;2.176763254282339E+00;8.035956674318792E+00;-8.721538416358978E-01;2.883380689163542E-01;
8.900000000000000E+07;-8.547164193607210E-01;3.348061511163908E-01;2.215113516686500E+00;9.425667991149218E+00;-8.547164193607210E-01;3.348061511163908E-01;
8.950000000000000E+07;-8.345869591449732E-01;3.801226004419773E-01;2.264419448256465E+00;1.082907895547271E+01;-8.345869591449732E-01;3.801226004419773E-01;
9.000000000000000E+07;-8.122406452279474E-01;4.243532955132905E-01;2.312008060775819E+00;1.224935169286849E+01;-8.122406452279474E-01;4.243532955132905E-01;
9.050000000000000E+07;-7.870718432548724E-01;4.674652260364216E-01;2.373784845934165E+00;1.370002177796932E+01;-7.870718432548724E-01;4.674652260364216E-01;
9.100000000000000E+07;-7.597878749341431E-01;5.091137053865686E-01;2.436280951820143E+00;1.517002683807635E+01;-7.597878749341431E-01;5.091137053865686E-01;
9.150000000000000E+07;-7.304407150133105E-01;5.495133939408344E-01;2.495023189299100E+00;1.667015697647444E+01;-7.304407150133105E-01;5.495133939408344E-01;
9.200000000000000E+07;-6.988013611029821E-01;5.881573603895498E-01;2.564279178682759E+00;1.819875378039521E+01;-6.988013611029821E-01;5.881573603895498E-01;
9.250000000000000E+07;-6.648971853736384E-01;6.246602782035979E-01;2.651911166758448E+00;1.975470783800823E+01;-6.648971853736384E-01;6.246602782035979E-01;
9.300000000000000E+07;-6.291141933364511E-01;6.596449278294065E-01;2.736743161610105E+00;2.135364437869935E+01;-6.291141933364511E-01;6.596449278294065E-01;
9.350000000000000E+07;-5.911956989921096E-01;6.926207019083831E-01;2.835082134225885E+00;2.299822183806448E+01;-5.911956989921096E-01;6.926207019083831E-01;
9.400000000000000E+07;-5.518591575497360E-01;7.230214340584625E-01;2.945921098776080E+00;2.466785443392044E+01;-5.518591575497360E-01;7.230214340584625E-01;
9.450000000000000E+07;-5.104649611609721E-01;7.512367125940848E-01;3.075851653458993E+00;2.639751953175337E+01;-5.104649611609721E-01;7.512367125940848E-01;
9.500000000000000E+07;-4.679754814869658E-01;7.772831283630042E-01;3.204460446386288E+00;2.817140339206683E+01;-4.679754814869658E-01;7.772831283630042E-01;
9.550000000000000E+07;-4.239996590102950E-01;8.008251408136187E-01;3.351385400814028E+00;3.000361022270416E+01;-4.239996590102950E-01;8.008251408136187E-01;
9.600000000000000E+07;-3.785076586171655E-01;8.220913555046984E-01;3.511053964787042E+00;3.191202791903666E+01;-3.785076586171655E-01;8.220913555046984E-01;
9.650000000000000E+07;-3.317562160326972E-01;8.404382171097113E-01;3.701774281037860E+00;3.388985378032244E+01;-3.317562160326972E-01;8.404382171097113E-01;
9.700000000000000E+07;-2.839615467604994E-01;8.560454479195174E-01;3.916903879412310E+00;3.594758756470340E+01;-2.839615467604994E-01;8.560454479195174E-01;
9.750000000000000E+07;-2.352086545507399E-01;8.693223416994652E-01;4.141107224584285E+00;3.810374380172712E+01;-2.352086545507399E-01;8.693223416994652E-01;
9.800000000000000E+07;-1.856749996245356E-01;8.793281611359020E-01;4.412642617849130E+00;4.035386509022264E+01;-1.856749996245356E-01;8.793281611359020E-01;
9.850000000000000E+07;-1.355598471371472E-01;8.864372256786975E-01;4.718731645344318E+00;4.271436753830378E+01;-1.355598471371472E-01;8.864372256786975E-01;
9.900000000000000E+07;-8.487446560216724E-02;8.891274472903564E-01;5.139737854500489E+00;4.519071645364893E+01;-8.487446560216724E-02;8.891274472903564E-01;
9.950000000000000E+07;-3.476891179288149E-02;8.886971845576860E-01;5.616907704636933E+00;4.776582358400878E+01;-3.476891179288149E-02;8.886971845576860E-01;
1.000000000000000E+08;1.499878370741285E-02;8.847640667057897E-01;6.188341970907429E+00;5.047042086988516E+01;1.499878370741285E-02;8.847640667057897E-01;
1.005000000000000E+08;6.297811990008624E-02;8.782546781557743E-01;6.811885416342853E+00;5.324881435685646E+01;6.297811990008624E-02;8.782546781557743E-01;
1.010000000000000E+08;1.094260498560197E-01;8.686926830006814E-01;7.539949030407615E+00;5.612620119291181E+01;1.094260498560197E-01;8.686926830006814E-01;
1.015000000000000E+08;1.536988134264017E-01;8.566303264304594E-01;8.363940147218264E+00;5.907627437283695E+01;1.536988134264017E-01;8.566303264304594E-01;
1.020000000000000E+08;1.958885360348259E-01;8.437307723014151E-01;9.192135405318052E+00;6.210858613235980E+01;1.958885360348259E-01;8.437307723014151E-01;
1.025000000000000E+08;2.367989652760947E-01;8.297361501053009E-01;1.005022242295930E+01;6.528534173727658E+01;2.367989652760947E-01;8.297361501053009E-01;
1.030000000000000E+08;2.764243263908446E-01;8.143174184338658E-01;1.097506978207980E+01;6.862179482361717E+01;2.764243263908446E-01;8.143174184338658E-01;
1.035000000000000E+08;3.146301111075404E-01;7.981440204905781E-01;1.192546900130715E+01;7.211499016879516E+01;3.146301111075404E-01;7.981440204905781E-01;
1.040000000000000E+08;3.517422185871995E-01;7.822466762915393E-01;1.280666849992070E+01;7.578822667725460E+01;3.517422185871995E-01;7.822466762915393E-01;
1.045000000000000E+08;3.885340709320832E-01;7.661719984850502E-01;1.363404030896726E+01;7.973399255379348E+01;3.885340709320832E-01;7.661719984850502E-01;
1.050000000000000E+08;4.276386995611693E-01;7.502023214074970E-01;1.428129713117231E+01;8.425443560547703E+01;4.276386995611693E-01;7.502023214074970E-01;
1.055000000000000E+08;4.688036938831087E-01;7.326652296756504E-01;1.486167964442694E+01;8.946202536915831E+01;4.688036938831087E-01;7.326652296756504E-01;
1.060000000000000E+08;5.121998079343534E-01;7.101829621325084E-01;1.571391151270950E+01;9.567216473159777E+01;5.121998079343534E-01;7.101829621325084E-01;
1.065000000000000E+08;5.553899478553144E-01;6.820119568778017E-01;1.707871219592754E+01;1.028957477432379E+02;5.553899478553144E-01;6.820119568778017E-01;
1.070000000000000E+08;5.947425419098521E-01;6.480952011021894E-01;1.936240141831211E+01;1.109256315922804E+02;5.947425419098521E-01;6.480952011021894E-01;
1.075000000000000E+08;6.276708279920649E-01;6.120609096573606E-01;2.254377695360684E+01;1.192525685611843E+02;6.276708279920649E-01;6.120609096573606E-01;
1.080000000000000E+08;6.583473769762518E-01;5.784795100405796E-01;2.569319261626018E+01;1.281622268564225E+02;6.583473769762518E-01;5.784795100405796E-01;
1.085000000000000E+08;6.891780562048653E-01;5.437796577451920E-01;2.922934414913315E+01;1.386108880175726E+02;6.891780562048653E-01;5.437796577451920E-01;
1.090000000000000E+08;7.193738962413171E-01;5.068114311515007E-01;3.361701866586433E+01;1.510125406405897E+02;7.193738962413171E-01;5.068114311515007E-01;
1.095000000000000E+08;7.481235424855797E-01;4.677503692496601E-01;3.924442185921849E+01;1.657324852432148E+02;7.481235424855797E-01;4.677503692496601E-01;
1.100000000000000E+08;7.748902254015954E-01;4.259387450647845E-01;4.698901162916184E+01;1.835165886159248E+02;7.748902254015954E-01;4.259387450647845E-01;
1.105000000000000E+08;7.990911962984398E-01;3.819772236458825E-01;5.785836823449021E+01;2.050653793468677E+02;7.990911962984398E-01;3.819772236458825E-01;
1.110000000000000E+08;8.202812855099331E-01;3.366498777791151E-01;7.340609763935387E+01;2.311648389282364E+02;8.202812855099331E-01;3.366498777791151E-01;
1.115000000000000E+08;8.385733131667695E-01;2.900543916718028E-01;9.649832398357663E+01;2.632308391975726E+02;8.385733131667695E-01;2.900543916718028E-01;
1.120000000000000E+08;8.541286217624107E-01;2.426704111018033E-01;1.319585032572435E+02;3.027046520187444E+02;8.541286217624107E-01;2.426704111018033E-01;
1.125000000000000E+08;8.673417563487696E-01;1.940568875154906E-01;1.900781072579961E+02;3.511942339413351E+02;8.673417563487696E-01;1.940568875154906E-01;
1.130000000000000E+08;8.773795252505038E-01;1.445552883847357E-01;2.912569103343307E+02;4.023022353113646E+02;8.773795252505038E-01;1.445552883847357E-01;
1.135000000000000E+08;8.843088155987977E-01;9.455882189873228E-02;4.681945366116402E+02;4.235401785362565E+02;8.843088155987977E-01;9.455882189873228E-02;
1.140000000000000E+08;8.882089824297718E-01;4.438753569192225E-02;7.227052634148592E+02;3.068089297748506E+02;8.882089824297718E-01;4.438753569192225E-02;
1.145000000000000E+08;8.891838925178341E-01;-5.336966201341444E-03;8.503076810098252E+02;-4.335932540430377E+01;8.891838925178341E-01;-5.336966201341444E-03;
1.150000000000000E+08;8.878367613061922E-01;-5.467169776496872E-02;6.703995919065050E+02;-3.511441825091806E+02;8.878367613061922E-01;-5.467169776496872E-02;
1.155000000000000E+08;8.843714454007332E-01;-1.039583492283246E-01;4.282525333870933E+02;-4.299832689035592E+02;8.843714454007332E-01;-1.039583492283246E-01;
1.160000000000000E+08;8.789858126365292E-01;-1.534864780073043E-01;2.667700660808082E+02;-4.017704274198239E+02;8.789858126365292E-01;-1.534864780073043E-01;
1.165000000000000E+08;8.705846793834148E-01;-2.039059165386546E-01;1.718829269520391E+02;-3.495972607329517E+02;8.705846793834148E-01;-2.039059165386546E-01;
1.170000000000000E+08;8.587757742503337E-01;-2.541589815689534E-01;1.170480702444011E+02;-3.006337417040241E+02;8.587757742503337E-01;-2.541589815689534E-01;
1.175000000000000E+08;8.435435809414693E-01;-3.040711149522092E-01;8.379450168571897E+01;-2.600279588837591E+02;8.435435809414693E-01;-3.040711149522092E-01;
1.180000000000000E+08;8.250832747603544E-01;-3.529677338755943E-01;6.271708889898984E+01;-2.274539234782839E+02;8.250832747603544E-01;-3.529677338755943E-01;
1.185000000000000E+08;8.034443699133803E-01;-4.005242901052751E-01;4.874496627957738E+01;-2.012140659780030E+02;8.034443699133803E-01;-4.005242901052751E-01;
1.190000000000000E+08;7.788821601919595E-01;-4.466276873765620E-01;3.902781442538841E+01;-1.798239658252807E+02;7.788821601919595E-01;-4.466276873765620E-01;
1.195000000000000E+08;7.515996193791370E-01;-4.908937029637734E-01;3.206716404909263E+01;-1.621827388150585E+02;7.515996193791370E-01;-4.908937029637734E-01;
1.200000000000000E+08;7.219225124936333E-01;-5.332118312726269E-01;2.689304034849919E+01;-1.474419206819269E+02;7.219225124936333E-01;-5.332118312726269E-01;
1.205000000000000E+08;6.901364663628248E-01;-5.737023408319785E-01;2.288338000194828E+01;-1.349412279142997E+02;6.901364663628248E-01;-5.737023408319785E-01;
1.210000000000000E+08;6.561597381934585E-01;-6.123678994903210E-01;1.971328503810719E+01;-1.241570073878520E+02;6.561597381934585E-01;-6.123678994903210E-01;
1.215000000000000E+08;6.199011034892440E-01;-6.490783123972704E-01;1.718165303366894E+01;-1.147231796131216E+02;6.199011034892440E-01;-6.490783123972704E-01;
1.220000000000000E+08;5.817162877059965E-01;-6.836299664601712E-01;1.512165995887339E+01;-1.064328275403266E+02;5.817162877059965E-01;-6.836299664601712E-01;
1.225000000000000E+08;5.414150111290456E-01;-7.158771230949458E-01;1.344736045677805E+01;-9.904492073234347E+01;5.414150111290456E-01;-7.158771230949458E-01;
1.230000000000000E+08;4.995879014056113E-01;-7.457438332544924E-01;1.204382836401184E+01;-9.246139836332250E+01;4.995879014056113E-01;-7.457438332544924E-01;
1.235000000000000E+08;4.558956961708225E-01;-7.730740281222163E-01;1.088268974477263E+01;-8.650331539866524E+01;4.558956961708225E-01;-7.730740281222163E-01;
1.240000000000000E+08;4.109170961079143E-01;-7.975312057314798E-01;9.922497122715678E+00;-8.112620662553678E+01;4.109170961079143E-01;-7.975312057314798E-01;
1.245000000000000E+08;3.647276207053462E-01;-8.192813850903374E-01;9.106487373867733E+00;-7.622690112429137E+01;3.647276207053462E-01;-8.192813850903374E-01;
1.250000000000000E+08;3.178601407648001E-01;-8.382939301672417E-01;8.399810171230376E+00;-7.176857608694819E+01;3.178601407648001E-01;-8.382939301672417E-01;
1.255000000000000E+08;2.703369343037924E-01;-8.550097946704166E-01;7.751640449374782E+00;-6.767262941476346E+01;2.703369343037924E-01;-8.550097946704166E-01;
1.260000000000000E+08;2.213088889489185E-01;-8.693623374809392E-01;7.166295878203792E+00;-6.382277119192909E+01;2.213088889489185E-01;-8.693623374809392E-01;
1.265000000000000E+08;1.711583238003942E-01;-8.811144080579252E-01;6.640359683751597E+00;-6.021250912932857E+01;1.711583238003942E-01;-8.811144080579252E-01;
1.270000000000000E+08;1.200190175325408E-01;-8.897091426534102E-01;6.194744872998146E+00;-5.681597588892342E+01;1.200190175325408E-01;-8.897091426534102E-01;
1.275000000000000E+08;6.823527252608305E-02;-8.949756920837422E-01;5.822139382603556E+00;-5.361810374919914E+01;6.823527252608305E-02;-8.949756920837422E-01;
1.280000000000000E+08;1.639437267789576E-02;-8.968230110954382E-01;5.515375615156509E+00;-5.061730528812323E+01;1.639437267789576E-02;-8.968230110954382E-01;
1.285000000000000E+08;-3.499442646248297E-02;-8.955115804977404E-01;5.254088869480016E+00;-4.780767430950436E+01;-3.499442646248297E-02;-8.955115804977404E-01;
1.290000000000000E+08;-8.603366488690584E-02;-8.912597817245905E-01;5.022111971971082E+00;-4.515421307061564E+01;-8.603366488690584E-02;-8.912597817245905E-01;
1.295000000000000E+08;-1.367325521583887E-01;-8.843470479252721E-01;4.802612312258784E+00;-4.263494374724860E+01;-1.367325521583887E-01;-8.843470479252721E-01;
1.300000000000000E+08;-1.866638608606787E-01;-8.745325626081636E-01;4.610018378522911E+00;-4.024580244822644E+01;-1.866638608606787E-01;-8.745325626081636E-01;
1.305000000000000E+08;-2.356715823306682E-01;-8.616486310701652E-01;4.451119903061453E+00;-3.796941970310284E+01;-2.356715823306682E-01;-8.616486310701652E-01;
1.310000000000000E+08;-2.834157767804392E-01;-8.466063771281601E-01;4.292340535575891E+00;-3.581399150471531E+01;-2.834157767804392E-01;-8.466063771281601E-01;
1.315000000000000E+08;-3.305629143925473E-01;-8.292657434991034E-01;4.130185766925815E+00;-3.373632938375376E+01;-3.305629143925473E-01;-8.292657434991034E-01;
1.320000000000000E+08;-3.765930996787083E-01;-8.095942689371419E-01;3.974487685000172E+00;-3.174317516831466E+01;-3.765930996787083E-01;-8.095942689371419E-01;
1.325000000000000E+08;-4.219002202135966E-01;-7.874272520575645E-01;3.822305298942203E+00;-2.980599437180121E+01;-4.219002202135966E-01;-7.874272520575645E-01;
1.330000000000000E+08;-4.658425518018721E-01;-7.625349330303981E-01;3.690839407339473E+00;-2.793010789698728E+01;-4.658425518018721E-01;-7.625349330303981E-01;
1.335000000000000E+08;-5.083008512087969E-01;-7.352708030745129E-01;3.569531813593752E+00;-2.611422823592518E+01;-5.083008512087969E-01;-7.352708030745129E-01;
1.340000000000000E+08;-5.492648419964498E-01;-7.058709883550388E-01;3.451026028179378E+00;-2.435318194046279E+01;-5.492648419964498E-01;-7.058709883550388E-01;
1.345000000000000E+08;-5.885357521955200E-01;-6.739784739165172E-01;3.347871946228314E+00;-2.263425124132006E+01;-5.885357521955200E-01;-6.739784739165172E-01;
1.350000000000000E+08;-6.261239259388522E-01;-6.400926593488020E-01;3.245749350598417E+00;-2.095917337983126E+01;-6.261239259388522E-01;-6.400926593488020E-01;
1.355000000000000E+08;-6.616558509460585E-01;-6.038849522694197E-01;3.159766140235187E+00;-1.931951361647603E+01;-6.616558509460585E-01;-6.038849522694197E-01;
1.360000000000000E+08;-6.949012945337047E-01;-5.658260668134842E-01;3.084283345379362E+00;-1.772166400002195E+01;-6.949012945337047E-01;-5.658260668134842E-01;
1.365000000000000E+08;-7.259363207567654E-01;-5.256370755828218E-01;3.021705476578483E+00;-1.614785775926093E+01;-7.259363207567654E-01;-5.256370755828218E-01;
1.370000000000000E+08;-7.542034734118845E-01;-4.841756570936705E-01;2.970584205081955E+00;-1.462034923705186E+01;-7.542034734118845E-01;-4.841756570936705E-01;
1.375000000000000E+08;-7.799408455324625E-01;-4.413746190971243E-01;2.927158287518324E+00;-1.312442735817905E+01;-7.799408455324625E-01;-4.413746190971243E-01;
1.380000000000000E+08;-8.037183755104758E-01;-3.975355678577885E-01;2.872724726471372E+00;-1.165303238781816E+01;-8.037183755104758E-01;-3.975355678577885E-01;
1.385000000000000E+08;-8.250823854224734E-01;-3.521215831261994E-01;2.825676314974767E+00;-1.019190197785799E+01;-8.250823854224734E-01;-3.521215831261994E-01;
1.390000000000000E+08;-8.436232869253724E-01;-3.060006403185165E-01;2.786810590394027E+00;-8.761441643520889E+00;-8.436232869253724E-01;-3.060006403185165E-01;
1.395000000000000E+08;-8.596561579278574E-01;-2.584033438467314E-01;2.754806536093010E+00;-7.330397264461761E+00;-8.596561579278574E-01;-2.584033438467314E-01;
1.400000000000000E+08;-8.727766629318733E-01;-2.100802410513385E-01;2.733087800196139E+00;-5.915376892353766E+00;-8.727766629318733E-01;-2.100802410513385E-01;
1.405000000000000E+08;-8.832183129564624E-01;-1.613994273637906E-01;2.713398554703341E+00;-4.517751490942025E+00;-8.832183129564624E-01;-1.613994273637906E-01;
1.410000000000000E+08;-8.905212450789510E-01;-1.121444353395610E-01;2.709989863253714E+00;-3.126720773625430E+00;-8.905212450789510E-01;-1.121444353395610E-01;
1.415000000000000E+08;-8.953808799330768E-01;-6.286084003057799E-02;2.701875555588040E+00;-1.747872527197922E+00;-8.953808799330768E-01;-6.286084003057799E-02;
1.420000000000000E+08;-8.971103520112812E-01;-1.333028417055525E-02;2.709144089068386E+00;-3.703674213516948E-01;-8.971103520112812E-01;-1.333028417055525E-02;
