# Version 1.00
#
# Ref Impedances: Z01: 50
# 
freq[Hz];mag:Smith_S11[U];ang:Smith_S11[°];Magnitude_S11[dB];Phase_S11[°];
8.000000000000000E+07;8.696785803098757E-01;-1.727362735602784E+02;-1.212824524407255E+00;-1.727362735602784E+02;
8.060000000000000E+07;8.705692817846677E-01;-1.770604872721794E+02;-1.203933221559443E+00;-1.770604872721794E+02;
8.120000000000000E+07;8.690162642938962E-01;1.784252574174599E+02;-1.219441906538949E+00;1.784252574174599E+02;
8.180000000000000E+07;8.660737923441026E-01;1.739471771308735E+02;-1.248902061673143E+00;1.739471771308735E+02;
8.240000000000000E+07;8.623727611995314E-01;1.694107977904757E+02;-1.286099390260837E+00;1.694107977904757E+02;
8.300000000000000E+07;8.567658230645235E-01;1.647962043434968E+02;-1.342757322294495E+00;1.647962043434968E+02;
8.360000000000000E+07;8.483847083934678E-01;1.600231338529738E+02;-1.428143359455260E+00;1.600231338529738E+02;
8.420000000000000E+07;8.350939308358748E-01;1.551988083277583E+02;-1.565293452019136E+00;1.551988083277583E+02;
8.480000000000000E+07;8.186195113461088E-01;1.506811103067627E+02;-1.738358167942371E+00;1.506811103067627E+02;
8.540000000000000E+07;8.024446777778361E-01;1.463470209387277E+02;-1.911697981302916E+00;1.463470209387277E+02;
8.600000000000000E+07;7.852041472089537E-01;1.421082930080277E+02;-2.100348305098106E+00;1.421082930080277E+02;
8.660000000000000E+07;7.667459132264615E-01;1.380291970615234E+02;-2.306970602779811E+00;1.380291970615234E+02;
8.720000000000000E+07;7.484058392353120E-01;1.341442295437101E+02;-2.517256653857938E+00;1.341442295437101E+02;
8.780000000000000E+07;7.307719042395374E-01;1.303193188151595E+02;-2.724363163672175E+00;1.303193188151595E+02;
8.840000000000000E+07;7.127730404925459E-01;1.265206960199466E+02;-2.940974703181896E+00;1.265206960199466E+02;
8.900000000000000E+07;6.901494637204506E-01;1.229625896879205E+02;-3.221136902944637E+00;1.229625896879205E+02;
8.960000000000000E+07;6.686295681987838E-01;1.202468223448552E+02;-3.496288438158483E+00;1.202468223448552E+02;
9.020000000000000E+07;6.582549315600419E-01;1.178665278526898E+02;-3.632117570642502E+00;1.178665278526898E+02;
9.080000000000000E+07;6.547967772589834E-01;1.147297590250611E+02;-3.677869334807432E+00;1.147297590250611E+02;
9.140000000000000E+07;6.469128417700437E-01;1.107645603881383E+02;-3.783084553183051E+00;1.107645603881383E+02;
9.200000000000000E+07;6.269399400995759E-01;1.066711820734827E+02;-4.055481238654785E+00;1.066711820734827E+02;
9.260000000000000E+07;5.963687908538884E-01;1.032896839563160E+02;-4.489701842093391E+00;1.032896839563160E+02;
9.320000000000000E+07;5.616351615707144E-01;1.018452118850029E+02;-5.010914214213286E+00;1.018452118850029E+02;
9.380000000000000E+07;5.389388713472880E-01;1.022033967571320E+02;-5.369209829552211E+00;1.022033967571320E+02;
9.440000000000000E+07;5.384780036562579E-01;1.038992106748755E+02;-5.376640650878771E+00;1.038992106748755E+02;
9.500000000000000E+07;5.637084385713100E-01;1.044870198851519E+02;-4.978909277074180E+00;1.044870198851519E+02;
9.560000000000000E+07;6.016860436261745E-01;1.027828426759330E+02;-4.412601240881029E+00;1.027828426759330E+02;
9.620000000000000E+07;6.338886055188224E-01;9.931256260678596E+01;-3.959741096593165E+00;9.931256260678596E+01;
9.680000000000000E+07;6.572751088709367E-01;9.513734768266664E+01;-3.645056284399882E+00;9.513734768266664E+01;
9.740000000000000E+07;6.722123678241503E-01;9.079008638437702E+01;-3.449870026906278E+00;9.079008638437702E+01;
9.800000000000000E+07;6.843569057730018E-01;8.655444694578746E+01;-3.294346919329405E+00;8.655444694578746E+01;
9.860000000000000E+07;6.906840767217095E-01;8.230710273982885E+01;-3.214411125182106E+00;8.230710273982885E+01;
9.920000000000000E+07;6.935481236819460E-01;7.816213761409328E+01;-3.178467977339366E+00;7.816213761409328E+01;
9.980000000000000E+07;6.917507468118362E-01;7.438704627947905E+01;-3.201007266477196E+00;7.438704627947905E+01;
1.004000000000000E+08;6.912164023239661E-01;7.106887754612544E+01;-3.207719295008325E+00;7.106887754612544E+01;
1.010000000000000E+08;6.941528480239229E-01;6.813970350390640E+01;-3.170897802877513E+00;6.813970350390640E+01;
1.016000000000000E+08;7.035366537633430E-01;6.534528970659008E+01;-3.054265424073506E+00;6.534528970659008E+01;
1.022000000000000E+08;7.187750628168149E-01;6.233379170012210E+01;-2.868139974302977E+00;6.233379170012210E+01;
1.028000000000000E+08;7.374951673369856E-01;5.892526222314331E+01;-2.644816423762267E+00;5.892526222314331E+01;
1.034000000000000E+08;7.574103865256797E-01;5.512093380543298E+01;-2.413374872081515E+00;5.512093380543298E+01;
1.040000000000000E+08;7.765067861087597E-01;5.095323471081476E+01;-2.197094889971562E+00;5.095323471081476E+01;
1.046000000000000E+08;7.936296409389861E-01;4.657450362792279E+01;-2.007642405387914E+00;4.657450362792279E+01;
1.052000000000000E+08;8.084771927232457E-01;4.201517375062924E+01;-1.846644542094143E+00;4.201517375062924E+01;
1.058000000000000E+08;8.204413477415540E-01;3.732312416422992E+01;-1.719049212697097E+00;3.732312416422992E+01;
1.064000000000000E+08;8.282449854354905E-01;3.257647025181471E+01;-1.636823697010317E+00;3.257647025181471E+01;
1.070000000000000E+08;8.323295906677538E-01;2.804293714883644E+01;-1.594093304378625E+00;2.804293714883644E+01;
1.076000000000000E+08;8.389617801847018E-01;2.371767073081886E+01;-1.525156469551441E+00;2.371767073081886E+01;
1.082000000000000E+08;8.461688887671017E-01;1.926915133195244E+01;-1.450858929779155E+00;1.926915133195244E+01;
1.088000000000000E+08;8.527232947982195E-01;1.478879657055321E+01;-1.383837454908019E+00;1.478879657055321E+01;
1.094000000000000E+08;8.589147380563853E-01;1.029863114162570E+01;-1.320998903338765E+00;1.029863114162570E+01;
1.100000000000000E+08;8.644450152991253E-01;5.731600209669217E+00;-1.265252513078569E+00;5.731600209669217E+00;
1.106000000000000E+08;8.683551551383881E-01;1.145604937265164E+00;-1.226052262132910E+00;1.145604937265164E+00;
1.112000000000000E+08;8.715337090950288E-01;-3.409315265654571E+00;-1.194316212598031E+00;-3.409315265654571E+00;
1.118000000000000E+08;8.742872953202335E-01;-7.931056859703850E+00;-1.166916650061409E+00;-7.931056859703850E+00;
1.124000000000000E+08;8.767393195352705E-01;-1.245407728280503E+01;-1.142590320053212E+00;-1.245407728280503E+01;
1.130000000000000E+08;8.790135772025349E-01;-1.697509514447194E+01;-1.120088335643976E+00;-1.697509514447194E+01;
1.136000000000000E+08;8.806961806179332E-01;-2.149624714932076E+01;-1.103477741811789E+00;-2.149624714932076E+01;
1.142000000000000E+08;8.821239467113909E-01;-2.600036397826478E+01;-1.089407762423392E+00;-2.600036397826478E+01;
1.148000000000000E+08;8.835470292220803E-01;-3.048648392771205E+01;-1.075406580460651E+00;-3.048648392771205E+01;
1.154000000000000E+08;8.848965520839344E-01;-3.496811726941856E+01;-1.062149941638369E+00;-3.496811726941856E+01;
1.160000000000000E+08;8.862251078311790E-01;-3.945387186300221E+01;-1.049119000823690E+00;-3.945387186300221E+01;
1.166000000000000E+08;8.877114594642608E-01;-4.394349536164758E+01;-1.034563475550083E+00;-4.394349536164758E+01;
1.172000000000000E+08;8.890259400781991E-01;-4.845931484035702E+01;-1.021711339235421E+00;-4.845931484035702E+01;
1.178000000000000E+08;8.899295657615777E-01;-5.300711161406146E+01;-1.012887292080535E+00;-5.300711161406146E+01;
1.184000000000000E+08;8.900032134627647E-01;-5.754464615004076E+01;-1.012168505604507E+00;-5.754464615004076E+01;
1.190000000000000E+08;8.897443097992809E-01;-6.205841595083111E+01;-1.014695615359550E+00;-6.205841595083111E+01;
1.196000000000000E+08;8.890750080668092E-01;-6.653916415157281E+01;-1.021231952354286E+00;-6.653916415157281E+01;
1.202000000000000E+08;8.886033226908987E-01;-7.097847952095405E+01;-1.025841343315866E+00;-7.097847952095405E+01;
1.208000000000000E+08;8.885844595502506E-01;-7.541455241507335E+01;-1.026025728060732E+00;-7.541455241507335E+01;
1.214000000000000E+08;8.886409215532327E-01;-7.986215339761338E+01;-1.025473831005888E+00;-7.986215339761338E+01;
1.220000000000000E+08;8.883429380547404E-01;-8.432393119043701E+01;-1.028386915209929E+00;-8.432393119043701E+01;
1.226000000000000E+08;8.878224717751125E-01;-8.876987310712069E+01;-1.033477333894533E+00;-8.876987310712069E+01;
1.232000000000000E+08;8.869652780769633E-01;-9.319971128643425E+01;-1.041867622186903E+00;-9.319971128643425E+01;
1.238000000000000E+08;8.860695211620233E-01;-9.761620197565860E+01;-1.050644039176574E+00;-9.761620197565860E+01;
1.244000000000000E+08;8.850694907281504E-01;-1.020108074330983E+02;-1.060452591580499E+00;-1.020108074330983E+02;
1.250000000000000E+08;8.839996239257280E-01;-1.063833587519487E+02;-1.070958394919892E+00;-1.063833587519487E+02;
1.256000000000000E+08;8.830173763223907E-01;-1.107868557337372E+02;-1.080615002816038E+00;-1.107868557337372E+02;
1.262000000000000E+08;8.820179204742636E-01;-1.152250549603567E+02;-1.090451819267873E+00;-1.152250549603567E+02;
1.268000000000000E+08;8.807983462653054E-01;-1.196645191547910E+02;-1.102470188821611E+00;-1.196645191547910E+02;
1.274000000000000E+08;8.792321707665824E-01;-1.240978589618379E+02;-1.117928592519462E+00;-1.240978589618379E+02;
1.280000000000000E+08;8.776867546343630E-01;-1.285075074433005E+02;-1.133209112567674E+00;-1.285075074433005E+02;
1.286000000000000E+08;8.757599348949846E-01;-1.328766159490514E+02;-1.152298544194060E+00;-1.328766159490514E+02;
1.292000000000000E+08;8.743718103777550E-01;-1.371917195651059E+02;-1.166077048494053E+00;-1.371917195651059E+02;
1.298000000000000E+08;8.738708198792882E-01;-1.414818010373664E+02;-1.171055245711314E+00;-1.414818010373664E+02;
1.304000000000000E+08;8.739987167258370E-01;-1.457965478546770E+02;-1.169784100613929E+00;-1.457965478546770E+02;
1.310000000000000E+08;8.743903669969310E-01;-1.501382822071964E+02;-1.165892711540396E+00;-1.501382822071964E+02;
1.316000000000000E+08;8.745409538246166E-01;-1.545064573382291E+02;-1.164396963189522E+00;-1.545064573382291E+02;
1.322000000000000E+08;8.745043971856349E-01;-1.588752445080006E+02;-1.164760049179941E+00;-1.588752445080006E+02;
1.328000000000000E+08;8.743923491216811E-01;-1.632539319781290E+02;-1.165873021825179E+00;-1.632539319781290E+02;
1.334000000000000E+08;8.737593106501895E-01;-1.675914719025199E+02;-1.172163668874741E+00;-1.675914719025199E+02;
1.340000000000000E+08;8.736299575776768E-01;-1.719072418009821E+02;-1.173449640506444E+00;-1.719072418009821E+02;
1.346000000000000E+08;8.736882219546847E-01;-1.762324320203922E+02;-1.172870378006190E+00;-1.762324320203922E+02;
1.352000000000000E+08;8.737643478033829E-01;1.794562821174159E+02;-1.172113595553540E+00;1.794562821174159E+02;
1.358000000000000E+08;8.738129593178747E-01;1.751436270492442E+02;-1.171630373153702E+00;1.751436270492442E+02;
1.364000000000000E+08;8.737546648225437E-01;1.708371727850162E+02;-1.172209852363715E+00;1.708371727850162E+02;
1.370000000000000E+08;8.738130959500919E-01;1.665219339225158E+02;-1.171629015000044E+00;1.665219339225158E+02;
1.376000000000000E+08;8.737690280109056E-01;1.621947891680529E+02;-1.172067070815771E+00;1.621947891680529E+02;
1.382000000000000E+08;8.735331873278942E-01;1.578841835701949E+02;-1.174411812485827E+00;1.578841835701949E+02;
1.388000000000000E+08;8.729276962271290E-01;1.535640552035370E+02;-1.180434540092630E+00;1.535640552035370E+02;
1.394000000000000E+08;8.720109538120260E-01;1.492375606414132E+02;-1.189561192398203E+00;1.492375606414132E+02;
1.400000000000000E+08;8.709157960558135E-01;1.449110991417545E+02;-1.200476649010868E+00;1.449110991417545E+02;
1.406000000000000E+08;8.692390183183715E-01;1.405955049032964E+02;-1.217215746891432E+00;1.405955049032964E+02;
1.412000000000000E+08;8.671721372138244E-01;1.362786688015074E+02;-1.237893694727356E+00;1.362786688015074E+02;
1.418000000000000E+08;8.649411177868661E-01;1.319852405494956E+02;-1.260269136036916E+00;1.319852405494956E+02;
1.424000000000000E+08;8.623112795691988E-01;1.277347340053993E+02;-1.286718660391992E+00;1.277347340053993E+02;
1.430000000000000E+08;8.600756426982388E-01;1.235062157798267E+02;-1.309267027180147E+00;1.235062157798267E+02;
1.436000000000000E+08;8.581579737961443E-01;1.192698829572479E+02;-1.328655156014273E+00;1.192698829572479E+02;
1.442000000000000E+08;8.560650602924847E-01;1.149925215051618E+02;-1.349864560375200E+00;1.149925215051618E+02;
1.448000000000000E+08;8.539702687927256E-01;1.106900680332888E+02;-1.371144982567114E+00;1.106900680332888E+02;
1.454000000000000E+08;8.510192930127196E-01;1.063753153037481E+02;-1.401211882820899E+00;1.063753153037481E+02;
1.460000000000000E+08;8.479836844890314E-01;1.020613182392242E+02;-1.432250072897533E+00;1.020613182392242E+02;
1.466000000000000E+08;8.446775788155997E-01;9.774859571471075E+01;-1.466180672186967E+00;9.774859571471075E+01;
1.472000000000000E+08;8.413540174429248E-01;9.339527616423281E+01;-1.500424543706369E+00;9.339527616423281E+01;
1.478000000000000E+08;8.371809513560461E-01;8.901360051425628E+01;-1.543613237222975E+00;8.901360051425628E+01;
1.484000000000000E+08;8.325303024173890E-01;8.463344754176612E+01;-1.591999001882564E+00;8.463344754176612E+01;
1.490000000000000E+08;8.275370287858343E-01;8.022967786527060E+01;-1.644251285484346E+00;8.022967786527060E+01;
1.496000000000000E+08;8.220080165306741E-01;7.578317861189092E+01;-1.702478940730401E+00;7.578317861189092E+01;
1.502000000000000E+08;8.154436970775379E-01;7.127523348311759E+01;-1.772120395544026E+00;7.127523348311759E+01;
1.508000000000000E+08;8.082330016045867E-01;6.673440427154773E+01;-1.849268410157619E+00;6.673440427154773E+01;
1.514000000000000E+08;8.000897928913910E-01;6.217861007433407E+01;-1.937225400938616E+00;6.217861007433407E+01;
1.520000000000000E+08;7.911899071153986E-01;5.771734546350066E+01;-2.034385229836515E+00;5.771734546350066E+01;
1.526000000000000E+08;7.820575179642060E-01;5.332700589198509E+01;-2.135226094407887E+00;5.332700589198509E+01;
1.532000000000000E+08;7.736882255499993E-01;4.903162860657643E+01;-2.228680248903922E+00;4.903162860657643E+01;
1.538000000000000E+08;7.666152037568050E-01;4.477754635793841E+01;-2.308451438596320E+00;4.477754635793841E+01;
1.544000000000000E+08;7.606640047119253E-01;4.044899919281725E+01;-2.376142689093191E+00;4.044899919281725E+01;
1.550000000000000E+08;7.544104323154220E-01;3.603428277856882E+01;-2.447846292326149E+00;3.603428277856882E+01;
1.556000000000000E+08;7.473846115844844E-01;3.154529822243880E+01;-2.529116967638909E+00;3.154529822243880E+01;
1.562000000000000E+08;7.394990349000031E-01;2.709241043451214E+01;-2.621247769051759E+00;2.709241043451214E+01;
1.568000000000000E+08;7.320053928111971E-01;2.259286502716244E+01;-2.709714388134960E+00;2.259286502716244E+01;
1.574000000000000E+08;7.233881462954432E-01;1.805455853686225E+01;-2.812572240508092E+00;1.805455853686225E+01;
1.580000000000000E+08;7.138024373221163E-01;1.353282255372319E+01;-2.928439469054673E+00;1.353282255372319E+01;
1.586000000000000E+08;7.041094765378301E-01;9.059555241673337E+00;-3.047196210343002E+00;9.059555241673337E+00;
1.592000000000000E+08;6.941754938302479E-01;4.517676287174041E+00;-3.170614441991486E+00;4.517676287174041E+00;
1.598000000000000E+08;6.830633073007286E-01;-7.903615888397461E-03;-3.310780868177876E+00;-7.903615888397461E-03;
1.604000000000000E+08;6.705245534311753E-01;-4.489070535318139E+00;-3.471706288404812E+00;-4.489070535318139E+00;
1.610000000000000E+08;6.570465026844445E-01;-8.830738619143286E+00;-3.648077840325032E+00;-8.830738619143286E+00;
1.616000000000000E+08;6.436189756685036E-01;-1.307148209125161E+01;-3.827423203621870E+00;-1.307148209125161E+01;
1.622000000000000E+08;6.298206764473835E-01;-1.718474779954520E+01;-4.015661719349765E+00;-1.718474779954520E+01;
1.628000000000000E+08;6.155919095069943E-01;-2.118067233970428E+01;-4.214141931442675E+00;-2.118067233970428E+01;
1.634000000000000E+08;6.011160066097555E-01;-2.497640866016182E+01;-4.420834148338991E+00;-2.497640866016182E+01;
1.640000000000000E+08;5.874197906982299E-01;-2.852937468430173E+01;-4.621028515942744E+00;-2.852937468430173E+01;
1.646000000000000E+08;5.753301037048930E-01;-3.187821511054745E+01;-4.801658025108866E+00;-3.187821511054745E+01;
1.652000000000000E+08;5.651032703671071E-01;-3.504029504745261E+01;-4.957443586893614E+00;-3.504029504745261E+01;
1.658000000000000E+08;5.571619569972459E-01;-3.805994771772727E+01;-5.080370897015128E+00;-3.805994771772727E+01;
1.664000000000000E+08;5.524910101768584E-01;-4.100794800682126E+01;-5.153495683620735E+00;-4.100794800682126E+01;
1.670000000000000E+08;5.509729781870950E-01;-4.411478612087988E+01;-5.177394001621502E+00;-4.411478612087988E+01;
1.676000000000000E+08;5.506272104076555E-01;-4.753196478698033E+01;-5.182846616648863E+00;-4.753196478698033E+01;
1.682000000000000E+08;5.500553922937363E-01;-5.101660298268782E+01;-5.191871469890276E+00;-5.101660298268782E+01;
1.688000000000000E+08;5.498789553401010E-01;-5.462297690431319E+01;-5.194658021512732E+00;-5.462297690431319E+01;
1.694000000000000E+08;5.491160879810404E-01;-5.835986221004163E+01;-5.206716643239579E+00;-5.835986221004163E+01;
1.700000000000000E+08;5.477731528596074E-01;-6.214504893559474E+01;-5.227985138999625E+00;-6.214504893559474E+01;
1.706000000000000E+08;5.454711527845616E-01;-6.594121982402814E+01;-5.264564242218692E+00;-6.594121982402814E+01;
1.712000000000000E+08;5.421777856255724E-01;-6.968330490582389E+01;-5.317165610354961E+00;-6.968330490582389E+01;
1.718000000000000E+08;5.382276454125523E-01;-7.319010011227924E+01;-5.380679979762906E+00;-7.319010011227924E+01;
1.724000000000000E+08;5.360917421416408E-01;-7.638334094712812E+01;-5.415217650306002E+00;-7.638334094712812E+01;
1.730000000000000E+08;5.379405448554189E-01;-7.942363923406725E+01;-5.385314429723423E+00;-7.942363923406725E+01;
1.736000000000000E+08;5.441752998448455E-01;-8.258447881955804E+01;-5.285223495319817E+00;-8.258447881955804E+01;
1.742000000000000E+08;5.540309362684783E-01;-8.609673487232270E+01;-5.129319684652488E+00;-8.609673487232270E+01;
1.748000000000000E+08;5.653408714903200E-01;-9.009642702422390E+01;-4.953792319063419E+00;-9.009642702422390E+01;
1.754000000000000E+08;5.754612056501288E-01;-9.451885852455185E+01;-4.799678974653195E+00;-9.451885852455185E+01;
1.760000000000000E+08;5.823513424524376E-01;-9.917741809975981E+01;-4.696298380878393E+00;-9.917741809975981E+01;
1.766000000000000E+08;5.862549443805839E-01;-1.037993244274866E+02;-4.638269629822105E+00;-1.037993244274866E+02;
1.772000000000000E+08;5.887645419378568E-01;-1.083041753192864E+02;-4.601167061197307E+00;-1.083041753192864E+02;
1.778000000000000E+08;5.917810971893827E-01;-1.127138752135669E+02;-4.556778225800898E+00;-1.127138752135669E+02;
1.784000000000000E+08;5.956321398316760E-01;-1.171925879527458E+02;-4.500437522126106E+00;-1.171925879527458E+02;
1.790000000000000E+08;5.990553889290233E-01;-1.218284478939156E+02;-4.450660413845621E+00;-1.218284478939156E+02;
1.796000000000000E+08;6.005907002450588E-01;-1.265407841274396E+02;-4.428427937030571E+00;-1.265407841274396E+02;
1.802000000000000E+08;6.002628859261315E-01;-1.311542790139175E+02;-4.433170162226878E+00;-1.311542790139175E+02;
1.808000000000000E+08;5.994848345390965E-01;-1.355234410975521E+02;-4.444435979719442E+00;-1.355234410975521E+02;
1.814000000000000E+08;5.989934541542186E-01;-1.397147415455957E+02;-4.451558471754191E+00;-1.397147415455957E+02;
1.820000000000000E+08;6.001463165578720E-01;-1.437654197110566E+02;-4.434857101428893E+00;-1.437654197110566E+02;
1.826000000000000E+08;6.037032485719438E-01;-1.478031458088071E+02;-4.383529743388605E+00;-1.478031458088071E+02;
1.832000000000000E+08;6.094538960456640E-01;-1.519657610010620E+02;-4.301182846040158E+00;-1.519657610010620E+02;
1.838000000000000E+08;6.161561424200845E-01;-1.563370555126272E+02;-4.206184354163156E+00;-1.563370555126272E+02;
